freq,mu_Z_re,mu_Z_im,Z_re_res,Z_im_res
10000.0,0.02394679500681822,-5.792938012898537e-06,-0.02094706953542768,-0.0507786722107123
9120.1083984375,0.023946796479861438,-6.351826230035261e-06,-0.016509286192019263,-0.04264115562800504
8317.6376953125,0.023946798250745843,-6.964633731427007e-06,-0.012911350622106455,-0.03985888345029793
7585.77587890625,0.023946800379672218,-7.636562166090767e-06,-0.016597396583637982,-0.03315952019411079
6918.3095703125,0.023946802939001192,-8.373314901637138e-06,-0.01042189834016221,-0.030480575541421237
6309.5732421875,0.023946806015706163,-9.181145406830281e-06,-0.00906997251298414,-0.02906103262660613
5754.3994140625,0.023946809714319683,-1.0066910270003306e-05,-0.005416774059054916,-0.026733626856091805
5248.07470703125,0.023946814160472764,-1.1038127342302252e-05,-0.00041879721390543703,-0.0242448505936061
4786.30078125,0.023946819505145874,-1.2103039447780648e-05,-0.0023351780563089265,-0.021195372137848882
4365.158203125,0.02394682592977441,-1.3270684234989035e-05,9.829416204851227e-05,-0.020086312004082087
3981.07177734375,0.02394683365238125,-1.4550970742898235e-05,0.0011291623534005514,-0.015531541766474397
3630.78051757813,0.02394684293494176,-1.5954763312965498e-05,-0.0012508194781785421,-0.011138346322496565
3311.31127929688,0.023946854092232062,-1.7493973573603805e-05,0.0003601748422301619,-0.013253772641619603
3019.95166015625,0.023946867502456903,-1.918166123859976e-05,-0.0008134830825268988,-0.011434502109816001
2754.22875976563,0.023946883620022646,-2.103214456130236e-05,0.002042484001516246,-0.011224943300023603
2511.88647460938,0.02394690299088359,-2.3061121387401346e-05,0.0004810907846152894,-0.012105826931579002
2290.86767578125,0.023946926270996354,-2.528580177767964e-05,0.0016175399473059536,-0.010874540938923179
2089.29614257813,0.023946954248494155,-2.7725053244063824e-05,0.0041948373746337544,-0.012771124531739165
1905.46069335938,0.02394698787037007,-3.0399559842541983e-05,0.0013611488372432708,-0.006959228570418542
1737.80078125,0.023947028274531643,-3.3331996301731094e-05,1.5416945214542788e-05,-0.007329993842641431
1584.89318847656,0.02394707682839626,-3.6547218672168915e-05,0.0021917912673115603,-0.006564808801970568
1445.43981933594,0.023947135175224617,-4.007247280430724e-05,0.001480876098033216,-0.008135551111810907
1318.25671386719,0.023947205289910196,-4.393762237149008e-05,0.002330457687089796,-0.00608699271714999
1202.26440429688,0.023947289545972025,-4.817539805406039e-05,0.002690257837016225,-0.006456050965728661
1096.47814941406,0.02394739079606573,-5.282166968429086e-05,0.0013632039291862283,-0.004272457525090791
1000.0,0.023947512468742584,-5.791574314462763e-05,0.010691802686499784,-0.008850716571959127
912.010864257813,0.023947658684607246,-6.350068398859142e-05,0.0009441382405717472,-0.003483224977041691
831.763793945313,0.023947834395875625,-6.962366968691966e-05,0.0018139717961451265,-0.0026108751502662195
758.577575683594,0.023948045553852753,-7.6336372721589e-05,0.003185285361696953,-0.002958132006305789
691.830993652344,0.02394829930996863,-8.369537618989108e-05,-0.003700393640637671,0.0039148063157773095
630.957336425781,0.023948604256967893,-9.176262380220296e-05,0.0019698105912011946,-0.0011896577124077031
575.43994140625,0.02394897071816999,-0.00010060590575323606,0.0028102169761903897,0.00017536499654066396
524.807434082031,0.02394941109421569,-0.00011029938162670776,0.0025477915555508907,-0.0024639505978803077
478.630096435547,0.02394994027847846,-0.00012092414067639892,0.00136746704513626,-0.0019222596263283988
436.515838623047,0.02395057615440604,-0.00013256879926100082,0.0018337418566298398,-0.001084530471660101
398.107177734375,0.02395134019042589,-0.00014533013350056165,0.002349132395640389,-0.0009124107706611616
363.078063964844,0.023952258150812207,-0.00015931374350770143,0.002948056306477608,-0.0017296889140663014
331.131134033203,0.02395336094408334,-0.00017463474340298436,0.0015374454399854388,-0.0011511299553468844
301.995178222656,0.023954685633962566,-0.00019141846733465194,0.001833556076472266,-0.00021399357374822124
275.422882080078,0.02395627664194346,-0.00020980117839641674,-8.508919014693986e-05,-0.0018027388024783168
251.18864440918,0.023958187174435444,-0.00022993075966014728,0.0014394685592611436,-0.0017322612910262473
229.086761474609,0.023960480911936526,-0.00025196736034178687,-0.003435894401464676,-0.003695861336851287
208.929611206055,0.023963234001840413,-0.00027608395985859586,0.001273492896999212,-0.0005608194224868959
190.54606628418,0.023966537399958854,-0.00030246679914471984,0.001220376773547454,1.9958618690080166e-05
173.780090332031,0.023970499608130757,-0.0003313156120309003,0.0012275818469241577,4.231357171029969e-05
158.489318847656,0.02397524985562988,-0.00036284356978979993,0.000399252875558781,-8.944113874139993e-05
144.543975830078,0.02398094176859831,-0.00039727682638308366,0.0018271190634486095,0.0019362007787511164
131.825668334961,0.023987757562540245,-0.00043485352080226337,-0.0003256364177244529,-0.0002473480913081634
120.226440429688,0.023995912775934592,-0.0004758220577384687,-0.005630350529610306,-0.0025368386825318687
109.647819519043,0.024005661533831626,-0.0005204384459823058,0.0004655819401732271,6.242006666139417e-05
100.0,0.02401730228565569,-0.0005689624304329995,0.00119678300224179,0.0004122460886457006
91.2010803222656,0.024031183894882215,-0.0006216521083815421,0.0009686529898739159,0.002143917960350358
83.1763763427734,0.024047711864855215,-0.0006787566813101899,0.0002487003810667139,0.0008280868064219102
75.8577575683594,0.024067354360799424,-0.000740506972449038,0.0009298091476961229,0.000616092297917062
69.1830978393555,0.02409064752613939,-0.0008071033436476199,0.0012075899318400897,0.00168424438092418
63.0957336425781,0.02411819939360899,-0.0008787006978886379,0.00045749117479608817,0.0002934282504943622
57.5439949035645,0.02415069146744976,-0.0009553903796513904,0.00042265235178245986,0.0001474992755065097
52.4807472229004,0.02418887682119882,-0.0010371790113696763,0.000318334175744419,0.0002544409516429236
47.8630104064941,0.024233573345521377,-0.0011239646491566567,0.00030537810740797686,-4.1418475755670633e-07
43.6515846252441,0.02428565065523209,-0.0012155111316356413,0.0005985934581380914,0.00022181867195775868
39.810718536377,0.024346009191843744,-0.00131142212111244,0.00042218744454074544,-0.00010346798725173988
36.307804107666,0.02441555032139203,-0.0014111170553002632,0.00038959228997612755,-0.00014080237675056324
33.1131134033203,0.024495136817457477,-0.0015138119624614908,0.0009226397476217764,0.00015660878944540914
30.1995162963867,0.02458554406655557,-0.0016185086857023277,0.0003516105283570721,-0.0002781111685055276
27.5422878265381,0.024687403653606985,-0.0017239963529167,0.0005070248887391847,-0.0035065769809765
25.1188640594482,0.024801142542323833,-0.001828868699408431,0.0007860772597406349,-0.00024981593076083084
22.9086761474609,0.024926922668071384,-0.0019315599597465975,-0.004262753378300118,0.074936847468518
20.8929615020752,0.025064587089985102,-0.002030400426706138,0.00046306611952130067,6.632403692056208e-05
19.0546073913574,0.02521361956594699,-0.0021236905284177897,0.004641473165137692,-0.0007517392203163897
17.3780078887939,0.025373124209263978,-0.0022097896692945037,0.000247283530452877,-0.0009192366527065038
15.8489322662354,0.025541830610761044,-0.0022872135306186868,0.0007900593693345448,-0.0006763287384472867
14.4543981552124,0.025718127502101538,-0.0023547315123627673,0.000741548029678938,-0.0005117934980566673
13.1825675964355,0.02590012495786263,-0.0024114549589502273,0.0026910169181259304,-0.0011044405830252274
12.0226440429688,0.026085741762434833,-0.0024569070254430838,0.0031896102618330334,-0.0014301987419814838
10.9647817611694,0.026272811427637197,-0.002491066564598107,0.0021286033689222952,-0.00010248190423200717
10.0,0.026459197987688424,-0.0025143810433882006,0.0017664297566541247,-3.8717489464900647e-05
9.12010860443115,0.02664291148774133,-0.002527746833312759,0.0005705769895743319,-0.00045044277367325926
8.31763744354248,0.02682221319866041,-0.002532458730260554,0.0010259171236739091,-0.00021777218788375389
7.58577585220337,0.02699570196677127,-0.002530133719521869,0.0013712851982203705,-0.00015599061265896908
6.91830968856812,0.027162375471862586,-0.0025226163521259518,0.001131743735941687,-0.00022146984300015164
6.30957365036011,0.027321663089235407,-0.002511874383687558,0.0011849350856143054,-1.6291927542582546e-06
5.75439929962158,0.02747343007745114,-0.0024998934500943476,0.0012217023623165395,0.0030986860833037526
5.24807453155518,0.027617955484827893,-0.0024885786699947125,0.001268491053422794,9.770132574468769e-05
4.78630113601685,0.02775588819478922,-0.002479669412173937,0.0009170603165524205,8.645559889756309e-05
4.36515855789185,0.027888186725702445,-0.0024746714342267773,0.0009874855008985446,0.00015232645013612276
3.98107171058655,0.02801604879119117,-0.0024748085159592426,0.0008509804777117706,5.653966433575956e-07
3.63078045845032,0.02814083633852459,-0.002480993878356196,0.0009803221924349903,0.0003794411734873043
3.3113112449646,0.02826400104905305,-0.002493820254640593,0.0012530740722530506,0.0023672761312258073
3.01995182037354,0.028387014326682142,-0.00251356652389335,0.0009133168878460406,0.00027131428559255
2.75422859191895,0.028511304824691552,-0.0025402182610432945,0.0008177668294723529,0.00023100307307130554
2.51188635826111,0.028638205674061955,-0.0025734993068072566,0.0010356541690923551,0.0002177585011776434
2.29086756706238,0.028768912825803114,-0.002612911380544972,0.0012904526033204154,0.0005857094827138279
2.0892961025238,0.0289044552765854,-0.002657778770126572,0.0009129387609728007,-0.0007516721723826718
1.90546071529388,0.02904567736587403,-0.0027072951871071563,-0.0004410682300579685,0.00034095573023804364
1.73780083656311,0.02919323276361724,-0.0027605699744982777,0.0005053626336743375,0.00042325380286442225
1.58489322662354,0.02934758919427436,-0.0028166710361994295,0.00018409448812045995,9.710132515357035e-05
1.44543981552124,0.029509042373122744,-0.002874662153366349,0.0005936948416848421,0.001785422690269151
1.3182567358017,0.029677737111378333,-0.0029336328004379115,0.0011625621264464321,-0.0007576036584456113
1.20226442813873,0.029853693129693486,-0.0029927191601681305,1.1964621221084715e-05,0.00028403803728636965
1.09647822380066,0.03003683286750934,-0.003051115749567633,-0.00013640549933295956,-0.0008269050998389329
1.0,0.03022700852787112,-0.0031080778376795554,0.00038125856852152043,0.0006302232699803446
0.912010848522186,0.0304240257764544,-0.003162915610202752,0.0003274278069224021,-0.0002619140096541523
0.831763744354248,0.03062766191233496,-0.0032149817272241646,0.0003534309255013614,-0.00022191889017486458
0.758577585220337,0.03083767691507658,-0.0032636544702819544,0.0002814079250367772,-0.0002092372661701542
0.691830992698669,0.03105381649613346,-0.003308319031742601,0.0003418769377466595,-0.0003548413622354008
0.630957365036011,0.031275807076427166,-0.003348349626666371,0.0003883001742092662,-0.00035698948011407116
0.575439929962158,0.03150334340637995,-0.0033830949995060774,0.00037814249402354574,-0.0005372928879549773
0.524807453155518,0.03173607027021121,-0.00341186956634948,0.00033215990153021013,-0.0005318772061003799
