freq,mu_Z_re,mu_Z_im,Z_re_res,Z_im_res
10000.0,0.017242079027000812,-2.960888050338468e-05,-0.003259687326844788,-0.011380761203689783
9120.1083984375,0.017242128498815637,-3.246497892197837e-05,-0.002184427805281563,-0.010278309700716078
8317.6376953125,0.017242187974253535,-3.559646544646825e-05,-0.001740893008908364,-0.009437266191222168
7585.77587890625,0.017242259475466815,-3.9029857037649096e-05,-0.001092686188342986,-0.008732045059917549
6918.3095703125,0.01724234543307447,-4.279421240356038e-05,-0.0009432347162184294,-0.007833660054656461
6309.5732421875,0.01724244876855296,-4.692137233922882e-05,-0.0006076578134926389,-0.007472148574814229
5754.3994140625,0.017242572993166654,-5.144622083561566e-05,-0.0002806542663500444,-0.0062186438208426155
5248.07470703125,0.01724272232678328,-5.6406970080603474e-05,-7.521536025612008e-05,-0.006154595895615004
4786.30078125,0.017242901840465348,-6.184546881497926e-05,0.00011912442113664809,-0.00507324008875668
4365.158203125,0.017243117627646395,-6.780753801454906e-05,0.00032425538912009624,-0.004614558806222549
3981.07177734375,0.017243377009484393,-7.434333348389541e-05,0.0002404610459538943,-0.004702620251567295
3630.78051757813,0.017243688781107533,-8.150773681886271e-05,0.0004593952040325318,-0.0037083816863614626
3311.31127929688,0.017244063506774807,-8.936077539386893e-05,0.0007755795521068067,-0.003739042116296869
3019.95166015625,0.017244513873474122,-9.796807195595791e-05,0.0008068287563486216,-0.003311599061149858
2754.22875976563,0.017245055114201314,-0.00010740132241867223,0.001020475228599313,-0.0030202707665355722
2511.88647460938,0.017245705514218494,-0.00011773880059941179,0.00042119929101669396,-0.002143940492077812
2290.86767578125,0.017246487016086193,-0.00012906588685430054,0.0005178381001992929,-0.002427442642643201
2089.29614257813,0.017247425941460334,-0.00014147561286253436,0.001032626805536934,-0.0019836095465407344
1905.46069335938,0.017248553851433902,-0.0001550692167570064,0.0008137670101606015,-0.0018311240045790064
1737.80078125,0.017249908569457854,-0.00016995669327822665,0.0007819983094957544,-0.0016587723371028268
1584.89318847656,0.017251535395719313,-0.00018625732441339958,0.0009306548932569124,-0.0012860213445954995
1445.43981933594,0.01725348854396863,-0.0002041001638285269,0.0008298161063008298,-0.001284074510622627
1318.25671386719,0.017255832836153333,-0.0002236244396586732,0.0008483747245095312,-0.0010407315927837733
1202.26440429688,0.017258645693189797,-0.0002449798351486517,0.0007750240213939968,-0.0008148983191099517
1096.47814941406,0.017262019461982532,-0.00026832658798176814,0.000664314500086631,-0.0008124772971562682
1000.0,0.017266064117816612,-0.0002938353257777553,0.0007406893923556125,-0.0004341501019952553
912.010864257813,0.017270910378483023,-0.0003216865425202274,0.0006104473135740245,-0.0003792445259023668
831.763793945313,0.01727671325915658,-0.0003520695882200793,0.0006986219506820816,-0.0004285219238538825
758.577575683594,0.017283656079158244,-0.00038518101306518886,0.0005124252325148446,-0.00028564470509419564
691.830993652344,0.017291954906599384,-0.0004212220682301471,0.0004431076365874857,-3.5461127386047055e-05
630.957336425781,0.017301863385766652,-0.0004603951302309957,0.0005147963300644529,-0.0001271640422241957
575.43994140625,0.017313677830489076,-0.0005028987705435712,0.0003706347326353776,8.345925555728727e-06
524.807434082031,0.017327742382833605,-0.000548921161404338,0.0002772302478048043,7.386850511786197e-05
478.630096435547,0.017344453915127466,-0.0005986314780025009,0.0003181356779419671,0.0001304655171983991
436.515838623047,0.01736426620656121,-0.0006521689724623526,0.0002299033748494085,7.500385209174745e-05
398.107177734375,0.0173876927393392,-0.0007096294451662964,0.00020288388905079918,0.00014084647193830357
363.078063964844,0.01741530723562166,-0.0007710489440978345,2.4709623955957577e-05,0.00017699954367346546
331.131134033203,0.0174477408274585,-0.0008363847489890016,1.3982002394802295e-05,0.00018647868563859832
301.995178222656,0.017485674553977672,-0.0009054940492834536,3.339358554997271e-05,0.00020882677557054643
275.422882080078,0.017529825745469303,-0.0009781112095865073,-0.0001664356604754967,0.00021318493945869264
251.18864440918,0.017580926863630327,-0.0010538251453571998,-3.75821458501735e-05,0.00013253592536510012
229.086761474609,0.01763969567864244,-0.0011320591148668055,-0.0002495152756660582,0.00012650611449689458
208.929611206055,0.01770679625899996,-0.0012120559817278844,-0.0002727436718205391,3.868241271871571e-05
190.54606628418,0.017782791348760568,-0.0012928726645939528,-0.00024175008886533067,9.48014640427472e-05
173.780090332031,0.01786808815108787,-0.0013733877465363256,-0.0002912082125042306,8.861791433277446e-05
158.489318847656,0.017962881337467776,-0.0014523258862282145,-0.0002538366507848257,8.41962908197855e-05
144.543975830078,0.018067098919156664,-0.0015283015066183932,-0.00031534978389393536,9.374146131940677e-05
131.825668334961,0.01818035802704987,-0.001599882142070107,-0.00028064959781472915,2.3593316402792993e-05
120.226440429688,0.01830193821267053,-0.0016656689783409355,-0.00040067311450077067,-1.4655708320535608e-05
109.647819519043,0.018430779184894868,-0.0017243889243739883,-0.0002633850465247334,-0.0001789025347146882
100.0,0.018565507649125963,-0.0017749895909932266,-0.0003101843906022361,-4.8081563798826584e-05
91.2010803222656,0.018704494435148537,-0.001816726698385077,-0.000602310549659462,-0.00015759776703407708
83.1763763427734,0.018845938834180755,-0.001849233105053135,-0.00020938670373924634,-0.00018465733362453508
75.8577575683594,0.01898797286896153,-0.0018725603199891828,-0.00018508301826077045,-0.00024627738961508286
69.1830978393555,0.01912877500445265,-0.0018871866770688978,-0.0001671018412647482,-0.00018684637254519788
63.0957336425781,0.019266681286119615,-0.0018939908275075216,-0.0001189191764362843,-0.00019708477497772168
57.5439949035645,0.019400282398794325,-0.0018941938619855088,-3.332401719267561e-05,-0.00020640580670720885
52.4807472229004,0.019528497506447747,-0.0018892773035825334,-0.00014267067187215265,-0.00014321849028633353
47.8630104064941,0.019650619396723218,-0.0018808866768224956,-0.0001455248205294822,-0.00023702282096139558
43.6515846252441,0.01976632951522937,-0.001870731085242139,5.416265452967001e-05,-9.5906977245039e-05
39.810718536377,0.019875685280603052,-0.0018604881945999308,-6.414710875164709e-05,-0.00012691364400113083
36.307804107666,0.01997908471155503,-0.0018517218504462895,6.814356926430204e-06,-0.00012285478621618952
33.1131134033203,0.020077214910660494,-0.0018458167055854092,1.200415102079605e-05,-4.082076461009269e-06
30.1995162963867,0.020170991021155348,-0.001843931538185232,7.937374471647662e-06,-7.193981496823204e-05
27.5422878265381,0.020261491497034816,-0.0018469707159188336,-9.33293533818269e-06,-3.435889294863361e-05
25.1188640594482,0.020349894147986203,-0.0018555718641995545,-3.6317290126978985e-06,-3.9111932766354484e-05
22.9086761474609,0.020437415983388153,-0.0018701071780011852,-2.518080561424857e-05,-7.33886135978511e-06
20.8929615020752,0.020525258632669453,-0.001890695848111348,-3.374121867654595e-05,-7.025136945804805e-05
19.0546073913574,0.02061456034013679,-0.0019172253892482342,-5.220657160830838e-05,3.11935213668658e-05
17.3780078887939,0.020706355073539878,-0.0019493801775589464,1.3486915318678544e-05,-6.696526196004631e-05
15.8489322662354,0.020801539258833622,-0.001986675772425754,-3.3294124726579444e-05,-6.36590342792539e-05
14.4543981552124,0.020900846679792914,-0.0020284977687500083,-3.216114164778655e-05,-6.345929037560819e-05
13.1825675964355,0.0210048321741135,-0.002074143774112606,-6.75778729408022e-05,-2.7612962331061836e-06
12.0226440429688,0.021113864650571235,-0.0021228668584684666,-6.592688933626523e-05,-8.91251794259665e-05
10.9647817611694,0.021228129669345203,-0.0021739185370176052,-9.748835929549587e-05,-3.182935078140537e-05
10.0,0.02134764134625205,-0.0022265891438928752,-2.238028010125015e-05,-8.103473918717524e-05
9.12010860443115,0.021472262742507905,-0.0022802434631944476,-6.266630948739693e-05,-5.4750382280447426e-05
8.31763744354248,0.021601733289965543,-0.0023343497356118907,-6.040324985135889e-05,-4.065683388139061e-05
7.58577585220337,0.021735701303766196,-0.00238850061292184,-4.375759675104979e-06,-9.463145839413989e-05
6.91830968856812,0.021873759312919922,-0.0024424252673536004,-2.468915433467833e-05,-1.3827263891700269e-05
6.30957365036011,0.022015479861263666,-0.0024959925514007096,-5.933688723623598e-05,-8.809435631280949e-05
5.75439929962158,0.022160449584212708,-0.0025492057497102784,2.5009324040807523e-05,-4.409354314697817e-05
5.24807453155518,0.022308299710951766,-0.0026021900382493506,-1.4369914330535083e-05,-3.5619622156550425e-05
4.78630113601685,0.022458731628982573,-0.002655174117318842,-1.3435758622126065e-05,3.8050115324958327e-05
4.36515855789185,0.022611536683309206,-0.002708467699445093,5.91056215904634e-07,-0.00010053119421689306
3.98107171058655,0.022766609914439528,-0.0027624365131837794,-4.798615739977363e-05,2.2430326463420466e-05
3.63078045845032,0.02292395789309608,-0.002817476344466316,-2.4595892585618784e-05,-7.57895774992157e-05
3.3113112449646,0.023083701152729008,-0.0028739873578471076,-5.698634274099029e-05,-0.00010089080572850753
3.01995182037354,0.02324607192879744,-0.0029323496189435417,-7.191976846961101e-06,-9.099061456524157e-05
2.75422859191895,0.023411407984933814,-0.0029929003981273403,2.168483301161206e-05,-7.997600597854041e-05
2.51188635826111,0.02358014325852348,-0.003055913546455802,3.483521993118133e-05,-4.201795473490191e-05
2.29086756706238,0.023752795920924722,-0.0031215810031038705,2.680571492152256e-05,-2.1646805141670514e-05
2.0892961025238,0.02392995425805195,-0.003189996380539392,1.918779059995046e-05,-1.0153308691292304e-05
1.90546071529388,0.024112260580316843,-0.003261140544197891,4.06304027204471e-06,-4.1957941136690734e-05
1.73780083656311,0.024300393204614613,-0.0033348691823838856,-3.450501389788696e-05,-1.7606827377855336e-06
1.58489322662354,0.024495046451553266,-0.003410902506594799,-0.00013333758725273329,-6.996903467669903e-05
1.44543981552124,0.024696908588447475,-0.003488817400873847,-2.1435623130925535e-05,-0.00010630829224104717
1.3182567358017,0.02490663773511058,-0.0035680425338206648,-4.000344182842133e-05,-2.6748979812664646e-05
1.20226442813873,0.025124835923983884,-0.0036478570745923575,-4.055243663561581e-05,1.9946983418426406e-06
1.09647822380066,0.025352021753972775,-0.0037273937350172964,-8.618451636432586e-05,-8.86149218339966e-05
1.0,0.02558860235865345,-0.0038056468196854664,-0.00012543185596235185,-0.00013839677690426645
0.912010848522186,0.025834845691320364,-0.0038814858244171323,-0.0001385264700680365,-9.200272051603214e-05
0.831763744354248,0.02609085436433301,-0.0039536748781207574,-5.2364957633190684e-05,-5.044073344805762e-05
0.758577585220337,0.02635654243250743,-0.004020897975727069,-4.51263544951723e-05,-5.242026092026897e-05
0.691830992698669,0.026631616552294995,-0.004081789568448981,-5.5312614022005185e-05,-3.80609566981438e-07
0.630957365036011,0.026915562862358237,-0.004134969666449253,-6.17880205136187e-06,0.00012096588328674735
0.575439929962158,0.027207640719680987,-0.004179082237100179,-4.086292061311267e-05,0.00015210883327762114
0.524807453155518,0.027506884100315494,-0.00421283537008082,-4.2543686653052915e-06,0.0001912885024376804
