freq,mu_Z_re,mu_Z_im,Z_re_res,Z_im_res
10000.0,0.017282734503383284,-3.1277075151208755e-05,-0.003049996803169617,-0.01153295161549211
9120.1083984375,0.017282788306884584,-3.429406895060825e-05,-0.002309908493943417,-0.010669293791193009
8317.6376953125,0.017282852990024713,-3.7601958040335345e-05,-0.0016539561623399868,-0.009457947495404734
7585.77587890625,0.017282930752081715,-4.122875058093343e-05,-0.0017008878385592861,-0.008851005727285532
6918.3095703125,0.017283024236594252,-4.520513860598155e-05,-0.0006913226395501466,-0.008218992173653981
6309.5732421875,0.017283136620987252,-4.956475189522543e-05,-0.0004159299285523485,-0.0071559667094667255
5754.3994140625,0.017283271724171483,-5.434443304790163e-05,-0.0003429933397104158,-0.0067653450096632015
5248.07470703125,0.017283434135799254,-5.9584538360568884e-05,0.00023959027040465486,-0.005461673169304969
4786.30078125,0.017283629371348964,-6.532926231785403e-05,-0.00032631147044503636,-0.005717645176948654
4365.158203125,0.01728386405836188,-7.162699200018041e-05,0.0004971583558185805,-0.00499260602243048
3981.07177734375,0.017284146159791954,-7.853068816983056e-05,0.00039694516351225506,-0.00496749317679123
3630.78051757813,0.017284485241879324,-8.609829693780719e-05,0.0009468260319126232,-0.004201612754163608
3311.31127929688,0.017284892795200003,-9.439319097552568e-05,0.00030371203791580356,-0.003427637198056226
3019.95166015625,0.017285382619279456,-0.00010348464167699054,0.000457061698812055,-0.0025970498452988905
2754.22875976563,0.017285971282943496,-0.0001134483197939803,0.0009283389290415944,-0.0030114030985396805
2511.88647460938,0.017286678674860924,-0.00012436682336256302,0.0008834841579637223,-0.0030465322637579628
2290.86767578125,0.017287528661464813,-0.00013633022988747206,0.0002976884668819124,-0.0028917800818622718
2089.29614257813,0.017288549871486494,-0.00014943666128663626,0.0008768561047733936,-0.0018503801135926364
1905.46069335938,0.01728977663122949,-0.00016379286059535776,0.00097748851084049,-0.0016339877572784578
1737.80078125,0.017291250075700905,-0.00017951475476569507,0.0008437897968322054,-0.001660967013069395
1584.89318847656,0.017293019467908226,-0.0001967279978157434,0.0006699136141122275,-0.0015530983956591432
1445.43981933594,0.017295143758392424,-0.00021556845304393225,0.0007612120411158232,-0.0011959982700349321
1318.25671386719,0.017297693424056307,-0.00023618258503291408,0.0007609621511204083,-0.001013341587642414
1202.26440429688,0.017300752626856326,-0.0002587277110505603,0.0005673632790646269,-0.0006641932256824603
1096.47814941406,0.017304421734929357,-0.00028337204745881606,0.0006029804767372568,-0.000827816530698016
1000.0,0.017308820247397137,-0.00031029446035509716,0.0007772745785567352,-0.00043708247466829717
912.010864257813,0.017314090160593126,-0.0003396838156304962,0.0008476271759120246,-0.0005288125694759962
831.763793945313,0.017320399805114947,-0.000371737790612109,0.0008125581584436485,-0.000150113300389309
758.577575683594,0.017327948160850145,-0.0004066609671019937,0.0004533479590049447,-9.328055411179367e-05
691.830993652344,0.017336969631999193,-0.0004446619987157971,0.0004141082943374917,2.6342635448402935e-05
630.957336425781,0.017347739213959816,-0.00048594959083173115,0.0004742100330754166,6.065736521806888e-05
575.43994140625,0.017360577918464095,-0.0005307269978392394,0.0002907501532376962,0.00013087332508896052
524.807434082031,0.017375858228894658,-0.000579184703982698,0.0003122908140148588,7.425048110320197e-05
478.630096435547,0.017394009221802377,-0.0006314909215514939,0.00025854370416227707,0.0001884831334965061
436.515838623047,0.01741552083696839,-0.0006877795768137657,0.00017159721757889143,0.0001232024423610343
398.107177734375,0.017440946567445097,-0.0007481354954875356,0.00010138729551349701,0.00021186465488376438
363.078063964844,0.017470903607025648,-0.0008125766396097876,0.0002070888000874488,0.00026499082040561247
331.131134033203,0.017506069248579555,-0.000881033494927363,0.00013021819856025643,0.0001542891731034369
301.995178222656,0.017547172133455143,-0.0009533261145540991,0.00010378343296994427,0.00038006308385340093
275.422882080078,0.01759497681637644,-0.0010291398390236777,-0.00010521104554295918,0.0002298691655468223
251.18864440918,0.017650260159825154,-0.0011080014104584142,-0.00014931099667664718,0.0002732695262317858
229.086761474609,0.017713778467731336,-0.0011892580443657974,-6.978697900306488e-05,8.613036315510258e-05
208.929611206055,0.017786224907844806,-0.0012720627542921552,-0.00025949853041809523,0.00010754763424754483
190.54606628418,0.01786817807961517,-0.0013553699494379791,-0.00022734690200272925,8.189652422032094e-05
173.780090332031,0.017960044045184195,-0.0014379454179544624,-0.00037369276192370654,6.703204858403747e-05
158.489318847656,0.018061996176018915,-0.001518394437244878,-0.0004479841151092852,9.647804536032194e-05
144.543975830078,0.018173918918821495,-0.0015952102996615676,-0.0003759964843062062,-1.079648902846766e-05
131.825668334961,0.01829536303210982,-0.001666843284133973,-0.00042088472019898016,6.691415493542707e-05
120.226440429688,0.01842552019714941,-0.0017317870043927468,-0.00023893670678509088,4.114616953185312e-05
109.647819519043,0.018563223979888882,-0.0017886757661324478,-0.00037080051797771726,-8.300096231674773e-05
100.0,0.018706981548835922,-0.0018363835974822594,-0.00031903713030607614,5.455198835174063e-05
91.2010803222656,0.01885503678147532,-0.001874113913639141,-0.0004006683963086802,-0.0003311992548543411
83.1763763427734,0.01900546098887168,-0.0019014687124263101,-0.00017921594143661956,-0.00015033582091291005
75.8577575683594,0.019156263146509932,-0.0019184881905469696,-0.00019071350623146854,-0.00014692149966996962
69.1830978393555,0.01930550852518796,-0.0019256552691887753,-5.8315752928236875e-05,-0.00027979931434057533
63.0957336425781,0.019451433167566586,-0.0019238642198627183,-0.00018184322048251517,-0.00019810148660441822
57.5439949035645,0.019592542524039937,-0.0019143572991737437,-0.00013113362103686285,-0.0002179497370520438
52.4807472229004,0.019727685056337218,-0.0018986372356760502,-0.00010270016669378101,-0.00027075941539295026
47.8630104064941,0.019856095520209206,-0.0018783657635755746,6.569383795150541e-05,-5.5541173667474596e-05
43.6515846252441,0.01997740672211347,-0.0018552590574171734,-6.106204111873056e-05,-0.00016452511242007347
39.810718536377,0.02009163247919703,-0.0018309897304342722,-3.067580484726953e-05,-7.39177948625722e-05
36.307804107666,0.020199127084977737,-0.0018071029092636616,-2.4689771764160873e-05,1.231769663423833e-05
33.1131134033203,0.020300528227262873,-0.001784950891959608,9.289030628717443e-05,2.3787560422692134e-05
30.1995162963867,0.020396690324387443,-0.0017656482818994917,-4.7209232606957446e-05,-3.410855471089173e-05
27.5422878265381,0.020488614644937193,-0.0017500470638636121,-3.804037339240687e-05,-3.656742762661201e-05
25.1188640594482,0.02057738118195103,-0.0017387296913671897,-5.4109093312770806e-05,-3.311786824058971e-05
22.9086761474609,0.020664085928899494,-0.0017320173801341047,-1.2063126462204948e-05,-5.1936368406704705e-05
20.8929615020752,0.020749785903737043,-0.0017299906792982173,-3.217070932675509e-05,-2.470249076631727e-05
19.0546073913574,0.02083545341366931,-0.0017325194318033742,-8.111656432938791e-05,-1.02424061112741e-05
17.3780078887939,0.02092194037521159,-0.0017392995700062533,-7.244532918660937e-05,-9.944485532351749e-10
15.8489322662354,0.02100995317752922,-0.0017498942897103552,-2.128565731833454e-07,-4.547991458405515e-05
14.4543981552124,0.021100038220484264,-0.001763777320400283,-0.0001093116352963372,3.482904086221715e-05
13.1825675964355,0.02119257796249314,-0.0017803759797554056,-3.886286475736009e-05,-7.224865435470564e-05
12.0226440429688,0.02128779687913107,-0.001799111746693217,-9.14876815493286e-05,5.180804548582949e-06
10.9647817611694,0.021385776241705148,-0.0018194362351864643,1.6793971345147735e-05,-7.297174838264385e-06
10.0,0.021486476118205984,-0.0018408606934484577,-6.343605136971756e-05,-9.253131571535758e-05
9.12010860443115,0.02158976254473001,-0.0018629776675363609,-4.295910289019156e-05,-4.988665517260916e-06
8.31763744354248,0.02169543752461563,-0.0018854740439146543,-6.140148252356883e-05,-6.183035580215436e-05
7.58577585220337,0.021803269421732194,-0.0019081354128360618,-2.866957517880589e-05,-1.384729856406192e-05
6.91830968856812,0.021913021456766324,-0.0019308423571138035,-2.2465709280775764e-05,-5.476381106660341e-05
6.30957365036011,0.02202447635963334,-0.0019535598953511414,-1.0736827703559243e-05,-8.208708868144153e-05
5.75439929962158,0.022137455741761614,-0.001976321721340749,-4.505542397648457e-05,-2.6818285587548903e-05
5.24807453155518,0.022251833342028488,-0.0019992111700459616,1.0958053184385863e-05,-4.6422610326061564e-05
4.78630113601685,0.022367541919262678,-0.0020223408534346993,-1.79044354841236e-05,-7.013517168099302e-06
4.36515855789185,0.022484574126063223,-0.0020458328064120136,-1.6555530966876064e-05,-1.8652993399613516e-05
3.98107171058655,0.022602978170116486,-0.0020698006725501277,-6.56181869907145e-05,1.0868584697249634e-07
3.63078045845032,0.022722849405409088,-0.0020943350946032455,-6.149358391641102e-05,1.1574620878544196e-06
3.3113112449646,0.022844319189904136,-0.0021194930157853818,-3.398865926466238e-05,-3.680009089848191e-05
3.01995182037354,0.02296754239569576,-0.002145291167145552,4.9055428012961116e-05,3.198198897574802e-05
2.75422859191895,0.02309268488029064,-0.0021717035904363175,-8.279496392185962e-05,-1.0831956176517513e-05
2.51188635826111,0.02321991204374501,-0.002198662709703584,-3.3241965835588416e-05,-6.160848613638407e-05
2.29086756706238,0.023349379336797274,-0.0022260631853226586,-3.5919636855244463e-06,-4.769339686975854e-05
2.0892961025238,0.02348122527592944,-0.002253767636144643,-3.4388473693858224e-05,-1.5380394185143028e-05
1.90546071529388,0.02361556719645653,-0.0022816132289494415,-8.720721753469746e-06,-1.021316285684153e-05
1.73780083656311,0.023752499657127966,-0.002309418185111805,5.931435749306768e-05,4.24870341449949e-05
1.58489322662354,0.023892095129382007,-0.0023369873558416483,-5.929749141989418e-05,-1.0474879412348398e-05
1.44543981552124,0.02403440637652316,-0.002364116215701916,-1.7023327308539338e-05,3.902920745708395e-05
1.3182567358017,0.02417946977568271,-0.002390592866920294,-2.245793091648976e-05,3.340463585370596e-05
1.20226442813873,0.024327308761153868,-0.002416197910451923,-3.7408543552733264e-05,-2.260180331182301e-05
1.09647822380066,0.02447793658365566,-0.002440702322757275,-2.84348846499409e-05,-2.316680166727491e-05
1.0,0.024631357673819868,-0.0024638637250364998,-8.153457540673384e-05,-5.116481527799727e-06
0.912010848522186,0.02478756706634773,-0.002485421640189454,3.0593457019428144e-05,1.9282647086145757e-05
0.831763744354248,0.02494654756093027,-0.0025050924830762916,-5.7988352537129834e-05,3.285117254860819e-05
0.758577585220337,0.025108264546635086,-0.0025225650889861475,-3.410897052051262e-05,-1.446474163547401e-06
0.691830992698669,0.02527265867482717,-0.0025374975853232427,-2.0371537298308207e-06,-7.563390364924254e-05
0.630957365036011,0.025439636804398476,-0.002549516317859158,2.9370211299877685e-05,-3.4319517627258e-05
0.575439929962158,0.025609061843315357,-0.0025582173948167537,-2.863558514954248e-05,6.858933558774637e-05
0.524807453155518,0.025780742251651598,-0.0025631712007310034,6.89655629565987e-05,8.627644712359654e-05
