freq,mu_Z_re,mu_Z_im,Z_re_res,Z_im_res
10000.0,0.019799561700047614,-1.8824166202493905e-06,-0.013027357408581585,-0.04466390724243165
9120.1083984375,0.019799561982938717,-2.064026889403348e-06,-0.009945428187063284,-0.0412571655884357
8317.6376953125,0.0197995623229576,-2.263158002021116e-06,-0.008926790055768397,-0.03730806526485932
7585.77587890625,0.019799562731621,-2.4815001588684373e-06,-0.007265000974896199,-0.03438879967714367
6918.3095703125,0.019799563222759102,-2.7209065762587256e-06,-0.005540235779053798,-0.032144857152542256
6309.5732421875,0.01979956381297707,-2.9834091990910375e-06,-0.004984453541272929,-0.03001374137702879
5754.3994140625,0.01979956452220782,-3.271235925713841e-06,-0.00261256422430178,-0.02680477729330731
5248.07470703125,0.019799565374373364,-3.5868294911468726e-06,-0.003664808869839737,-0.024242134139724245
4786.30078125,0.01979956639817626,-3.932868168981649e-06,-0.0007196156878146384,-0.022629058812783383
4365.158203125,0.019799567628046428,-4.312288464491154e-06,-0.001063384246686571,-0.02043488648206129
3981.07177734375,0.019799569105273713,-4.728309993429898e-06,-0.00011755018913128801,-0.02003185170162173
3630.78051757813,0.019799570879362904,-5.184462753788869e-06,-0.000977220618702094,-0.01575304267415189
3311.31127929688,0.019799573009656027,-5.6846170248615965e-06,0.0008045152181845282,-0.01571656559692046
3019.95166015625,0.019799575567274765,-6.233016146633072e-06,0.0009895901978308648,-0.013747065002216332
2754.22875976563,0.019799578637450594,-6.834312457082532e-06,0.0011554748570617931,-0.013191452517289181
2511.88647460938,0.019799582322319195,-7.493606694215681e-06,0.0009366158742505938,-0.010918383671827816
2290.86767578125,0.01979958674428181,-8.216491194169415e-06,0.000787917883369512,-0.01088622155621807
2089.29614257813,0.01979959205004281,-9.009097249293563e-06,0.001026481466618212,-0.008923408058018393
1905.46069335938,0.0197995984154799,-9.878147026192493e-06,0.001237680127010598,-0.008845487217982893
1737.80078125,0.019799606051496454,-1.083101047045439e-05,0.0016031573677577522,-0.008137015354762054
1584.89318847656,0.019799615211095103,-1.1875767664024759e-05,0.0017175962694542038,-0.006957134705440025
1445.43981933594,0.01979962619786621,-1.3021277145817405e-05,0.0018405977154291112,-0.0059716659503740175
1318.25671386719,0.0197996393762488,-1.4277250742713187e-05,0.001952647136892801,-0.006052164902215913
1202.26440429688,0.019799655183850576,-1.5654335514935174e-05,0.0020166876462090755,-0.005651752664492735
1096.47814941406,0.019799674146267262,-1.7164203453814465e-05,0.0017326793004000633,-0.005137507732141715
1000.0,0.019799696894911685,-1.8819649644963557e-05,0.002194757255343384,-0.003949432582535563
912.010864257813,0.019799724188407468,-2.063469965597786e-05,0.001165766236146469,-0.004114776700778177
831.763793945313,0.019799756938319736,-2.262472696497807e-05,0.0016105800212436357,-0.003691224256156778
758.577575683594,0.019799796240020984,-2.4806581300486475e-05,0.0017189619406950823,-0.0031588667667030866
691.830993652344,0.019799843409766846,-2.7198728819029886e-05,0.0017092339486977463,-0.00291599930514823
630.957336425781,0.01979990002920289,-2.982140510028187e-05,0.0019428346048797895,-0.0021270161866271823
575.43994140625,0.01979996799879142,-3.269678200185553e-05,0.00176043599300452,-0.0021975924282758557
524.807434082031,0.019800049601934194,-3.584914940412774e-05,0.0019171083111979952,-0.0018592006350588277
478.630096435547,0.019800147581917973,-3.9305112911779174e-05,0.001985099706871274,-0.001288546988396279
436.515838623047,0.01980026523422081,-4.309380855382036e-05,0.0014916126693376094,-0.0012255351753902204
398.107177734375,0.01980040651720733,-4.724713547640211e-05,0.001907185287892528,-0.001342877489910602
363.078063964844,0.019800576184817252,-5.180000750112362e-05,0.001650471975036552,-0.0011814845116226236
331.131134033203,0.01980077994553289,-5.67906242732293e-05,0.001617386541645189,-0.0008543912842806292
301.995178222656,0.019801024652701178,-6.226076239882299e-05,0.0015730246227796778,-0.0014531059279867232
275.422882080078,0.01980131853221294,-6.825608658404304e-05,0.0013466364502751384,-0.00045673922510614304
251.18864440918,0.01980167145460784,-7.482648020362328e-05,0.0013822995367640395,-0.0003615964169961233
229.086761474609,0.019802095259893657,-8.20263938980832e-05,0.0011368485944158561,0.00033792331134871684
208.929611206055,0.01980260414475045,-8.991520972346705e-05,0.0013997650652512496,-0.00013751774404669926
190.54606628418,0.01980321512330147,-9.855761674477142e-05,0.001180149919873169,5.783060840542858e-05
173.780090332031,0.019803948574304626,-0.00010802399205186717,0.001298334323406227,0.00016976683096813283
158.489318847656,0.019804828889363125,-0.00011839077853654511,0.0010428587865761244,0.00015356932488205487
144.543975830078,0.019805885238477518,-0.00012974084721698725,0.0011105494032591194,0.00046891440969131274
131.825668334961,0.019807152470846474,-0.0001421638274236671,0.0012356545983746754,2.1080547138332912e-05
120.226440429688,0.019808672170078177,-0.0001557563825238834,0.0011061539751642778,0.0005313164859350166
109.647819519043,0.01981049388351837,-0.00017062240172889808,0.0005115194589177703,0.0003069979114479019
100.0,0.019812676544788212,-0.0001868730696149862,0.00044267946064741395,2.962543570911381e-05
91.2010803222656,0.019815290106240235,-0.00020462676440265355,-3.541843801406486e-05,0.0019490625101616465
83.1763763427734,0.019818417392946507,-0.0002240087233622047,0.0006292105096352071,0.00046126250157609526
75.8577575683594,0.019822156180969025,-0.00024515039944426285,0.0003010892619998255,0.0005059532825335371
69.1830978393555,0.019826621488487368,-0.00026818841749013273,0.00040782310143676684,0.0007461473619829674
63.0957336425781,0.01983194804732996,-0.00029326302259052736,0.0005688314044971603,0.0005119776839500726
57.5439949035645,0.019838292892883764,-0.0003205158992520507,7.295310110896555e-05,0.0006463781336471493
52.4807472229004,0.019845837970346135,-0.0003500872305364994,0.0003147537457644338,0.0014244332663012006
47.8630104064941,0.019854792603910997,-0.0003821118657881018,-0.000794271728335804,0.0004203367938814982
43.6515846252441,0.01986539561333165,-0.0004167144801846967,0.0008594506609629488,0.0002631377279379033
39.810718536377,0.01987791679186848,-0.00045400364585722265,-0.00018638499693842195,0.0005475947840088773
36.307804107666,0.019892657386446168,-0.0004940647999903388,9.337833740726692e-05,-5.751915929453884e-05
33.1131134033203,0.019909949156384627,-0.0005369521978547388,0.0003087437925149289,0.0005241094321707611
30.1995162963867,0.019930151546316954,-0.0005826800811994013,0.00014068863721455188,0.00040971303992389874
27.5422878265381,0.019953646512382003,-0.0006312134721873148,0.00018160306071520263,0.00030675816353428525
25.1188640594482,0.019980830610804436,-0.0006824592082245036,0.0002192514995859353,0.0005940770543695965
22.9086761474609,0.02001210411326385,-0.0007362580379585298,4.257929758524903e-05,0.00023610402260697023
20.8929615020752,0.020047857165916404,-0.0007923787683064849,-0.00018649108649929427,0.00025625785442041503
19.0546073913574,0.020088453350370974,-0.0008505155397049756,-3.318251877442585e-05,0.00020495908619532432
17.3780078887939,0.020134211408003574,-0.000910289267829349,0.00016664050708647613,6.754064577935094e-05
15.8489322662354,0.020185386301215365,-0.0009712540902438401,0.00015055155866926587,7.591046073855993e-05
14.4543981552124,0.020242151137260078,-0.0010329092863919512,-0.00022756840679302032,0.0001720742777017489
13.1825675964355,0.020304581697056075,-0.0010947166223402131,-0.00015095194154042535,0.00018603713453308694
12.0226440429688,0.02037264533219801,-0.00115612246473534,0.00027110926685800993,8.438837802746016e-05
10.9647817611694,0.0204461957834366,-0.0012165833957814404,-0.00022643659788339904,0.00010202559695155953
10.0,0.020524975038143902,-0.0012755935366821397,-0.00015508557203119944,0.00030816881380996033
9.12010860443115,0.020608622729575934,-0.0013327114372842048,9.703837314873481e-05,3.859562842619519e-05
8.31763744354248,0.020696692864089407,-0.0013875842737622068,-6.103192777193872e-06,0.00013967264065219316
7.58577585220337,0.020788676940915164,-0.0014399672368908658,-9.838687527463641e-05,-3.078758943776574e-05
6.91830968856812,0.020884031896171506,-0.0014897363718381867,-5.632592302809436e-05,-6.72179732254868e-05
6.30957365036011,0.020982210836434582,-0.0015368936968405144,-0.00012290912208531846,-0.00016621469179141433
5.75439929962158,0.02108269427716177,-0.0015815641056543697,8.878168463146915e-05,0.00024187445866103038
5.24807453155518,0.02118501958533169,-0.0016239842659518532,3.054139300228895e-05,-7.206651183825317e-05
4.78630113601685,0.02128880652967596,-0.0016644843817420541,1.544128540656095e-05,3.4483618967945774e-05
4.36515855789185,0.02139377722837039,-0.001703464228383317,6.715523399419138e-05,-5.743388338301709e-05
3.98107171058655,0.02149976929697325,-0.0017413652488794645,-1.7779413134549893e-05,-0.0001802158761602644
3.63078045845032,0.021606741578184045,-0.0017786406974902573,-7.336854137455356e-06,-1.5813537653457284e-05
3.3113112449646,0.021714772416960904,-0.0018157258316590411,7.37880754587035e-05,-5.692268383644108e-05
3.01995182037354,0.021824050977051358,-0.0018530100046951507,-4.82515402435435e-05,0.0001078058571259493
2.75422859191895,0.021934862535740052,-0.001890812230292303,0.0002080344672452522,2.5127969686296976e-05
2.51188635826111,0.022047569015682947,-0.0019293614176951275,7.942968016984644e-05,0.00012112404425517246
2.29086756706238,0.022162586203280276,-0.0019687820548905783,0.00010970955199317636,0.0001869784810797216
2.0892961025238,0.022280359163599134,-0.0020090856885152217,0.00011866492004883322,8.064687088257848e-05
1.90546071529388,0.022401337304715843,-0.002050168150201109,0.00021421981752364413,-0.00015439795246690907
1.73780083656311,0.022525950390797723,-0.0020918121365314773,0.0001364267058192245,4.7454443811722775e-05
1.58489322662354,0.022654586579556518,-0.0021336944849697386,6.126343822011882e-05,0.0001950752845497612
1.44543981552124,0.022787573294199535,-0.0021753973081240358,-1.9624351107066368e-05,-5.776596767635613e-06
1.3182567358017,0.0229251614607499,-0.0022164220579963057,-0.00026730570722360153,0.00019551691291219437
1.20226442813873,0.02306751337254522,-0.002256205578587046,8.0980252270723e-05,-2.66286481833463e-05
1.09647822380066,0.0232146942055875,-0.0022941372635886994,-0.00020297234886349977,8.715886630850057e-05
1.0,0.023366667014372344,-0.002329576542038355,8.37702870488434e-05,-0.0004367405924908551
0.912010848522186,0.02352329089677258,-0.0023618700574845643,3.164380228447977e-05,4.789939748633563e-05
0.831763744354248,0.02368432193003185,-0.002390368061981507,9.480773411285268e-05,-1.9836856893606925e-05
0.758577585220337,0.02384941644520712,-0.0024144397010923296,1.6930654759203523e-06,-9.88029492029422e-07
0.691830992698669,0.024018136217631873,-0.0024334870069368892,-3.091302569912732e-05,-3.1155792538789095e-05
0.630957365036011,0.02418995519582056,-0.0024469575302753527,6.895569566515991e-05,9.507952089564745e-05
0.575439929962158,0.024364267459667854,-0.00245435562585168,-6.0920619808547266e-05,0.00014711913052322008
0.524807453155518,0.024540396178599027,-0.002455252453362891,0.00014848052942342815,-0.00020007439670559086
