freq,mu_Z_re,mu_Z_im,Z_re_res,Z_im_res
10000.0,0.019193089592324162,-1.540005122802131e-05,-0.010927320432795637,-0.04139903157865192
9120.1083984375,0.01919310350904603,-1.6885739422573435e-05,-0.00868561121632917,-0.03777621213779527
8317.6376953125,0.019193120240345144,-1.8514738351218195e-05,-0.006191784576401557,-0.034212600485354815
7585.77587890625,0.01919314035538936,-2.0300866195459745e-05,-0.005456258045990238,-0.03222578567368676
6918.3095703125,0.019193164538415308,-2.225927167593162e-05,-0.004034331534234693,-0.028137343666488533
6309.5732421875,0.019193193611979725,-2.440656161331778e-05,-0.002017344611406076,-0.02730300309693842
5754.3994140625,0.019193228564902753,-2.6760940499685443e-05,-0.0027492528336797474,-0.025010809619970684
5248.07470703125,0.019193270585848857,-2.9342363195392782e-05,-0.0008064793726663411,-0.021823326239900593
4786.30078125,0.019193321103679363,-3.217270190619958e-05,-4.07769299823682e-06,-0.0198774982016792
4365.158203125,0.01919338183593886,-3.5275928705770514e-05,0.0002399094600690592,-0.01847379956397397
3981.07177734375,0.019193454847106058,-3.867831484500445e-05,0.0022095602158394567,-0.015639349375228304
3630.78051757813,0.0191935426185687,-4.2408648290062005e-05,0.0007934919188578998,-0.015598460975446161
3311.31127929688,0.019193648132664384,-4.6498470792791905e-05,0.001085719796997682,-0.013299393796215093
3019.95166015625,0.019193774973602543,-5.098233611199365e-05,0.0008498848877861419,-0.012333061421819693
2754.22875976563,0.01919392744863133,-5.589809078811362e-05,0.002563082304240228,-0.011308259440549613
2511.88647460938,0.019194110733465625,-6.128717888480287e-05,0.0011509242178959246,-0.010379586003016302
2290.86767578125,0.019194331046784724,-6.71949720183323e-05,0.0021041594712384246,-0.008155379492620532
2089.29614257813,0.01919459585951918,-7.36711258591666e-05,0.0014952424626266808,-0.008753846184402767
1905.46069335938,0.01919491414576088,-8.076996392829604e-05,0.0025826917275718793,-0.0078041903566500965
1737.80078125,0.019195296683366177,-8.855088907846426e-05,0.0019071538681338755,-0.006535795324627164
1584.89318847656,0.019195756413910314,-9.707882257547825e-05,0.002311639957997713,-0.005777909506134579
1445.43981933594,0.019196308873232065,-0.0001064246692885988,0.0021683328818637645,-0.005522864981107899
1318.25671386719,0.01919697270602698,-0.00011666580687839812,0.0018705134174298796,-0.004977141000587499
1202.26440429688,0.01919777027998091,-0.00012788659434647076,0.002249824700094511,-0.004242790103963271
1096.47814941406,0.01919872841770965,-0.0001401788937500684,0.00213813192184285,-0.003690035260339668
1000.0,0.019199879267496535,-0.00015364259503967384,0.0022760568049378337,-0.0031425133163499736
912.010864257813,0.019201261336773495,-0.0001683861297769453,0.001956123272746694,-0.0031226535608274452
831.763793945313,0.019202920715626244,-0.00018452695441885738,0.0012085746185145456,-0.0024454044724021573
758.577575683594,0.01920491252049333,-0.00020219197648466616,0.0023373922328604295,-0.0021826296407997663
691.830993652344,0.019207302590957837,-0.00022151788741531998,0.0017769822088396364,-0.00168682380624292
630.957336425781,0.019210169474253372,-0.00024265135419669514,0.001395296687850673,-0.0014068462491511951
575.43994140625,0.019213606732561336,-0.0002657490077760424,0.001877472865059137,-0.0010497231379482425
524.807434082031,0.019217725605703104,-0.0002909771473387173,0.0017279775300987031,-0.0011088740037994173
478.630096435547,0.01922265805575387,-0.0003185110580739114,0.0012905894992066708,-0.0007530054899029114
436.515838623047,0.019228560208036625,-0.0003485338140104338,0.0013464198547146235,-0.0006388482481066338
398.107177734375,0.019235616182635376,-0.0003812344079684114,0.0014510821604233753,-0.0004930930958558114
363.078063964844,0.019244042279164913,-0.00041680501925925306,0.0011556754428555145,-0.0005903743560255531
331.131134033203,0.01925409143031742,-0.0004554371963265361,0.0010258380806556222,-2.4062491395636083e-05
301.995178222656,0.019266057774490565,-0.0004973167044588808,0.000812659055060564,-0.00027458459520838076
275.422882080078,0.019280281109526336,-0.0005426167708870498,0.00045998599918143507,0.0004142558818633501
251.18864440918,0.019297150875474612,-0.0005914894614899096,0.0004709213776843135,0.00048426867159359036
229.086761474609,0.019317109174694102,-0.0006440549580952943,0.0002546776455298015,0.0007755233715647056
208.929611206055,0.01934065217991604,-0.0007003885927104856,0.0009099069507910416,0.0007449600146657144
190.54606628418,0.019368329115582145,-0.0007605056488313429,0.0005786242265230432,0.00043379937062175715
173.780090332031,0.01940073784773415,-0.0008243441782801522,0.0002160553294903514,0.0006830882545650477
158.489318847656,0.01943851602747659,-0.0008917464226271422,-3.196517452970851e-05,0.0005279188692782579
144.543975830078,0.019482326739565767,-0.0009624398559988266,-0.0003167418305712322,0.0007851711227832734
131.825668334961,0.019532837784967366,-0.0010360193683872838,-0.000511423804678935,0.0005818272928600162
120.226440429688,0.019590694109875406,-0.001111932612545194,-0.00039967556766819234,0.000955944367163406
109.647819519043,0.019656483533954962,-0.0011894709622314043,-0.0006320434779163372,0.0009806168073960956
100.0,0.019730696808790374,-0.0012677687458820693,-0.0003807038252600266,0.0006430660601578306
91.2010803222656,0.019813684088869046,-0.001345813303574772,-0.0008942845335770527,0.001038303569570328
83.1763763427734,0.01990561098350218,-0.0014224678616373558,-0.0006518614988214218,0.0003213473955766442
75.8577575683594,0.020006418283651926,-0.0014965081892671238,-0.0005708615671886734,0.00037191604936987616
69.1830978393555,0.02011579000042742,-0.0015666725516852889,-0.0012827561737411806,0.0001212583451929111
63.0957336425781,0.02023313431645406,-0.0016317227702356263,-0.00037777000462043894,0.00022918709220817366
57.5439949035645,0.02035758133992734,-0.0016905124945454277,-0.0006832643224280593,0.0007693958753831724
52.4807472229004,0.020488000158981466,-0.001742057385307889,-0.000613087172790433,0.0002762811496731111
47.8630104064941,0.020623035789968387,-0.0017856010706129451,-0.0009886882588845125,-0.0013240312288946452
43.6515846252441,0.02076116444730605,-0.0018206706682873464,-0.0006388550791755522,0.0001953938097970535
39.810718536377,0.020900763473555024,-0.001847116415540521,-0.00038704285855637593,-0.000489965452964321
36.307804107666,0.02104019057352389,-0.0018651314309775537,-6.684232156431089e-05,-0.00014712172532235367
33.1131134033203,0.0211778659564938,-0.0018752496349946695,-0.0001343652414593985,-7.409994819626954e-05
30.1995162963867,0.021312350743514757,-0.0018783220872436999,-0.00023797120799374377,-0.00017759633158949992
27.5422878265381,0.021442415562539355,-0.0018754741255015877,-0.0002656426307866451,-0.00040389912517828776
25.1188640594482,0.021567094505726185,-0.0018680474374983508,-0.0005149344047915144,7.378018593349241e-06
22.9086761474609,0.02168572135671549,-0.0018575323304918271,-0.00011025741294451094,-0.000291173954197527
20.8929615020752,0.02179794692623909,-0.0018454958971810028,-6.203267690609027e-06,-0.00036983728019860285
19.0546073913574,0.021903738191257325,-0.0018335115019569729,-0.00010061096595687449,-5.7051176611572826e-05
17.3780078887939,0.022003361463359152,-0.001823094155201671,0.0003792601374895538,-2.2266822429371086e-05
15.8489322662354,0.022097352852300287,-0.0018156450947607182,0.00017422061152808782,-4.348771254071831e-05
14.4543981552124,0.02218647976474338,-0.0018124074899318024,7.784669355917831e-05,-0.00018062428484730232
13.1825675964355,0.022271697118832368,-0.0018144338500214172,-0.00020997907225913173,-6.644312445951714e-05
12.0226440429688,0.02235410147246206,-0.0018225646456999252,3.0783646667861125e-05,-4.00727261154251e-05
10.9647817611694,0.022434885532142294,-0.0018374169399385056,4.4532970072393846e-05,-0.00011941282221870561
10.0,0.022515294705931773,-0.0018593815048373458,-0.00010897069662372735,-0.00022860168341174575
9.12010860443115,0.022596586654514323,-0.0018886269147562655,0.00011625715586572466,-5.925442865666562e-05
8.31763744354248,0.022679994282869372,-0.0019251093449621798,-4.4755361995260645e-06,-1.1474308177798417e-06
7.58577585220337,0.02276669234509258,-0.0019685871426062236,0.00010478847200658115,3.0247867847776454e-05
6.91830968856812,0.022857767785942104,-0.002018639544774973,5.584887698840274e-05,-7.075217371073014e-06
6.30957365036011,0.022954194049036532,-0.0020746891161452273,-5.548057457206712e-05,2.4556670521572524e-05
5.75439929962158,0.023056809752669445,-0.00213602752001709,-3.696143678175515e-05,6.757575510310965e-05
5.24807453155518,0.023166302285407912,-0.002201844127436232,2.978152713671231e-05,-2.9375120598317678e-06
4.78630113601685,0.023283196931854676,-0.002271256751219572,-6.921184979302372e-05,5.563081537662785e-05
4.36515855789185,0.0234078520703069,-0.0023433435252333996,-9.019879820430093e-05,3.1745339704000296e-05
3.98107171058655,0.023540460779751297,-0.002417174702801835,-0.0001512139146676028,2.510093682156489e-05
3.63078045845032,0.023681058879367355,-0.0024918429788443205,-8.085616362904502e-05,-4.267368952362051e-05
3.3113112449646,0.02382953904045669,-0.0025664908865454354,-0.0001785804383651092,-0.00010840278658893554
3.01995182037354,0.02398567021014497,-0.0026403339008450517,-0.0002331870782156277,-5.49645057529519e-05
2.75422859191895,0.024149121218867392,-0.002712678090282304,-0.00018332575862870654,-9.373917298820386e-05
2.51188635826111,0.02431948715190493,-0.002782931477454716,-6.875908632677022e-05,-0.00018763418371721624
2.29086756706238,0.024496316878263768,-0.0028506086612573502,2.954897112116689e-05,0.00010450673899734973
2.0892961025238,0.02467914006364066,-0.0029153286836211606,-0.00011386641609944029,6.703744799743932e-05
1.90546071529388,0.02486749204938857,-0.0029768065514302476,0.00013074304109067167,0.00011716555223995236
1.73780083656311,0.0250609351461702,-0.0030348392157938057,-0.00019593144301839963,9.487262450789437e-05
1.58489322662354,0.025259075151291513,-0.0030892871376966098,-1.2690736445785528e-05,-0.00024237093151560987
1.44543981552124,0.025461572227625913,-0.003140052812592303,8.471403792391363e-05,0.000144278598530897
1.3182567358017,0.02566814565408057,-0.003187057775425452,-0.00016822336864642795,-4.2652616165199386e-07
1.20226442813873,0.025878572344799084,-0.003230219655917315,-6.176394222251469e-05,4.5361513956084995e-05
1.09647822380066,0.026092679413180952,-0.0032694308106735355,0.00015837623379765312,9.82295236601643e-05
1.0,0.026310331404405432,-0.003304539924628214,-0.0001410588322106679,2.4986242734686363e-05
0.912010848522186,0.02653141311980184,-0.00333533777065824,-0.0001235083522707625,-0.00012694384113204034
0.831763744354248,0.026755809194008155,-0.0033615480520432935,6.323621288895423e-05,-3.0535726681993596e-05
0.758577585220337,0.02698338175283576,-0.0033828239479948927,-0.00012040926052423948,6.845890899100744e-05
0.691830992698669,0.02721394757176437,-0.0033987506567365123,7.297257329027043e-05,6.724500145248793e-05
0.630957365036011,0.02744725617094578,-0.0034088538968335452,2.0471312838180045e-05,-5.468028537545383e-06
0.575439929962158,0.027682970225947,-0.0034126140055446143,0.00014641037596949819,5.2793988099785784e-05
0.524807453155518,0.027920649549653787,-0.0034094849746358347,0.00011059937505988535,9.382202702936521e-05
