freq,mu_Z_re,mu_Z_im,Z_re_res,Z_im_res
10000.0,0.019542040245419556,-1.833899780474426e-05,-0.010616613609904242,-0.04090090780421454
9120.1083984375,0.019542056248124395,-2.010822131552122e-05,-0.008293318449918506,-0.03820435613229192
8317.6376953125,0.019542075487225606,-2.2048107700374304e-05,-0.006899917704612693,-0.034927694104032576
7585.77587890625,0.019542098617164324,-2.4175113115415504e-05,-0.0055828405413944765,-0.031487533664379216
6918.3095703125,0.019542126424679736,-2.6507278514010007e-05,-0.0028324327691698625,-0.02849624862296591
6309.5732421875,0.01954215985553649,-2.9064381592496857e-05,-0.0032631062267503112,-0.025063760245316296
5754.3994140625,0.019542200046646842,-3.186810318501963e-05,-0.0020162206859705573,-0.02359955209795512
5248.07470703125,0.019542248364669845,-3.4942209249614054e-05,-0.0012219628280572548,-0.023198016836768313
4786.30078125,0.019542306452393646,-3.8312749966292405e-05,-0.001422366336583953,-0.020535008983715693
4365.158203125,0.019542376284463606,-4.200827737669412e-05,-0.0004952580137417943,-0.018491275649865694
3981.07177734375,0.019542460234334313,-4.606008319544958e-05,0.00044792415337781277,-0.01483595710037635
3630.78051757813,0.0195425611546935,-5.050245838621743e-05,0.00035969099017990266,-0.015469646641783517
3311.31127929688,0.019542682474058982,-5.537297632218462e-05,-0.00031304776151761665,-0.014874648564119384
3019.95166015625,0.01954282831277674,-6.071280121343724e-05,0.0021166150632125416,-0.013702025519604836
2754.22875976563,0.019543003622304968,-6.656702385913609e-05,0.0011695477700348691,-0.011617169526980036
2511.88647460938,0.01954321435240665,-7.298502633177825e-05,0.0003881870075837478,-0.009585578996034478
2290.86767578125,0.019543467651798676,-8.002087740737918e-05,0.002826722901060577,-0.00885700878022748
2089.29614257813,0.019543772108860453,-8.773376025434943e-05,0.002542292244739952,-0.00833740495868195
1905.46069335938,0.019544138040299815,-9.618843369333906e-05,0.002327617656345815,-0.007495147217290039
1737.80078125,0.019544577837122972,-0.00010545572775423067,0.002535621315373472,-0.006086764135835731
1584.89318847656,0.01954510637907274,-0.00011561307374062188,0.0021504593768525426,-0.006472968117032621
1445.43981933594,0.01954574153064539,-0.0001267450679456414,0.00197793185948179,-0.004932682943007842
1318.25671386719,0.01954650473424365,-0.00013894406654161386,0.0020053960812943528,-0.004782582684832014
1202.26440429688,0.019547421718658108,-0.00015231080789271086,0.0028555134783398092,-0.004365313783922811
1096.47814941406,0.019548523344121677,-0.00016695505505928427,0.0024418505951983756,-0.0033499420390886844
1000.0,0.019549846608723616,-0.00018299624902341267,0.001897497062171915,-0.0028758947515967123
912.010864257813,0.019551435844456396,-0.00020056415709399607,0.001646506027733495,-0.0022912962584449963
831.763793945313,0.019553344135329945,-0.00021979949593371457,0.002576900084660244,-0.0019101031699014146
758.577575683594,0.019555634993874752,-0.0002408545006369684,0.0019174415504572516,-0.0029941539287869686
691.830993652344,0.019558384336138122,-0.0002638934008022817,0.0021768484931234226,-0.0015699704005559816
630.957336425781,0.019561682798171744,-0.0002890927512676436,0.0018803113775498446,-0.0013049016502231438
575.43994140625,0.019565638438705263,-0.0003166415490903817,0.0024718142160213633,-0.0010000911652803817
524.807434082031,0.01957037987188908,-0.000346741048016819,0.0012227644957742805,-0.001057200939723519
478.630096435547,0.019576059868988697,-0.0003796041557347546,0.0013845267057987984,-0.0004273829428552328
436.515838623047,0.01958285945742036,-0.0004154542700855289,0.0015881557324399602,-0.0002208487428727289
398.107177734375,0.019590992525960246,-0.0004545233747497191,0.0012037270225537453,0.0002587712300433809
363.078063964844,0.0196007109137185,-0.0004970491764951204,0.0010633907170899022,0.00023675111412287955
331.131134033203,0.019612309912703622,-0.0005432710247423736,0.001574912498257721,-1.2264711347673585e-05
301.995178222656,0.019626134044522847,-0.0005934243138973552,0.0006995936548658474,0.0006417966166416448
275.422882080078,0.019642582877690898,-0.0006477330395646657,0.0013344946942878966,0.0005452688267759342
251.18864440918,0.01966211652637357,-0.000706400165257073,0.0008220643389307697,0.000254152492231627
229.086761474609,0.01968526031341881,-0.0007695954747045772,0.0004504707780155111,0.00045412932638872285
208.929611206055,0.019712607893446626,-0.0008374406539366108,0.0004971544773375268,0.001078031556448289
190.54606628418,0.019744821927274024,-0.000909991491034354,0.0003534305009492249,0.000672474691264546
173.780090332031,0.01978263119468214,-0.0009872173165305898,-9.932508459566114e-05,0.0012460667433813102
158.489318847656,0.019826822869560702,-0.0010689781596052285,0.00015242486455200113,0.0007662416352790715
144.543975830078,0.01987822861390679,-0.0011550005708908537,-0.00017968988997370955,0.0009386777694249465
131.825668334961,0.01993770323302655,-0.0012448536384759088,6.271883454235169e-05,0.0008872757513166912
120.226440429688,0.020006094960507648,-0.0013379273647877374,-0.00020512482709005367,0.0004679749775242626
109.647819519043,0.020084207042175277,-0.0014334161684117106,-0.001229909152668924,0.0002510675543718893
100.0,0.020172751213308096,-0.0015303107176866447,-0.000623460223082805,0.0008185285876545552
91.2010803222656,0.02027229484638706,-0.0016274014176183916,4.7338050813861e-05,-0.0023634564983971915
83.1763763427734,0.020383204887098355,-0.0017232965255342767,-0.0006726071290311456,0.0005160839719511234
75.8577575683594,0.02050559298367237,-0.0018164569571790003,-0.0006083577755000326,0.0005523494385006999
69.1830978393555,0.0206392672004285,-0.0019052483665070413,0.0002713263126196998,2.5952642538587967e-06
63.0957336425781,0.02078369612467863,-0.0019880091585134326,-0.0007903168104829716,0.00022121069022366718
57.5439949035645,0.020937990834986764,-0.0020631309717896538,-0.00020529099735063644,0.0005951395604756461
52.4807472229004,0.021100909024015742,-0.002129146176194375,0.0009130468065894418,0.0007741823338069252
47.8630104064941,0.021270883623273725,-0.0021848154271045233,-0.0006147423947735764,0.001842367274870577
43.6515846252441,0.021446075817249954,-0.002229207594866398,-0.0010263001866114459,-0.001387439136380798
39.810718536377,0.021624449682145244,-0.0022617646266051535,-0.0005931369543980582,9.174991806064651e-05
36.307804107666,0.021803863258948186,-0.0022823451026804864,-0.0011868794393636133,-0.0005215872251890864
33.1131134033203,0.021982169016367185,-0.0022912422733030622,5.314895427818364e-05,-0.0006454763074986622
30.1995162963867,0.02215731565701621,-0.002289174913129688,-0.0005345134730372902,-0.0003774596580107879
27.5422878265381,0.022327443188177296,-0.002277252056989792,-0.00028250778640630594,-0.0002635438250191916
25.1188640594482,0.022490964103988563,-0.002256915187231125,6.692374174966167e-05,-0.0007407936311801251
22.9086761474609,0.022646625226197425,-0.002229863425574155,-0.00039873022788987356,-0.00031283416025985476
20.8929615020752,0.022793546972947335,-0.0021979684839072773,-0.00010790424220066472,-0.0005258282776969773
19.0546073913574,0.022931239217896488,-0.0021631864756104092,-0.0004446612443733122,-0.00021185962667140922
17.3780078887939,0.023059595157339755,-0.002127473181112602,-0.0003628732963059447,-0.0005973384799426019
15.8489322662354,0.023178866416477123,-0.002092708177010027,-0.00015811035010917726,-8.352454293752672e-05
14.4543981552124,0.023289623822805573,-0.0020606315974771106,0.00017326247298447145,-0.0005661281338587105
13.1825675964355,0.023392708765479206,-0.0020327954948366803,0.0003754941543065056,-0.00017446772423108025
12.0226440429688,0.023489179892920185,-0.0020105300669521825,0.0001926541910396845,-0.00013105626804398246
10.9647817611694,0.023580259208606943,-0.0019949236515360257,-4.070761330205591e-05,8.175386084147444e-05
10.0,0.023667280616373867,-0.001986814472945883,-5.2391497283133664e-05,0.0002694760485267172
9.12010860443115,0.023751642850338164,-0.0019867917117781467,-0.00014223501354583556,2.728835073035306e-05
8.31763744354248,0.023834767704528623,-0.0019952034862190807,0.0002971635662735242,-0.0001046764017492807
7.58577585220337,0.023918063684246198,-0.0020121696749490357,-0.00013191501901420322,-5.5984116138235555e-05
6.91830968856812,0.024002894705512937,-0.002037598024139454,-7.211981119826377e-05,-0.00026096819808555413
6.30957365036011,0.024090553266749647,-0.0020712025196599425,7.530544494174785e-05,-6.666641806544246e-05
5.75439929962158,0.02418223755213553,-0.0021125234621408367,-1.2238904542709317e-06,7.024705830776341e-05
5.24807453155518,0.024279032111813027,-0.002160948983032235,-9.001954744874974e-06,-5.958024655653479e-05
4.78630113601685,0.024381892007562442,-0.002215737865576132,-4.227161708185781e-05,-9.32544165194323e-05
4.36515855789185,0.024491630527475838,-0.002276043504145297,-6.0185757180662713e-05,8.476073514260317e-05
3.98107171058655,0.024608910704553955,-0.0023409386937554926,-0.0004994378736606457,-6.0349500649792796e-05
3.63078045845032,0.024734240890177565,-0.0024094407514016272,0.00016720120671636501,-8.830782699392704e-05
3.3113112449646,0.024867974537083132,-0.0024805362889335427,-0.00016199952118736705,9.505352063315714e-05
3.01995182037354,0.025010314159535505,-0.002553204832416697,-0.0001438610772856938,1.2434028270902949e-05
2.75422859191895,0.025161319198746396,-0.0026264404452984425,-0.0001872696255258051,3.6605909129457364e-05
2.51188635826111,0.025320917272182747,-0.0026992705725115956,-0.00017322050669545466,-3.355574607679561e-05
2.29086756706238,0.02548891806565484,-0.002770771473070966,-5.069060660636143e-05,-0.000120321489295366
2.0892961025238,0.02566502896780786,-0.002840079828411827,8.780976469336191e-05,-0.00018883659063332692
1.90546071529388,0.02584887146712798,-0.0029064003751643266,-7.403046129681942e-05,-0.0003375086375542267
1.73780083656311,0.026039997337823105,-0.0029690096815308815,-0.00036836020791039537,-0.00013088632460748172
1.58489322662354,0.026237903728182223,-0.0030272564391938227,-2.3798951554777903e-06,-7.749628960822697e-06
1.44543981552124,0.026442046419528464,-0.003080558849925296,0.0001397441633019629,0.0001913841083104038
1.3182567358017,0.026651850726150735,-0.0031283998387445795,-0.00024362950429986444,0.00012685544876852054
1.20226442813873,0.02686671973477296,-0.0031703209046235175,4.161023806025996e-05,0.00015249624774248257
1.09647822380066,0.027086039814689204,-0.0032059154377081026,-0.0001834912266944974,-9.916349283840267e-05
1.0,0.02730918354706413,-0.0032348222806973057,-3.9958810642868464e-05,-0.00012914345226420565
0.912010848522186,0.02753551040920256,-0.0032567202135052207,0.0001393045965099593,-5.1472990128020694e-05
0.831763744354248,0.02776436569567009,-0.0032713238990203074,-9.780131027311428e-06,-5.9159044389507295e-05
0.758577585220337,0.02799507825714175,-0.003278381662687527,-4.625842827735149e-05,-0.00011842954555742712
0.691830992698669,0.02822695768853572,-0.003277675303348102,-7.575840273948281e-05,5.326437885239772e-05
0.630957365036011,0.028459291602083034,-0.0032690219587583735,-0.00031994499771996476,0.00043443883704642663
0.575439929962158,0.028691343584213623,-0.003252277888274206,1.6133853350024097e-05,0.00010302845210729411
0.524807453155518,0.028922352364127484,-0.0032273438948536674,0.00023366825825438253,-5.425966376016757e-05
