freq,mu_Z_re,mu_Z_im,Z_re_res,Z_im_res
10000.0,0.022262051308618084,-1.8076332718694916e-05,-0.005487451722754916,-0.013468093531638995
9120.1083984375,0.022262064097933413,-1.982022384326172e-05,-0.0035617171688750865,-0.012035272832309362
8317.6376953125,0.022262079473627634,-2.1732336738465394e-05,-0.0033960455841888643,-0.009325405507245366
7585.77587890625,0.02226209795863887,-2.3828892980139496e-05,-0.003143584664747529,-0.009392418972228039
6918.3095703125,0.02226212018159247,-2.6127676582517275e-05,0.0013907882663330706,-0.008375050853109517
6309.5732421875,0.022262146898141717,-2.8648183920330586e-05,-0.002158557794460482,-0.00815796363470783
5754.3994140625,0.022262179016610227,-3.1411787861277427e-05,-0.0018475254033602714,-0.007782865921401577
5248.07470703125,0.022262217628799867,-3.44419173968189e-05,9.959578796526689e-05,-0.006032187237597719
4786.30078125,0.022262264047001067,-3.7764254157528485e-05,-0.0008007250687139325,-0.005805949269925328
4365.158203125,0.022262319848447676,-4.1406947298749524e-05,5.1114634185674135e-05,-0.005710687833948749
3981.07177734375,0.022262386928707578,-4.5400848350904695e-05,-0.00016831052729462254,-0.007601424855850104
3630.78051757813,0.02226246756579488,-4.97797677356354e-05,0.0017002732780179823,-0.003685644239752235
3311.31127929688,0.022262564497142368,-5.458075470923792e-05,-8.194650515983351e-05,-0.004242352339547838
3019.95166015625,0.02226268101199352,-5.9844402582625377e-05,0.0016623099492379216,-0.0036505611501496255
2754.22875976563,0.02226282106227722,-6.561518111534089e-05,0.0011671205002769212,-0.0033330302818239408
2511.88647460938,0.02226298939561914,-7.19417979940077e-05,0.0017118871597058376,-0.0028891234355046076
2290.86767578125,0.022263191714856845,-7.887759125907536e-05,0.0005853027850129464,-0.0031262851960129753
2089.29614257813,0.02226343486924556,-8.648095445191309e-05,0.0019266523094930606,-0.0033810375889525134
1905.46069335938,0.022263727083536595,-9.481579600060518e-05,0.0008036260751213935,-0.002629517983404605
1737.80078125,0.02226407823221521,-0.00010395203402611882,0.0009183771635754082,-0.0017491189265844188
1584.89318847656,0.0222645001675621,-0.00011396612720916536,0.002082929965449898,-0.0015351613492739654
1445.43981933594,0.022265007111634646,-0.0001249416415643268,0.0004166507603782475,-0.001997370916518227
1318.25671386719,0.022265616124114828,-0.00013696985188533777,0.000518833538136327,-0.0008134837924468378
1202.26440429688,0.022266347659767396,-0.00015015037498870902,0.0010205942671901967,-0.001546862174304809
1096.47814941406,0.02226722623149499,-0.000164591829890124,0.0006344785068426902,-0.000831131596715824
1000.0,0.02226828119727133,-0.00018041251726819526,0.0009515610245084301,-0.0012197999426758954
912.010864257813,0.02226954769155612,-0.00019774110682837983,0.0009843639638149188,-0.0009201406703568799
831.763793945313,0.022271067724233533,-0.00021671731636196948,0.0010178060090598323,-0.0005162708778519695
758.577575683594,0.022272891472097413,-0.0002374925602119595,0.0007009237213097125,-0.0003541809778319595
691.830993652344,0.022275078789511824,-0.0002602305370246567,0.00018634808174722295,0.00012944419962784332
630.957336425781,0.022277700965246644,-0.00028510771689862,0.0007894144104332451,0.00026296275436947996
575.43994140625,0.022280842751239423,-0.000312313676203936,0.0006458505391823237,-0.0003924068719240461
524.807434082031,0.02228460468509876,-0.0003420512141158709,0.0006958787159033579,-0.00033572686080815246
478.630096435547,0.02228910572043242,-0.0003745361685646158,0.00049393533876722,-0.0001480190188518158
436.515838623047,0.022294486165941284,-0.00040999683098332066,0.0006022772201900832,0.0001288641987980793
398.107177734375,0.02230091091399749,-0.0004486728402154616,0.00020388771002849068,7.262722930663842e-05
363.078063964844,0.022308572910220276,-0.0004908134180631389,0.0002663207868643762,-9.244853957073891e-05
331.131134033203,0.022317696775288096,-0.0005366747947179581,0.0008303527189201972,0.0001302546141898419
301.995178222656,0.02232854243764234,-0.0005865166662844871,-0.0004568399076764623,0.000803649099485213
275.422882080078,0.022341408571024915,-0.000640597534952933,0.0003652263337574138,0.000686542721809567
251.18864440918,0.022356635555974662,-0.000699168812108309,0.00018106088077226093,0.0002887602470841911
229.086761474609,0.02237460760465551,-0.0007624676234290966,0.0004387460469334123,0.0006930475340022035
208.929611206055,0.022395753614530032,-0.0008307083510693397,-0.00011615889526896822,0.0004238683729532603
190.54606628418,0.022420546263134597,-0.0009040730852864012,-9.11911580204032e-05,0.00030869226099479886
173.780090332031,0.02244949884390097,-0.0009827013350504868,0.000160848569624273,0.00010971687832441314
158.489318847656,0.022483159394019223,-0.0010666795535384185,-0.0001419814517563782,-8.485205419351844e-05
144.543975830078,0.022522101799629428,-0.0011560312465440246,4.115204014612864e-05,0.00014657774077237546
131.825668334961,0.02256691379429043,-0.001250708615597005,-0.00016864279328647133,0.00018706240206609504
120.226440429688,0.022618182088573493,-0.0013505867978974135,-0.00035834117666910803,0.0001911082939759865
109.647819519043,0.022676475257572014,-0.0014554617577308986,-0.00014737071007838581,-0.00013928607805469852
100.0,0.02274232542074391,-0.0015650527231796454,-0.0002850294306211906,0.0007598213240102548
91.2010803222656,0.022816210109055237,-0.0016790097350675838,-0.001397606861531564,-0.001504275706662084
83.1763763427734,0.022898535955496662,-0.0017969264000029066,-0.00029503762369553765,-2.172778391550654e-05
75.8577575683594,0.022989625905831416,-0.0019183573670091172,-0.0003942951064509828,-0.00033371573159121713
69.1830978393555,0.02308971148933239,-0.0020428394544951514,0.00029157561267679,-0.00012965352461565146
63.0957336425781,0.02319893131328221,-0.002169914830317295,-8.10173975828929e-06,7.824012280480477e-05
57.5439949035645,0.023317336388146113,-0.002299154275588043,0.00011182884148281183,-0.000169149465418743
52.4807472229004,0.023444902220494588,-0.0024301784039336923,8.017390382988876e-05,-0.00041363476038469224
47.8630104064941,0.023581546916032044,-0.002562674789500011,0.000510727240109643,0.00010421187356428894
43.6515846252441,0.023727153903657597,-0.0026964092708839362,-0.000313088753407801,-0.0002683067310317363
39.810718536377,0.02388159739974831,-0.002831230203958719,-9.777401384019127e-05,0.00015054546914758122
36.307804107666,0.02404476843337363,-0.002967065070718519,-0.00026330210705457005,0.0001960356152056809
33.1131134033203,0.02421659917368154,-0.003103909539297711,-0.00014782010780116026,-0.00013555492298361095
30.1995162963867,0.02439708343796109,-0.003241809738040541,-0.00016972155221130908,-6.605982890784106e-05
27.5422878265381,0.024586291588076584,-0.0033808390881698474,-0.00018306302355861753,-0.00027841197250604716
25.1188640594482,0.024784378500724583,-0.003521071486058442,-8.112585351391713e-05,-0.00032047505478824184
22.9086761474609,0.024991583871652942,-0.0036625529037674588,-7.651294488685706e-05,-0.00016640916968495897
20.8929615020752,0.025208224728222362,-0.003805273573669845,-0.00014282651293703874,-4.727522638744508e-05
19.0546073913574,0.025434680624924242,-0.003949142842178377,-0.00015714544145055756,-0.00015310741830357666
17.3780078887939,0.025671372534454947,-0.004093968538006025,-0.000106073571621252,-0.0001826693726678253
15.8489322662354,0.025918736884555708,-0.004239442331152441,0.00019120408054340912,-0.00019779479260974113
14.4543981552124,0.02617719650093392,-0.0043851320971303115,-0.00021395206626578095,-6.114108157691169e-05
13.1825675964355,0.026447130384537013,-0.004530481787624231,-0.00011035053184388702,-4.789119812130538e-06
12.0226440429688,0.02672884427415325,-0.0046748187852582185,8.670054780434908e-05,0.00015649995826868147
10.9647817611694,0.027022543831134303,-0.004817368225046924,0.00011813407983830501,-1.2604282090023476e-05
10.0,0.02732831204932799,-0.004957273331787786,0.00014158303540819095,1.0881377998313985e-05
9.12010860443115,0.027646092164996226,-0.0050936204775965934,3.446585285952694e-05,-0.00013691218791379335
8.31763744354248,0.027975676948185507,-0.005225467423919323,-3.273189628549139e-05,0.00019458502250557699
7.58577585220337,0.028316704830513177,-0.005351873087580793,-4.047500492552342e-05,-5.439852445899337e-05
6.91830968856812,0.028668662896193065,-0.005471927158634851,1.0839644766502676e-07,-0.0001712218375017503
6.30957365036011,0.029030896362139177,-0.005584777992714353,-0.00013060717635012334,3.781709025404631e-05
5.75439929962158,0.029402623823406693,-0.0056896573846520505,1.053264858691394e-06,3.632707695344975e-05
5.24807453155518,0.02978295726029055,-0.005785901085510451,-0.00016370708795414995,-5.739727094450885e-06
4.78630113601685,0.030170925604514703,-0.005872964226863674,-0.0001608424909785959,-2.1386158087742524e-06
4.36515855789185,0.03056550054865078,-0.005950431142197017,-0.0002004464058380194,-0.00013871983458201703
3.98107171058655,0.030965623253225674,-0.006018019401482814,-3.155992066922533e-05,-6.367883553321397e-05
3.63078045845032,0.0313702306524666,-0.006075578182793484,-4.308979950830294e-05,-0.00020781941697688416
3.3113112449646,0.0317782801706125,-0.00612308137699847,6.832230275170131e-05,-9.004824444536989e-05
3.01995182037354,0.03218877182196053,-0.00616061604855693,-5.236401368706456e-05,-6.240244297422981e-05
2.75422859191895,0.03260076686389124,-0.006188367048671605,-2.380937688675755e-05,9.08323354811948e-05
2.51188635826111,0.03301340238806449,-0.006206598696683839,3.373147603708687e-05,-8.966271338363852e-05
2.29086756706238,0.03342590145721146,-0.006215634511566021,-7.950104818633952e-05,-7.206037432542101e-05
2.0892961025238,0.033837578612212475,-0.0062158359932279784,5.037279689727725e-05,3.578786081312197e-05
1.90546071529388,0.034247840777880845,-0.006207581429571918,9.363053823204653e-05,0.00010430318599838166
1.73780083656311,0.034656183780030214,-0.006191245645974734,6.550735314271583e-05,3.195750271806595e-05
1.58489322662354,0.03506218484757508,-0.006167181527676334,3.2762355786183917e-05,5.628704795026564e-05
1.44543981552124,0.03546549160961719,-0.006135704036529208,-6.500477905661134e-05,5.8290042255892266e-05
1.3182567358017,0.03586580820860896,-0.006097077320749806,-0.00022264725980723765,-9.65249943090064e-05
1.20226442813873,0.036262879236289895,-0.006051505378493612,-5.198820059590381e-05,-0.00016406916365921224
1.09647822380066,0.03665647226021549,-0.005999126594088139,-0.0002070112283442116,-3.358082058203902e-05
1.0,0.037046359744580766,-0.0059400123143919445,5.1418211968967675e-05,-6.18050406106449e-05
0.912010848522186,0.03743230118035025,-0.00587416948246684,-2.4203820241049112e-05,-5.818293857303997e-05
0.831763744354248,0.037814026225524947,-0.005801547193843749,-2.566586045645025e-05,-8.022865833704883e-05
0.758577585220337,0.03819121961668249,-0.005722046893365088,1.1546362192589588e-05,-4.75668984422882e-05
0.691830992698669,0.03856350854807916,-0.005635535792349773,-6.590037769253765e-05,-7.341427811887336e-05
0.630957365036011,0.03893045312496933,-0.005541862958452529,3.334111305983156e-05,1.923968888177096e-05
0.575439929962158,0.03929154038564599,-0.005440877421120202,-2.5907145318124214e-06,0.0001556303852106979
0.524807453155518,0.03964618225449244,-0.005332447546555342,-6.13107824929543e-05,0.0002457141363781581
