freq,mu_Z_re,mu_Z_im,Z_re_res,Z_im_res
10000.0,0.017593631320651223,-1.4827473860452994e-05,-0.007799877054039776,-0.030674847661357554
9120.1083984375,0.017593639750847486,-1.6257964335949473e-05,-0.007462562213769314,-0.028719280712567852
8317.6376953125,0.017593649885734447,-1.7826454094904496e-05,-0.005793174990335551,-0.026196108208350204
7585.77587890625,0.01759366206992269,-1.954625328113928e-05,-0.0043567374331891125,-0.02534757147510574
6918.3095703125,0.017593676717647715,-2.1431955021442962e-05,-0.002666420741310887,-0.022235492604297243
6309.5732421875,0.0175936943268213,-2.3499558824846382e-05,-0.0030467291945782023,-0.019582938830513347
5754.3994140625,0.017593715495913084,-2.5766605779979182e-05,-0.0016499458183359163,-0.01723853562240348
5248.07470703125,0.017593740944230246,-2.8252326616529402e-05,-0.0005414118129375527,-0.01533013089067623
4786.30078125,0.017593771536284167,-3.097780418470656e-05,-0.000772759001321132,-0.015750663507700706
4365.158203125,0.017593808311047225,-3.3966150719196915e-05,-0.00046639346796067613,-0.013497295674520998
3981.07177734375,0.017593852517107735,-3.724270260595986e-05,-0.0006245586155855659,-0.01342226476168896
3630.78051757813,0.01759390565487792,-4.083523280634764e-05,0.00029820422563001797,-0.011703147084784649
3311.31127929688,0.01759396952730867,-4.477418403744482e-05,0.001040616009061069,-0.010282040493596744
3019.95166015625,0.017594046300780777,-4.909292305803001e-05,0.0010723204971670765,-0.00939437013561813
2754.22875976563,0.01759413857826083,-5.382801896620087e-05,0.0019218683696636298,-0.009308272409501502
2511.88647460938,0.017594249487154382,-5.901954715070005e-05,0.0009810268285201824,-0.007874244597004
2290.86767578125,0.01759438278487799,-6.471142124063392e-05,0.0013402091931449915,-0.007895791306604135
2089.29614257813,0.017594542985576507,-7.095175451358698e-05,0.0014455026740016058,-0.0068166897318394865
1905.46069335938,0.017594735512478518,-7.779325401465675e-05,0.002008325794680318,-0.005546875177380157
1737.80078125,0.017594966880550955,-8.529364817942692e-05,0.0016869137357383539,-0.004735449661846927
1584.89318847656,0.01759524491631525,-9.351615230891229e-05,0.0017782211025907484,-0.003976525230290013
1445.43981933594,0.01759557902094856,-0.00010252997211002778,0.00146328202662006,-0.004091544746670927
1318.25671386719,0.017595980486610957,-0.00011241084742374637,0.0018164796594176587,-0.0037190224773717465
1202.26440429688,0.017596462875302886,-0.00012324163761782167,0.0014540666189752846,-0.0032550971496556214
1096.47814941406,0.017597042472782962,-0.00013511294935062443,0.0020698844285043615,-0.003186853532382924
1000.0,0.017597738832328673,-0.0001481238059923639,0.001584557995293473,-0.002690987173117664
912.010864257813,0.017598575424589653,-0.00016238235690274198,0.0017273765766997531,-0.001984911484724042
831.763793945313,0.0175995804148615,-0.00017800662429529236,0.0010276786762178983,-0.0016329303918916924
758.577575683594,0.017600787589886507,-0.00019512527720912934,0.0014289522269753073,-0.0018002618300346294
691.830993652344,0.017602237462762058,-0.0002138784281974746,0.0013733287898332579,-0.0012782230867137746
630.957336425781,0.017603978586664622,-0.00023441843141842753,0.001537550312748423,-0.0014460264929853277
575.43994140625,0.017606069114461095,-0.0002569106677232968,0.0014948181476737953,-0.0009645092454423968
524.807434082031,0.017608578644346562,-0.00028153428086741955,0.0013435197543614635,-0.0006019753704379195
478.630096435547,0.01761159039691844,-0.0003084828247574544,0.001203320171989538,-0.0004000600354538685
436.515838623047,0.017615203773685008,-0.0003379647706024822,0.0011881618109422093,-0.0003090361670329709
398.107177734375,0.017619537348674084,-0.0003702037987433267,0.0010109098356230854,-0.0002766721930721668
363.078063964844,0.0176247323447017,-0.0004054387773554422,0.0012234656655339994,8.622922718705774e-05
331.131134033203,0.017630956642591834,-0.00044392330541614695,0.000790888019168233,-4.276611811824697e-05
301.995178222656,0.0176384093627337,-0.00048592466671382737,0.0007781440779569999,-9.273494404172736e-05
275.422882080078,0.01764732603648846,-0.0005317219915231987,0.0012458935819024582,6.311594877480133e-05
251.18864440918,0.017657984355323477,-0.0005816033869242019,0.0006913322302032759,0.0001735064373159981
229.086761474609,0.01767071043372281,-0.0006358617416267149,0.00015028086722021147,0.00022440423838218507
208.929611206055,0.01768588544780642,-0.0006947888625573145,0.0004959748124543188,0.0007838058652568854
190.54606628418,0.017703952408233272,-0.0007586675607348229,0.0005348121289401736,0.0003722538561810771
173.780090332031,0.017725422677436237,-0.000827761264074097,-8.346813878661735e-06,0.0005964169841972029
158.489318847656,0.017750881665054726,-0.0009023007608770448,6.2939307131255895e-06,0.0006341493550867551
144.543975830078,0.01778099290530239,-0.000982467729341208,9.930297235999017e-05,0.000484068583022792
131.825668334961,0.017816499454405298,-0.00106837485015065,-8.440332350490368e-05,0.0005671714802118501
120.226440429688,0.01785822127222803,-0.0011600425667980944,3.4100452659429487e-05,0.0004186088018199056
109.647819519043,0.017907047021862077,-0.0012573729926732475,0.00010630239891627757,0.0003254475578653524
100.0,0.017963918565797012,-0.001360122040082943,-0.0003155891904361892,0.00034881774784875684
91.2010803222656,0.018029806470294396,-0.001467871602843584,0.0001912054473355955,-0.000593479787684184
83.1763763427734,0.01810567522351827,-0.0015800045527400617,-0.0003460974066964301,0.0003823011923698384
75.8577575683594,0.01819243758988654,-0.0016956861599540251,-0.0003983423851700585,0.0001909169132628748
69.1830978393555,0.018290898865590682,-0.001813856322936239,-0.0003552091209787188,0.0002566127603281609
63.0957336425781,0.018401693474159528,-0.0019332372100188196,-0.0005105883668801714,0.00023921029818218045
57.5439949035645,0.01852521847586418,-0.0020523604957524448,-0.0005462450196287195,0.0005740106085177551
52.4807472229004,0.018661570606461595,-0.0021696169246643218,-0.0006451673231210042,0.0002869587074309783
47.8630104064941,0.01881049504594838,-0.002283328470955854,-0.00029783578498332117,-9.692672378875397e-05
43.6515846252441,0.01897135467781928,-0.002391840050297698,-0.00039304329500292057,-0.00015718601487849787
39.810718536377,0.019143127669836568,-0.0024936240619013498,-0.00039033328995553146,1.8190873231450216e-05
36.307804107666,0.0193244385969286,-0.002587387741285027,-0.00046454561237050176,-0.00016564077951262707
33.1131134033203,0.019513624255501693,-0.0026721712076358405,-0.0001240367992287085,-0.00012736673143434046
30.1995162963867,0.01970883051801738,-0.002747423816808243,-0.0002890865976709206,-4.568473469534302e-05
27.5422878265381,0.019908131738845487,-0.002813048307616176,-0.00025714404350121386,-0.00013051961624987573
25.1188640594482,0.020109660613629392,-0.002869405987875648,-0.0001482594131498073,-0.00017595404686234764
22.9086761474609,0.020311734512889035,-0.002917281238788241,9.008557045133564e-06,-0.00013518182417144057
20.8929615020752,0.02051296472469962,-0.0029578089123481763,7.461904684622628e-06,-0.0002055395269656762
19.0546073913574,0.020712337457806002,-0.002992372813632559,-5.2438116401296725e-05,-0.00012670163344395908
17.3780078887939,0.020909259402540008,-0.003022486600507919,6.538846471580706e-05,1.7022923151980857e-05
15.8489322662354,0.02110356521703144,-0.0030496697815211807,0.00015313421286483955,-0.00010141846147208085
14.4543981552124,0.02129548883475281,-0.0030753309200487414,-8.224486932991576e-06,-0.00021703092520754122
13.1825675964355,0.021485604088305684,-0.00310066823626567,-7.457870662291519e-05,-0.0001304926514875699
12.0226440429688,0.02167474268799186,-0.003126594820708012,-2.1532412120137817e-05,-0.0001304942422509117
10.9647817611694,0.021863898722785633,-0.0031536925077486266,3.9037777441634086e-05,7.61032145421732e-05
10.0,0.022054128943023547,-0.0031821952930677173,2.5747938094046463e-05,2.4291287825682628e-05
9.12010860443115,0.02224645722899391,-0.00321200055398772,-4.6879460478287116e-05,-1.7956442691220015e-05
8.31763744354248,0.02244179023701463,-0.0032427042613271295,-6.361977856837037e-05,4.374264902437053e-05
7.58577585220337,0.022640849458168258,-0.0032736549563770426,-5.238596897294209e-05,1.9110977643157535e-05
6.91830968856812,0.02284412303012098,-0.003304020416012449,1.405769031728038e-05,-4.003537634614902e-05
6.30957365036011,0.023051838721108997,-0.0033328606842972916,-2.401754729690342e-05,-2.4755867473091626e-05
5.75439929962158,0.02326395770644319,-0.003359201345819761,-6.568210090030988e-05,7.964456226838921e-06
5.24807453155518,0.02348018714989645,-0.0033821016284078785,-0.00010751282964725078,4.132141225032153e-05
4.78630113601685,0.02370000832312693,-0.003400712987006472,-0.0001335552281797707,4.593491035622798e-05
4.36515855789185,0.023922716130927568,-0.003414325166187545,-0.0001841365793194341,7.793914371045539e-05
3.98107171058655,0.02414746551896866,-0.003422398248173732,-0.00015747205231854064,3.524763747256776e-05
3.63078045845032,0.024373320355154625,-0.0034245806229396304,-8.391825940457648e-05,-4.3068501193047407e-07
3.3113112449646,0.024599300917900316,-0.003420714101085815,-0.00012833230503728546,-0.0001562985575594149
3.01995182037354,0.02482442701162897,-0.0034108283230012185,0.0001223474174936734,-0.00021710295685591855
2.75422859191895,0.025047754798751584,-0.0033951271558171374,6.28586157376855e-05,-0.00011024440172973738
2.51188635826111,0.025268406536525973,-0.0033739698886583736,1.5231710023173167e-05,-7.317898084327349e-05
2.29086756706238,0.02548559338218303,-0.003347849768003604,5.758695668313038e-05,-2.1572286611603892e-05
2.0892961025238,0.025698632164119214,-0.0033173718579307654,-5.817955899388785e-05,-4.6789561976565315e-05
1.90546071529388,0.0259069574405397,-0.003283231504138025,-3.3460802868499895e-05,3.898298491275109e-06
1.73780083656311,0.02611013026552628,-0.0032461939224200575,-6.847558898501888e-05,7.958111044294256e-05
1.58489322662354,0.026307844889333742,-0.003207074792071772,-9.028114659495601e-05,-6.621595187447215e-05
1.44543981552124,0.026499934208882588,-0.0031667212448106856,-4.48546434514141e-05,3.458625124521438e-05
1.3182567358017,0.02668637426040374,-0.003125992445337589,-0.00017566403903756037,9.671078988621098e-05
1.20226442813873,0.0268672875073895,-0.003085738943241025,-7.533813443330248e-05,0.00020787728828987502
1.09647822380066,0.027042944231704665,-0.0030467802583611036,-0.00012206633977513565,0.00026190477242699637
1.0,0.027213761039913992,-0.003009880525082486,-9.163337117300968e-05,4.4759730785914106e-05
0.912010848522186,0.027380295400632887,-0.0029757225194628877,9.192456616385208e-06,0.00014474245182611234
0.831763744354248,0.027543235223657918,-0.002944880846667136,4.024582720501754e-05,5.902165382816373e-05
0.758577585220337,0.02770338274918537,-0.00291779546011742,7.773973796677824e-07,7.493908572438028e-05
0.691830992698669,0.02786163239333326,-0.002894746959242935,4.0782602164057824e-05,-2.9092775691335043e-05
0.630957365036011,0.028018942630573765,-0.002875835249202588,0.00016262993840836584,-0.0001985000781736879
0.575439929962158,0.028176302443046926,-0.0028609631410215323,0.00012756733109512558,-3.220795787613239e-05
0.524807453155518,0.02833469328428637,-0.0028498263375407295,0.00012094457591907068,4.238467892370406e-06
