freq,mu_Z_re,mu_Z_im,Z_re_res,Z_im_res
10000.0,0.01891898800171559,-7.033099509288757e-06,-0.0055018042352086086,-0.01726676126299009
9120.1083984375,0.01891899225142995,-7.711615843778918e-06,-0.004313488259639352,-0.016307343062443778
8317.6376953125,0.018918997360312356,-8.455586484270682e-06,-0.0033603042979603454,-0.01489710259889677
7585.77587890625,0.01891900350197366,-9.27132391109701e-06,-0.001833251371540539,-0.014255953960350898
6918.3095703125,0.01891901088506964,-1.0165748870633562e-05,-0.0021099958047172615,-0.013088735183453833
6309.5732421875,0.018919019760360832,-1.1146448823181067e-05,-0.001290812356600668,-0.011604890607567982
5754.3994140625,0.018919030429189812,-1.2221741971479159e-05,-0.0020611824082678865,-0.00995411816566888
5248.07470703125,0.01891904325365871,-1.3400747364081463e-05,-0.0005994047862305923,-0.010105209371929682
4786.30078125,0.01891905866884713,-1.4693461662734798e-05,-0.0003759278324889717,-0.008348231189257035
4365.158203125,0.01891907719747697,-1.6110843155482167e-05,-0.00012894863410322852,-0.007892374774549083
3981.07177734375,0.01891909946751393,-1.7664903692331103e-05,-0.001406121653797273,-0.0077964901420393305
3630.78051757813,0.018919126233291804,-1.936880924998359e-05,-0.0002050333561179965,-0.006412530411568184
3311.31127929688,0.018919158400866245,-2.1236989898841487e-05,0.0010207273530690453,-0.006090461783362742
3019.95166015625,0.018919197058443287,-2.3285259969540674e-05,0.0002946361509601862,-0.0060727329529002404
2754.22875976563,0.018919243512904815,-2.5530949298364873e-05,0.001016252709782315,-0.004896808553550465
2511.88647460938,0.018919299333650177,-2.799304643353842e-05,0.0007229530953946767,-0.004325436711997538
2290.86767578125,0.018919366405234304,-3.0692354794659706e-05,0.0006050998278713041,-0.004675120268967059
2089.29614257813,0.01891944699055443,-3.365166272535949e-05,0.0006405818468977302,-0.0035557385512770593
1905.46069335938,0.018919543806716198,-3.6895928399807164e-05,0.0011713872442686984,-0.003455648619176907
1737.80078125,0.018919660116072736,-4.045248050931724e-05,0.0009206872084103375,-0.003077722639038517
1584.89318847656,0.018919799835489897,-4.435123559154322e-05,0.0010515473644004958,-0.002733519558422843
1445.43981933594,0.01891996766734118,-4.862493271625756e-05,0.0009536860446929807,-0.0026537355724224575
1318.25671386719,0.01892016925655994,-5.330938605472138e-05,0.0012699077352205414,-0.0021047888020227215
1202.26440429688,0.018920411378681036,-5.84437555830782e-05,0.001168449432193637,-0.0021734081718335786
1096.47814941406,0.01892070216481582,-6.407083562413383e-05,0.0008699495846499171,-0.0016934657803813337
1000.0,0.018921051370545647,-7.023736049499629e-05,0.001026475998207349,-0.0013599115578185963
912.010864257813,0.01892147069681883,-7.699432547581145e-05,0.0009840861510157298,-0.0009394214395191115
831.763793945313,0.018921974172446954,-8.439732041064578e-05,0.0010912502758242543,-0.0010707666471213458
758.577575683594,0.018922578609098156,-9.250687143482305e-05,0.0010149665833603556,-0.001202145006383723
691.830993652344,0.018923304141452244,-0.00010138878434185367,0.0006687763193153444,-0.0008944109461571537
630.957336425781,0.018924174866802344,-0.00011111448045670168,0.0009330958492823442,-0.0004978827630806017
575.43994140625,0.01892521960007228,-0.00012176131226128504,0.0006883291648534795,-0.0002909368728473851
524.807434082031,0.018926472761685163,-0.00013341284131464218,0.0006348112458532638,-0.0005899582268466422
478.630096435547,0.018927975416829217,-0.00014615905523585688,0.000924927041580318,-0.00024171684047958418
436.515838623047,0.018929776485059852,-0.00016009649328642801,0.0005607853932124533,-0.00047744620308962804
398.107177734375,0.018931934138264977,-0.0001753282408177223,0.0005117910853293765,0.0001257894769362777
363.078063964844,0.01893451740229342,-0.0001919637420091217,0.000482133824469818,-0.0001215763754320701
331.131134033203,0.018937607971922534,-0.00021011836725444584,0.0005967614482800358,0.00021158731760295414
301.995178222656,0.018941302239225483,-0.00022991265679517963,0.0008872788541775846,0.0008317385004200205
275.422882080078,0.018945713520242238,-0.00025147114612756997,0.0010390086026921368,2.659182681103003e-05
251.18864440918,0.018950974442201472,-0.0002749206620871673,0.000556435309487173,0.0002586141920976327
229.086761474609,0.018957239421905005,-0.0003003879643694887,0.0006430678394446047,6.0101043647311256e-05
208.929611206055,0.01896468712297943,-0.00032799659761237077,0.0004642361244347297,0.0003738015866967292
190.54606628418,0.018973522724261265,-0.00035786281899884376,0.0002352603689336659,0.00014000820134425627
173.780090332031,0.01898397976390808,-0.00039009048223784644,6.13658302256806e-05,0.00043732012536085353
158.489318847656,0.018996321246897745,-0.00042476479920193684,-0.0002072168281917544,0.00021697262510086317
144.543975830078,0.019010839622707453,-0.0004619449728818241,-0.0001251030599164482,1.8480231335759332e-06
131.825668334961,0.019027855166892812,-0.0005016558087636484,-0.0002826732455684898,0.00010755622235855157
120.226440429688,0.019047712253705124,-0.0005438785723018899,3.037350095852487e-05,0.0006024220071193102
109.647819519043,0.01907077300735121,-0.0005885415639993275,-0.00012688842229239064,0.0003190222150380725
100.0,0.019097407897643165,-0.0006355111214075537,-5.8016190596536094e-05,0.0002888764760713464
91.2010803222656,0.019127983021576603,-0.0006845839984541824,0.0011540515153005033,0.0007750561030754175
83.1763763427734,0.019162844106511742,-0.0007354822779382039,-0.0003270104676917594,0.00028255306404729617
75.8577575683594,0.019202297675928313,-0.0007878520852314897,-3.771657911848594e-05,0.00037192158863071025
69.1830978393555,0.019246590306935995,-0.0008412673336554999,-0.0003004716877358059,0.00014432049699970016
63.0957336425781,0.019295887418406245,-0.0008952394969006694,-0.0001230525296757566,0.00011343395773413052
57.5439949035645,0.01935025347415609,-0.0009492339520731576,-0.0001510619556506082,0.00014881189437414245
52.4807472229004,0.019409635768838963,-0.0010026927901909018,0.0004648079291067614,-3.807688872450182e-05
47.8630104064941,0.01947385399919302,-0.001055063217418029,-0.0002660122575208791,0.000598842740519171
43.6515846252441,0.019542597559687756,-0.0011058298763388136,-0.0003021076792505441,-0.00013446083846851357
39.810718536377,0.019615431933174707,-0.0011545487292113016,-5.0470547308393426e-05,7.442058213029835e-05
36.307804107666,0.01969181473365056,-0.0012008796837742388,-0.00032163125464694173,-0.00015652830904383888
33.1131134033203,0.019771120997969585,-0.001244614995553835,-2.689890294841485e-05,-0.00040414829319693495
30.1995162963867,0.019852676351703864,-0.001285700684946612,-0.00018607925888133522,-0.00015509906091981207
27.5422878265381,0.019935795822958687,-0.001324248743063102,-5.7824170370313066e-05,-0.00013620605301700207
25.1188640594482,0.02001982546118195,-0.0013605386961475785,-0.0001239553961426519,-0.00018987553308167857
22.9086761474609,0.0201041836065947,-0.0013950080492271598,-0.00014235193303240024,-0.00023388919632125974
20.8929615020752,0.02018839867871714,-0.001428232111847614,-0.00022803431290675802,-0.00021755304454891414
19.0546073913574,0.020272140683726167,-0.0014608946095891152,3.774586518176526e-05,-7.448253945641515e-05
17.3780078887939,0.020355244225097976,-0.0014937512064821371,-5.306577103012314e-05,-0.00018206811049053715
15.8489322662354,0.020437721551283962,-0.0015275885488463393,-2.1718054190537905e-05,-0.0001301228439061393
14.4543981552124,0.0205197649987625,-0.0015631816600623785,0.00013428916951879755,-0.00013194026138517857
13.1825675964355,0.020601738996522973,-0.001601252481251959,2.917722584537194e-05,-3.754546391225881e-05
12.0226440429688,0.020684162517315245,-0.0016424320979839327,2.8794993883446418e-05,-0.00011149971902883271
10.9647817611694,0.020767683439635348,-0.001687228773523302,2.6619338177748253e-05,2.2970628190597826e-05
10.0,0.02085304669650109,-0.00173600338323927,0.00010692178817298809,-0.00010936480405697013
9.12010860443115,0.02094105832728673,-0.0017889532728398972,-6.750072509768834e-06,-5.767233691169726e-05
8.31763744354248,0.021032547630446773,-0.0018461049910219165,1.0192446487772983e-05,-7.812762964016454e-06
7.58577585220337,0.021128329559738198,-0.0019073158139243348,-0.00010008446914480315,-9.698514918533483e-05
6.91830968856812,0.02122916934129982,-0.0019722835049983825,-1.194606485577926e-05,-2.480080640138247e-05
6.30957365036011,0.02133575103908045,-0.0020405633552481837,-4.611688561650257e-06,-4.625503816808353e-05
5.75439929962158,0.02144865148354048,-0.002111591229850121,-7.642790090561791e-05,-5.641911987372102e-05
5.24807453155518,0.021568320622328906,-0.0021847111120267384,-0.00015210367214279347,4.670401717761508e-06
4.78630113601685,0.02169506896758776,-0.0022592054847164404,-4.22066775490372e-05,7.78267350955977e-06
4.36515855789185,0.02182906241865439,-0.0023343268264955763,-7.492182998381294e-05,1.284331596122356e-05
3.98107171058655,0.021970324346924194,-0.0024093285192948073,-4.897998819310481e-05,-5.216383303407405e-06
3.63078045845032,0.02211874445838174,-0.002483493569479175,7.843321127133998e-05,2.6340908198725123e-05
3.3113112449646,0.02227409361526313,-0.002556159723356739,-2.2031453997470307e-05,-1.1155012801739375e-05
3.01995182037354,0.022436043517142235,-0.0026267398047009017,-7.199096545606673e-05,-5.763869080155706e-08
2.75422859191895,0.022604189926248894,-0.00269473639965763,-6.699923290600512e-05,-0.00013185262397643
2.51188635826111,0.022778077981603268,-0.002759750348858298,-1.7493032681833304e-05,-3.371841587849816e-05
2.29086756706238,0.02295722808649822,-0.0028214828576201283,-2.7630515787177568e-05,-9.379643008652818e-05
2.0892961025238,0.023141160874570584,-0.0028797313849922125,-0.00011969517270211602,4.3117445738729415e-07
1.90546071529388,0.02332941985738473,-0.0029343798037025307,-7.98908709267708e-05,-0.00011018763551153086
1.73780083656311,0.023521590523372306,-0.002985383618060963,7.632299763062067e-07,-6.0510124449162945e-05
1.58489322662354,0.023717314883553928,-0.0030327512743740853,-0.0001780065303206707,0.00011107871766681456
1.44543981552124,0.023916300730306768,-0.0030765227845862045,-6.771984557423297e-05,4.2714237888195374e-05
1.3182567358017,0.024118325177405836,-0.0031167470066052272,-0.00013674193265576437,0.00017808203974847272
1.20226442813873,0.024323232366433675,-0.003153458972405203,4.464749871787438e-05,1.4716490228096953e-05
1.09647822380066,0.024530925541873864,-0.003186658637319125,-0.00012598863268283716,0.00011499863332097493
1.0,0.02474135399861555,-0.0032162923320315706,1.0435069634748967e-05,1.3205134204729435e-05
0.912010848522186,0.02495449567833334,-0.003242238049104797,-2.1759693833257876e-05,4.6262893185002995e-05
0.831763744354248,0.025170336422217342,-0.0032642954884051422,3.442628372954393e-05,-0.0001511593272864424
0.758577585220337,0.025388847066920975,-0.003282181535241393,-7.091745837332561e-05,-2.746319723593172e-06
0.691830992698669,0.025609959690998656,-0.0032955315639453435,5.335810704095584e-05,-2.174994211674372e-05
0.630957365036011,0.02583354437498041,-0.003303906658190411,-2.6973842106387674e-05,6.413225876988893e-05
0.575439929962158,0.02605938782824113,-0.0033068065347302707,0.0001210110439165274,-4.24037968892706e-05
0.524807453155518,0.026287175160379532,-0.0033036876610850387,0.00018075425598153283,0.0001997921009177614
