freq,mu_Z_re,mu_Z_im,Z_re_res,Z_im_res
10000.0,0.01889246711750876,-8.587064845408507e-06,-0.005232028567591841,-0.01797630106161341
9120.1083984375,0.018892472444266978,-9.415504174810129e-06,-0.003949681462555223,-0.015890614893870912
8317.6376953125,0.018892478848294914,-1.0323861815271124e-05,-0.0033780478886797846,-0.014022580499030872
7585.77587890625,0.01889248654742914,-1.1319845596345975e-05,-0.0026939949343613608,-0.014098629906455046
6918.3095703125,0.018892495803542346,-1.2411906179255421e-05,-0.0019424064978883528,-0.012246499008294455
6309.5732421875,0.018892506931439932,-1.3609308475853275e-05,-0.0014439030992826687,-0.011832487661117953
5754.3994140625,0.018892520309551637,-1.4922209864010625e-05,-0.0010883051742473643,-0.01037110723633081
5248.07470703125,0.018892536392780317,-1.6361745858281717e-05,-0.0007942742795028837,-0.009784218194746983
4786.30078125,0.018892555727941487,-1.7940123898545186e-05,-0.00011857110323241354,-0.008405152765435644
4365.158203125,0.018892578972314934,-1.967072600705779e-05,-0.0004219932427653658,-0.008123911247795658
3981.07177734375,0.01889260691593473,-2.1568221115180593e-05,0.0012994987983543302,-0.008034092095755582
3630.78051757813,0.018892640508368367,-2.3648687929908183e-05,0.00017306793446816848,-0.007535033007443908
3311.31127929688,0.018892680890887126,-2.592974923824264e-05,0.0005193684622935256,-0.006559587881195243
3019.95166015625,0.018892729435108013,-2.8430718644731747e-05,0.001011771861455714,-0.005314282841696532
2754.22875976563,0.0188927877894062,-3.1172760736353264e-05,0.0008078742972034009,-0.004548610185247054
2511.88647460938,0.018892857934649954,-3.417906579877242e-05,0.0005445645557007536,-0.004038471255873672
2290.86767578125,0.018892942251129134,-3.7475040183033824e-05,0.0007661900235843358,-0.004537366813049233
2089.29614257813,0.01889304359889227,-4.108851343502088e-05,0.0005078474942465695,-0.003638611599207921
1905.46069335938,0.018893165414178844,-4.5049963297596836e-05,0.0009652486936693426,-0.003139962935598797
1737.80078125,0.01889331182509219,-4.9392759651232595e-05,0.0009800503966167877,-0.0031246927770229326
1584.89318847656,0.01889348779035702,-5.415342833301151e-05,0.0009318683685173197,-0.0024112940774430112
1445.43981933594,0.01889369926558265,-5.937193558861321e-05,0.0009606658588481483,-0.0021618531368796136
1318.25671386719,0.01889395340249093,-6.509199369594789e-05,0.00113874672815353,-0.001911202092691148
1202.26440429688,0.01889425878731797,-7.136138770937445e-05,0.0010105314603287667,-0.0018471255494301743
1096.47814941406,0.018894625725902465,-7.82323228909498e-05,0.0009679234500302655,-0.0018289101469112499
1000.0,0.01889506658422062,-8.576179131608439e-05,0.0012069635640294188,-0.0013619024746466845
912.010864257813,0.018895596194545887,-9.401195523781633e-05,0.001050701293627887,-0.0014228067065541164
831.763793945313,0.018896232339193866,-0.00010305054302995002,0.0009618857676291677,-0.0009192440105016501
758.577575683594,0.01889699632540564,-0.00011295125140434764,0.0008129079850040383,-0.0006850426273475477
691.830993652344,0.018897913667035613,-0.0001237941449956587,0.0007904193276887135,-0.0006012449283600587
630.957336425781,0.01889901489053547,-0.00013566604071805826,0.0009127359095650704,-0.00047152275989335824
575.43994140625,0.018900336484562224,-0.0001486608594751983,0.0008230188592780255,-0.0005585741961004983
524.807434082031,0.018901922014021088,-0.00016287992178256005,0.0009145626988641894,-0.0003092858677801601
478.630096435547,0.018903823420251292,-0.00017843215647220988,0.0005479714272865928,-0.00016847151965552386
436.515838623047,0.018906102528701004,-0.00019543418193295977,0.0006188796962597054,-0.00019004144996886637
398.107177734375,0.01890883278336254,-0.00021401020792215442,0.00057960730280604,0.00010922406356874559
363.078063964844,0.01891210122237191,-0.00023429169213719985,0.0005060528052805088,3.550407582570016e-05
331.131134033203,0.018916010700336487,-0.0002564166697472814,0.000515544630757387,0.00012671424525001864
301.995178222656,0.01892068234866502,-0.0002805286565125462,0.00033869033342242075,-0.0001772971079480462
275.422882080078,0.01892625824319292,-0.00030677500718222575,0.00038283415841031815,0.0002874405185975742
251.18864440918,0.018932904217166167,-0.0003353045936714164,0.0002701646720592657,0.00017050141142278363
229.086761474609,0.018940812714676524,-0.00036626465414937664,0.00018348246095622328,0.0002232582864229234
208.929611206055,0.018950205523052877,-0.0003997966590055642,1.5517923513078125e-05,0.00032765218627653575
190.54606628418,0.018961336152100126,-0.00043603104947321624,0.0001562532646890262,0.0004037085809911838
173.780090332031,0.01897449154582723,-0.0004750807383992134,0.0001296579482863297,0.00022569403881568658
158.489318847656,0.018989992722863832,-0.0005170333285071814,0.00010968504845583135,0.0004101563857681186
144.543975830078,0.01900819385514082,-0.0005619421109486026,0.00011013330981551883,0.0001073308548028974
131.825668334961,0.01902947922986677,-0.0006098160656147502,3.258114498786921e-05,0.00019472143417434981
120.226440429688,0.019054257516876887,-0.000660609292113762,-5.215292690591289e-05,0.00030978878376483794
109.647819519043,0.019082952815343498,-0.0007142105518165526,-2.0706501553901385e-05,0.00020129071490134745
100.0,0.01911599210377917,-0.0007704338688724276,-8.613222364202769e-05,0.0001622358056394724
91.2010803222656,0.019153788991449868,-0.0008290113846330536,0.0003075043933377687,-0.00019514183164825365
83.1763763427734,0.0191967240696125,-0.0008895898277205278,-0.00022042215119079736,0.00017532060925987223
75.8577575683594,0.019245122666011232,-0.0009517319887788699,-0.0003571108779807687,9.452440627793005e-05
69.1830978393555,0.019299231361937313,-0.0010149244179570478,5.061354894621284e-05,0.00022181910857615224
63.0957336425781,0.019359195153760375,-0.001078592161329711,-0.00031205311830092425,5.808471268198886e-05
57.5439949035645,0.019425037527529297,-0.0011421207262826342,-0.00029109304204790257,0.00012364385941346584
52.4807472229004,0.0194966458663707,-0.001204884671032034,-1.574112620299911e-05,0.00035899859910496607
47.8630104064941,0.019573764458757133,-0.0012662813489874884,-0.0001506399805729676,0.00017292565167041163
43.6515846252441,0.019655996892264656,-0.001325767534346482,-0.0003309585567204433,-0.00020550009843818204
39.810718536377,0.01974281884264427,-0.0013828960418625126,-0.00013535254169032979,9.800242875528738e-05
36.307804107666,0.019833601287009582,-0.0014373491404123008,-0.0003358728975035169,-0.00011241972702670088
33.1131134033203,0.019927643112951293,-0.0014889656073652064,-4.6033538764908566e-05,-0.0002940662876942063
30.1995162963867,0.02002421110117987,-0.0015377586845630074,-0.0002248576358501314,-0.0001825773528168074
27.5422878265381,0.020122584457391283,-0.001583922925700679,-0.0001301779049697159,-0.00015558131627487902
25.1188640594482,0.02022210055249515,-0.0016278288791801675,5.561050351248625e-06,-7.285650343716744e-05
22.9086761474609,0.02032219835492627,-0.0016700056089565798,-3.0772453818130735e-05,-0.00016842956529117986
20.8929615020752,0.02042245620473503,-0.0017111121024102204,-1.2873321927769216e-05,-0.00022445305242252043
19.0546073913574,0.020522621054803483,-0.0017518995344732611,-4.222750231111863e-05,-0.00010621098485786109
17.3780078887939,0.020622627018189045,-0.0017931670734994466,-0.00010342788865605468,-0.00017084564011174658
15.8489322662354,0.020722601930497367,-0.001835714369425091,4.567987739866747e-05,-0.0001208759335517911
14.4543981552124,0.020822861569673726,-0.001880294041232107,8.117907002662753e-05,-5.190153931170687e-05
13.1825675964355,0.020923892088085334,-0.0019275673869602456,-9.847427174456552e-05,-6.898734435224567e-05
12.0226440429688,0.021026322030836823,-0.0019780662075477456,-2.035557348087705e-05,-4.1395814796145545e-05
10.9647817611694,0.021130885985945133,-0.0020321631133884952,-7.972860589176844e-05,-5.1149891722295296e-05
10.0,0.021238382400748348,-0.002090052026334592,7.734397220334616e-05,-6.647899282299181e-05
9.12010860443115,0.021349628388858954,-0.0021517398571640313,-3.922644259814548e-05,-6.349042896633145e-05
8.31763744354248,0.021465414441934196,-0.0022170495842444822,-3.885547090470495e-05,-2.3512974833282078e-05
7.58577585220337,0.021586461862505145,-0.002285634233209045,-2.0085895478055837e-05,-4.713965632274471e-05
6.91830968856812,0.021713385469286674,-0.0023570005976657907,-3.770355227682501e-05,-2.423917959149067e-05
6.30957365036011,0.02184666372175886,-0.002430540984436577,-5.362040441540816e-06,-7.202640169837703e-05
5.75439929962158,0.021986617898252396,-0.002505570832188908,0.00010995492866319734,9.734932784191859e-06
5.24807453155518,0.022133401374825407,-0.002581369761366563,-5.800205885509238e-05,1.7211142938336997e-05
4.78630113601685,0.022286999426184204,-0.0026572234701338552,-4.526840955209471e-05,-6.137180663385536e-05
4.36515855789185,0.022447239339708824,-0.0027324639004394514,2.5337294101222818e-05,-1.924976005415139e-05
3.98107171058655,0.022613810033036197,-0.0028065052513901343,4.610012514679601e-05,-1.7555493575734365e-05
3.63078045845032,0.022786289825632695,-0.002878873703070532,-1.781210343590467e-05,-3.313515428513209e-05
3.3113112449646,0.02296418056229299,-0.002949229111281891,-9.088113566690925e-05,-4.436490444291105e-06
3.01995182037354,0.023146945943300724,-0.003017377421218853,-5.9729481871176326e-05,-0.0001331596504487529
2.75422859191895,0.023334051697553024,-0.003083273094158849,-7.009764104997512e-05,-3.5788492514909204e-07
2.51188635826111,0.02352500515009889,-0.0031470114189402565,-4.109745893951175e-05,-8.019132644105633e-05
2.29086756706238,0.023719391785829796,-0.0032088111551393343,1.4205463498395687e-05,2.379669566556549e-05
2.0892961025238,0.023916906591205746,-0.0032689884990244767,-0.00013399225875835447,-7.46817547619765e-05
1.90546071529388,0.02411737825414908,-0.0033279238482589028,-3.440518238772075e-05,3.7063823116297284e-05
1.73780083656311,0.02432078470081906,-0.003386023241319344,-0.0001566598883189392,-6.371016729684415e-05
1.58489322662354,0.024527258924769466,-0.003443676645447712,-0.00012862520701973496,-3.247441961361187e-05
1.44543981552124,0.024737084592640235,-0.003501215445059649,-0.00011268413537756511,9.432532061325093e-05
1.3182567358017,0.024950681463535206,-0.0035588715389895213,-0.0001226717376156955,-6.075549652462134e-05
1.20226442813873,0.02516858120673008,-0.0036167403800336437,-0.00012204955107861931,-3.0414585575343732e-05
1.09647822380066,0.025391394717469012,-0.0036747501006046653,-3.4888761267889284e-05,-6.886549077465137e-06
1.0,0.025619772485986313,-0.0037326385628327725,-3.093179355568784e-05,4.2366898815327566e-05
0.912010848522186,0.02585435994947256,-0.0037899397788877355,2.5419155600659576e-05,-4.7051907547835704e-05
0.831763744354248,0.026095750031752282,-0.0038459806799144005,-4.263200076131887e-05,-0.00012069620221860037
0.758577585220337,0.026344435239090566,-0.0038998886987597773,-5.2657028780333376e-05,-1.5373206514277416e-05
0.691830992698669,0.026600761726862734,-0.003950610099457685,3.947728908713227e-05,-4.2770331822885276e-05
0.630957365036011,0.026864887679882415,-0.003996938457517487,0.0002095377994255146,0.00013771514427791346
0.575439929962158,0.02713674816543659,-0.004037552198834594,2.4190848548905075e-06,0.00014061279364680542
0.524807453155518,0.027416028332757036,-0.0040710596612286215,6.088825766953701e-05,0.00021645098341587822
