freq,mu_Z_re,mu_Z_im,Z_re_res,Z_im_res
10000.0,0.02286717600626336,-2.451414315904086e-05,-0.006899040867859238,-0.02238646695463864
9120.1083984375,0.02286720669532575,-2.6878970955429288e-05,-0.00872116887306415,-0.01734430256793363
8317.6376953125,0.022867243590450576,-2.947187277403294e-05,-0.006394179684424125,-0.016286011023846532
7585.77587890625,0.022867287946351254,-3.231482725502612e-05,-0.003686467679731145,-0.014650692959836727
6918.3095703125,0.022867341271281077,-3.543192537215458e-05,-0.002916711637139524,-0.013437664825634054
6309.5732421875,0.022867405378210352,-3.884957168815208e-05,-0.0002728164559723488,-0.007558837449146452
5754.3994140625,0.022867482446308016,-4.259670416457936e-05,-0.002020474232559282,-0.01252344051639178
5248.07470703125,0.02286757509479538,-4.6705034159464856e-05,0.0025426426834822824,-0.010722801227651865
4786.30078125,0.02286768647164129,-5.120930806683405e-05,-0.0005360810247061094,-0.011549500353494134
4365.158203125,0.022867820360070675,-5.614759245799488e-05,0.0010650503861965761,-0.009672628732713896
3981.07177734375,0.022867981306428583,-6.156158425683448e-05,0.0006792954720207835,-0.013753810196899134
3630.78051757813,0.022868174773642846,-6.749694765604233e-05,0.001888744247147845,-0.007786856308291242
3311.31127929688,0.022868407325351562,-7.400367931148096e-05,0.0039022782756927624,-0.006905944408482481
3019.95166015625,0.022868686846743543,-8.113650326716528e-05,-0.0012300242415562573,-0.005883872189569266
2754.22875976563,0.02286902280931174,-8.895529670591829e-05,0.0025648663419932383,-0.006373970324675919
2511.88647460938,0.022869426588080888,-9.752554722241232e-05,0.005006626079343289,-0.004767583458648213
2290.86767578125,0.022869911841482814,-0.00010691884183248647,0.0006475084045836146,-0.007110244345151987
2089.29614257813,0.022870494965850842,-0.00011721338650466636,0.0027464413833017433,-0.0062836766386615665
1905.46069335938,0.02287119563873495,-0.00012849455452402356,0.003109694758612752,-0.005408524514500624
1737.80078125,0.022872037467555607,-0.00014085545918267924,0.002925162416891707,-0.0026307940926990794
1584.89318847656,0.022873048763029872,-0.0001543975451060617,0.0043443209484746725,-0.0043097083472676614
1445.43981933594,0.022874263459678443,-0.00016923118808659924,0.003403989011283644,-0.005451439977226499
1318.25671386719,0.02287572220912573,-0.00018547628963817898,0.0007146761660873323,-0.00034213243009967895
1202.26440429688,0.022877473675336258,-0.00020326284688183127,0.004312826611723358,-0.0019318527262306311
1096.47814941406,0.02287957606436755,-0.00022273147097378422,0.003310521818418753,-0.002365941969589884
1000.0,0.022882098924263315,-0.0002440338175461943,0.004315062086923914,-0.0032700861956641942
912.010864257813,0.022885125253035224,-0.00026733288079577774,0.0034251717214123234,-0.0011741644656665777
831.763793945313,0.022888753953727418,-0.0002928030881951615,0.0019507616938674172,-0.0006044102921070615
758.577575683594,0.022893102673731052,-0.00032063011330567514,0.0007623171637870518,-0.003835585864903475
691.830993652344,0.0228983110603749,-0.0003510103022322349,0.0037919285562693014,-0.0005150158583760349
630.957336425781,0.02290454445357274,-0.000384149581876556,0.0036466450798029425,-0.002314234359872456
575.43994140625,0.022911998017122646,-0.00042026168752378195,-0.0010933163181043523,0.001562209053971618
524.807434082031,0.022920901279903545,-0.0004595655138439357,0.0025176558159362462,-0.0004898360059053263
478.630096435547,0.022931523012191302,-0.0005022813575799771,0.0009497807791534023,-1.3001205911077041e-05
436.515838623047,0.02294417629840533,-0.0005486257900971091,-0.0009266643702729727,-0.0008285303079078091
398.107177734375,0.0229592235799626,-0.0005988048752713664,0.0005522320087745988,-0.0005518180543093192
363.078063964844,0.022977081328275504,-0.000653005444452234,0.0005782537307766032,-0.00024554314511653405
331.131134033203,0.022998223867910395,-0.0007113841677630951,8.690435876179334e-05,-0.00019227707186599506
301.995178222656,0.023023185709864984,-0.0007740542385218114,0.002833552116901783,-0.00012156626670191135
275.422882080078,0.023052561583571975,-0.000841069628738398,0.0014887522185378747,0.00020474252545030192
251.18864440918,0.023087003196438187,-0.0009124070982881423,-0.0057132682550350145,-0.010839971398884842
229.086761474609,0.02312721164190963,-0.0009879464653098468,-0.002890577155707369,-0.0018241971867867467
208.929611206055,0.02317392435529432,-0.0010674500577474537,0.0010824592844506202,-0.0016668557278202538
190.54606628418,0.023227895654999848,-0.0011505427603646491,-0.00014584600154195215,0.0006673361574262508
173.780090332031,0.023289870233842408,-0.0012366945762452989,-0.0003801158204588921,4.274974108810117e-05
158.489318847656,0.023360549541357127,-0.0013252080725676737,-0.0005141076872319725,-0.0011018738778246738
144.543975830078,0.023440551801694583,-0.0014152133515724645,0.00014899936236258127,0.0003564893124004356
131.825668334961,0.023530367401482996,-0.0015056731703138992,-0.0028261601803280037,-0.005076477775574299
120.226440429688,0.023630312434290555,-0.0015954004204205637,0.0014365602050768547,-0.0018264553229628637
109.647819519043,0.02374048413812512,-0.0016830893278761867,0.00019998731195322236,-0.0011080965328670866
100.0,0.023860722609716976,-0.0017673604738279347,0.0009448303067269744,0.00015694637891506538
91.2010803222656,0.02399058334591621,-0.0018468181984129975,-0.0003657576435542875,-0.0014056661780554975
83.1763763427734,0.024129324742464847,-0.0019201173340023339,-0.0016631435967399515,-0.0011684741252155338
75.8577575683594,0.024275913636472128,-0.0019860347757814497,-0.0005279259874559732,-0.0008679904068587497
69.1830978393555,0.024429050429732656,-0.002043540375393329,-0.0015428278902460436,-0.00018566720661942929
63.0957336425781,0.024587213444669145,-0.0020918612290271826,-0.0007225708932090541,-0.0014412158207134827
57.5439949035645,0.024748720219129654,-0.0021305337081023324,-0.0008348543292340457,-0.0015451066660055325
52.4807472229004,0.024911801693076326,-0.0021594385323026087,-0.0011604247716720736,-0.0016232113991776088
47.8630104064941,0.025074683925086074,-0.0021788156804039577,-0.0024023830388250275,-0.0026774698266169576
43.6515846252441,0.025235671246743814,-0.002189257781793452,-0.0017386137746804864,-0.000872440653693952
39.810718536377,0.0253932247059333,-0.0021916825764951324,-0.0010213261349212993,-0.0006593462287587323
36.307804107666,0.02554603022028259,-0.002187286856205014,0.00022903930832199326,-0.0008657320901685141
33.1131134033203,0.0256930519759064,-0.0021774857753288053,-0.0006548925370568996,-0.0017877470102493054
30.1995162963867,0.025833568074365633,-0.0021638424328126573,-0.000689910254816066,-0.0005267524352827572
27.5422878265381,0.025967187081508924,-0.002147993078340768,-0.0003594469083019747,-0.002207563915379104
25.1188640594482,0.0260938457480441,-0.0021315732135618556,-0.0008346331038702991,-0.00021076394274785557
22.9086761474609,0.02621378959912139,-0.0021161493003492298,-0.0007442177663438097,-1.6190353420929803e-05
20.8929615020752,0.026327539190622962,-0.0021031598806818576,-0.0007925071269544379,-0.00035912529700155753
19.0546073913574,0.026435845546229655,-0.00209386879810032,-0.0009059598522345447,-0.0006898115412229198
17.3780078887939,0.026539638607091673,-0.0020893320441766,0.00026858222324347217,-0.0005453567253946
15.8489322662354,0.026639972496060118,-0.0020903786537041498,-0.0006163412153446825,-0.0006543694655215498
14.4543981552124,0.026737971096644386,-0.002097605136170584,0.00013191984535218526,0.000499017662421216
13.1825675964355,0.02683477697146435,-0.002111382196831614,-0.002473953764910549,-0.0002198012044534142
12.0226440429688,0.02693150608070841,-0.0021318719713468307,-0.0006090081649208906,-6.013628938093081e-05
10.9647817611694,0.02702921017160908,-0.002159053650569191,-0.0006004558587979214,-0.0009951135887541912
10.0,0.027128848136112292,-0.002192755159851037,-0.000764954014971609,-0.0014459661789461371
9.12010860443115,0.027231267080097588,-0.002232688454958881,5.7163074999286995e-05,1.5517953735419247e-05
8.31763744354248,0.02733719331505136,-0.002278485974030481,-0.0006482677411811417,0.0003565177920144191
7.58577585220337,0.0274472329590995,-0.0023297358461036415,0.00033396294457499823,-0.0004337169852420414
6.91830968856812,0.027561881321485886,-0.002386013604284033,-0.0009086963506380122,-0.0006030100393600332
6.30957365036011,0.027681539753027326,-0.0024469084034706,-0.00045636949544397565,0.0014174921509776998
5.75439929962158,0.02780653820169736,-0.002512042103926207,-0.0007136808262987425,-0.0007583324756795069
5.24807453155518,0.02793716134802116,-0.00258108005703705,-0.00014406202062354143,0.0008089171179262501
4.78630113601685,0.028073675949525454,-0.002653732995407634,0.00016277285332645317,0.0011318655620347656
4.36515855789185,0.02821635692397354,-0.0027297500625019936,-0.0003222408237099593,-0.00016019289491239373
3.98107171058655,0.028365509772858705,-0.0028089036672565623,-0.00013068113271229656,-0.0009664552957940622
3.63078045845032,0.028521487191298284,-0.0028909674747450466,-2.093270423141405e-05,0.0005919435625360535
3.3113112449646,0.02868469812132511,-0.0029756893878937264,-0.00206534184358919,-9.564650339492645e-05
3.01995182037354,0.028855608054514283,-0.0030627617963726182,-0.0004419263218685167,-8.993264074871844e-05
2.75422859191895,0.02903473003889507,-0.0031517916273583425,0.000345321364058869,0.0003699765160421575
2.51188635826111,0.02922260654471686,-0.003242272808501221,-4.187146820254159e-05,-0.0005081921530010209
2.29086756706238,0.029419783041155598,-0.0033335636349114232,0.0011042649897696974,-0.0007210743592772234
2.0892961025238,0.029626774777239753,-0.003424871231635174,-0.0002522979038296451,0.0005715978488129263
1.90546071529388,0.029844028797572062,-0.0035152448390116803,-4.397712963303754e-05,-0.00046523884427458013
1.73780083656311,0.030071883616532586,-0.003603579060397701,9.762418040208665e-05,-0.0006952425960821012
1.58489322662354,0.030310529196449144,-0.003688627541451124,4.774803109945658e-06,0.0010833729389920763
1.44543981552124,0.030559969911840373,-0.0037690268486729834,-0.0008039457401963282,-0.0006718260824672834
1.3182567358017,0.03081999303392844,-0.0038433296340478575,-0.00024692943699876,0.0007850772035346422
1.20226442813873,0.03109014495171466,-0.003910045557130588,0.00044857612706575983,-0.00021741115342498825
1.09647822380066,0.03136971688437351,-0.003967687930744643,-4.013904762378839e-05,-8.811450174134273e-05
1.0,0.03165774127011349,-0.004014823689253236,9.563616562388577e-06,0.00022734970679766375
0.912010848522186,0.03195299938092931,-0.004050124072676811,0.0002966074622701084,-0.00031171539725951105
0.831763744354248,0.03225404005512892,-0.004072413381638949,-6.789732709228113e-05,0.00015782418429565077
0.758577585220337,0.0325592088039141,-0.00408071328434199,-0.0004176346127766975,0.0002566408131733106
0.691830992698669,0.032866685974736125,-0.004074280433046045,0.00041392012252322585,-2.3768566238144447e-05
0.630957365036011,0.033174532176034895,-0.004052635549135769,-0.0003276330520935039,0.0001843564337712317
0.575439929962158,0.03348073881104922,-0.004015582632862945,-0.00021565560266038203,-0.00028392162232944527
0.524807453155518,0.03378328134871304,-0.003963217510610222,-0.0002772788181227559,7.14837585096776e-05
