freq,mu_Z_re,mu_Z_im,Z_re_res,Z_im_res
10000.0,0.0202315682572398,-2.177726537860476e-05,-0.010064416562291598,-0.036584324353048
9120.1083984375,0.02023158036176073,-2.3878244691926542e-05,-0.008070647716485368,-0.034113398818307925
8317.6376953125,0.020231594914235623,-2.6181906186827296e-05,-0.005852170637212276,-0.02981206086250473
7585.77587890625,0.020231612409639603,-2.8707799029617788e-05,-0.004818278913211595,-0.028427541967940617
6918.3095703125,0.020231633442996475,-3.147735681956601e-05,-0.003281380053998525,-0.026138872424630564
6309.5732421875,0.020231658729586946,-3.4514078852993296e-05,-0.002609770608272253,-0.02295727395450819
5754.3994140625,0.020231689129234724,-3.784372876499753e-05,-0.0022138945868001754,-0.0210735261387668
5248.07470703125,0.020231725675488955,-4.149455206410707e-05,-0.0006891023093209443,-0.019563647393155307
4786.30078125,0.02023176961069147,-4.5497514444980506e-05,-0.0003368992316242318,-0.01785398142798578
4365.158203125,0.020231822428109475,-4.988656266885018e-05,3.157362044077516e-05,-0.01650251754447175
3981.07177734375,0.020231885922557355,-5.469891017822516e-05,0.0004541465020241539,-0.014604268136979626
3630.78051757813,0.02023196225121325,-5.997534963645524e-05,0.0014142506296903508,-0.013697798402340755
3311.31127929688,0.02023205400668192,-6.576059485338768e-05,0.0007819035764794202,-0.011835340318330789
3019.95166015625,0.0202321643047617,-7.210365460138206e-05,0.0011875992678687976,-0.010818274421252981
2754.22875976563,0.020232296889873606,-7.905824114910863e-05,0.0012712714879237058,-0.009220223072966209
2511.88647460938,0.02023245626169101,-8.668321630089451e-05,0.0015198462553586076,-0.009015526990202295
2290.86767578125,0.02023264782723239,-9.504307817639528e-05,0.0019506888299827899,-0.008613357067219595
2089.29614257813,0.020232878083501927,-0.00010420849175878864,0.002308690378581127,-0.007290461581216489
1905.46069335938,0.020233154836786445,-0.00011425686647507515,0.0018415847604400445,-0.006440567203064875
1737.80078125,0.020233487465883833,-0.00012527298398683223,0.0018856131820932341,-0.005881282819736633
1584.89318847656,0.020233887237990716,-0.00013734967932285317,0.0018986267871507166,-0.005237389444561554
1445.43981933594,0.020234367687581037,-0.00015058857814976282,0.0018048629801254365,-0.004447345858976263
1318.25671386719,0.020234945070659597,-0.00016510089259374387,0.0019166551797741953,-0.003988190771599844
1202.26440429688,0.020235638909001635,-0.00018100827741277076,0.002039115719456936,-0.0038019462096953705
1096.47814941406,0.020236472641705514,-0.0001984437468526752,0.001917007421731013,-0.0031281100592640753
1000.0,0.020237474404578435,-0.00021755265169516973,0.0017427249628355346,-0.00287582970321847
912.010864257813,0.02023867796134817,-0.0002384937129530151,0.0016832230515466708,-0.002603648159987015
831.763793945313,0.02024012381499664,-0.00026144010678690526,0.001668493694719237,-0.002215284320645105
758.577575683594,0.020241860531909652,-0.00028658059005465264,0.0015492013177706536,-0.0019466661061050528
691.830993652344,0.020243946316754052,-0.00031412065109075394,0.0015484298049561508,-0.001570301461832754
630.957336425781,0.020246450881446172,-0.0003442836631669722,0.0015980071378596736,-0.0012583563974706722
575.43994140625,0.020249457657198447,-0.00037731200848986293,0.0013549845664305483,-0.001022802662768363
524.807434082031,0.02025306640406397,-0.00041346812807717,0.0012237080021693693,-0.0008180864884121701
478.630096435547,0.02025739627724135,-0.0004530354373587323,0.0013249121869131492,-0.0005585587306727323
436.515838623047,0.0202625894128229,-0.0004963190277961825,0.001076411190524297,-0.0004275387965648246
398.107177734375,0.02026881509611974,-0.0005436460492802614,0.0009859190244473383,-0.0002869021560201614
363.078063964844,0.02027627457216202,-0.0005953656384084426,0.0010432191593927193,-0.0003581133516567426
331.131134033203,0.020285206547432145,-0.0006518482208436704,0.0008810038477708448,4.497751582422955e-05
301.995178222656,0.020295893411812288,-0.0007134839739286697,0.0008902527500957887,-0.00013039554102436967
275.422882080078,0.02030866817599656,-0.0007806801884530805,0.0006912913269412589,0.00047767584257731954
251.18864440918,0.02032392206692192,-0.0008538572172669812,0.0006689328243682201,0.0002946488504262189
229.086761474609,0.02034211264843553,-0.00093344265114422,0.0006329930752000286,0.00022474532961938012
208.929611206055,0.02036377222925515,-0.001019863321784306,0.000474080384672549,0.0003898172607985941
190.54606628418,0.02038951618156831,-0.0011135347111281934,0.0003760981329481092,0.0004283003119620065
173.780090332031,0.02042005062000915,-0.0012148473603244858,0.00021313354270624876,0.0005289705744419143
158.489318847656,0.02045617868758253,-0.0013241499420442947,-4.117692254966901e-05,0.0005325660584306053
144.543975830078,0.0204988044715309,-0.0014417288043162657,-5.3180658183098195e-05,0.0005080950064026344
131.825668334961,0.020548933353829284,-0.001567784037998306,-0.00011223258395201552,0.0006339836003272942
120.226440429688,0.020607667430828546,-0.001702402482738299,-0.00015989838581235288,0.00046135485451890114
109.647819519043,0.020676194557404843,-0.0018455285611977787,-0.0003179378272530585,0.00021910415632222114
100.0,0.02075576966248612,-0.0019969344110853946,-0.0002252757773532829,0.0002727180281959056
91.2010803222656,0.02084768728592642,-0.0021561913984515435,8.668356814632225e-05,0.00022861069527775656
83.1763763427734,0.02095324486919387,-0.002322645671313929,-0.00035096950403703045,0.00033499109593927105
75.8577575683594,0.02107369718082277,-0.0024954008155335505,-0.00044079492859513264,0.00015011129595144963
69.1830978393555,0.02121020333363253,-0.002673310782987319,-4.478319094936706e-05,0.00034642210580058085
63.0957336425781,0.021363769029818337,-0.002854985955842663,-0.00033227323964996405,5.739291410803739e-05
57.5439949035645,0.02153518778095174,-0.003038814433292795,-0.00033307652165965804,0.00012724064066880515
52.4807472229004,0.021724985683199655,-0.0032229993997528587,-6.953483584645065e-06,0.00024177971832304137
47.8630104064941,0.02193337469561517,-0.003405611877286838,-0.00044130557016912667,0.00037764044575946216
43.6515846252441,0.022160219150345866,-0.0035846564791222678,-0.0005292202059812325,-0.00025757875880806766
39.810718536377,0.022405019370754998,-0.0037581462171926033,-0.00042757171587110357,8.030326654469679e-05
36.307804107666,0.02266691488847796,-0.003924181214608528,-0.000517222530388238,-0.00031688971918112773
33.1131134033203,0.02294470798868228,-0.004081025527683826,-0.00017590578001451876,-0.0002667883354107257
30.1995162963867,0.023236906431697086,-0.00422717628430694,-0.0002941933496969154,-0.0003022062348959397
27.5422878265381,0.02354178243500651,-0.00436141999264962,-0.00030075906591948975,-0.00030866876071102
25.1188640594482,0.023857443583110736,-0.004482872060011474,-0.0003044074504576638,-0.00033041296757327365
22.9086761474609,0.024181910406794866,-0.004590997121165983,-0.00013605264202083342,-0.0003636433955836833
20.8929615020752,0.024513195028281153,-0.004685609491379673,-5.46791202068464e-05,-0.00021950377321407373
19.0546073913574,0.024849375478833726,-0.004766854742273996,-3.548175850527288e-05,-0.0003148841724845957
17.3780078887939,0.02518866100747888,-0.004835174852181267,-5.666276971991874e-05,-0.00019331273170196655
15.8489322662354,0.025529444769514565,-0.00489126050074396,-7.208195279743632e-05,-0.00030198876906935984
14.4543981552124,0.02587034158518946,-0.004935994762251696,-3.1272171824837935e-05,-0.00018783474273479598
13.1825675964355,0.026210209824901923,-0.0049703927041189365,-3.954721166477687e-05,-0.00016996872435973663
12.0226440429688,0.026548157781656336,-0.0049955412302315405,1.7914325292637395e-05,-0.0001899181421995402
10.9647817611694,0.026883536015036954,-0.005012542998212695,9.081978011455522e-05,-0.00011393526734729525
10.0,0.027215918019692628,-0.005022467466391024,-1.6931950767271747e-05,-2.0852199144123958e-05
9.12010860443115,0.02754507213637139,-0.005026311198967848,4.6379670409074647e-07,-6.708973531744777e-05
8.31763744354248,0.027870927877950653,-0.0050249685690347285,2.800201647275291e-05,-6.499459674402883e-05
7.58577585220337,0.02819353980120551,-0.005019213049529586,-7.425573502691657e-06,-9.197040912378631e-05
6.91830968856812,0.028513051761022618,-0.005009688442637693,-1.638736046218406e-05,-0.00013791118382439332
6.30957365036011,0.028829663893857424,-0.0049969087287818695,6.330189732592362e-05,-4.084957093356944e-05
5.75439929962158,0.02914360405816325,-0.004981264753841454,-9.523165090050134e-06,-5.435832088505378e-05
5.24807453155518,0.029455104781897994,-0.00496303572649358,-4.7477023092806075e-05,-4.373540500408023e-05
4.78630113601685,0.02976438609532076,-0.004942403467035675,-3.390180298134052e-05,-1.6963401472974704e-05
4.36515855789185,0.03007164402046418,-0.004919467504591263,-3.277147075912007e-05,2.077686461753655e-05
3.98107171058655,0.030377043991243642,-0.004894259430132223,-9.023898943685826e-05,-3.5465207318232175e-06
3.63078045845032,0.030680718122567167,-0.004866755328419142,-0.00013496704534153234,-9.852251345154189e-05
3.3113112449646,0.030982765048377558,-0.004836885585290355,-0.00013542673028224192,-7.757018397475546e-05
3.01995182037354,0.03128325100871148,-0.004804541846481206,-0.00013701338437972083,-0.00016794262987110658
2.75422859191895,0.0315822109712561,-0.0047695813460375235,-0.00014199240670599578,-0.00014964069631952324
2.51188635826111,0.031879648799555835,-0.004731829186883019,-0.00016490346704186448,-0.0001999418269659197
2.29086756706238,0.03217553579464661,-0.004691079416373211,-2.3407403080592804e-05,-0.00017361964012071063
2.0892961025238,0.03246980730162051,-0.0046470958777464055,1.282442078971019e-05,-0.00027300948656570553
1.90546071529388,0.03276235744754388,-0.004599613831927842,3.6807213226082436e-05,-0.00013130553587324244
1.73780083656311,0.033053032424543397,-0.004548343237711334,-1.6261521484400854e-05,-0.0002795447262360336
1.58489322662354,0.03334162301874634,-0.004492974371955522,-4.8817028040958055e-05,-0.0002692127575435223
1.44543981552124,0.03362785728654215,-0.004433186187960162,-0.00010481400409394909,-2.742318771036152e-05
1.3182567358017,0.03391139437815964,-0.00436865748399503,-0.00017228121497805948,-9.294669637092967e-05
1.20226442813873,0.034191820498204614,-0.004299080613667716,-0.00017762211372818887,-7.155738737681626e-05
1.09647822380066,0.03446864787781323,-0.0042241771553967085,-4.550363576327071e-05,1.1379050697916948e-06
1.0,0.03474131742608268,-0.0041437146913287995,0.0002525947440834772,-2.790127955659954e-05
0.912010848522186,0.03500920545073599,-0.0040575236589527,8.942942830179185e-05,7.322630427120027e-05
0.831763744354248,0.035271634515830895,-0.003965513141144527,-0.0002123590740472081,-0.0001398677129937271
0.758577585220337,0.03552788816750582,-0.0038676844647098836,0.00012929685772002097,2.278939653741624e-05
0.691830992698669,0.035777228937782804,-0.003764141581230003,-0.0002640941577772976,6.383541298639718e-05
0.630957365036011,0.03601891875917611,-0.0036550973967506006,-0.0003286381000786945,2.501537493919924e-05
0.575439929962158,0.0362522407134422,-0.0035408754820371595,-0.0003202305475823036,0.00014249528884934057
0.524807453155518,0.036476520913499795,-0.003421906909045737,-0.0002041216019211048,0.00011814565763156298
