freq,mu_Z_re,mu_Z_im,Z_re_res,Z_im_res
10000.0,0.020512129871434793,-1.1509416577596174e-05,-0.010475408525877406,-0.0361272228341077
9120.1083984375,0.02051213543591452,-1.2619804337525084e-05,-0.008022651339793678,-0.03333886192341143
8317.6376953125,0.020512142125819265,-1.3837313945002131e-05,-0.007632990460540733,-0.0311371681305715
7585.77587890625,0.0205121501687524,-1.5172278297160857e-05,-0.004860207870269098,-0.02785686879397656
6918.3095703125,0.02051215983834014,-1.6636026543683207e-05,-0.00456063084397566,-0.024824301523608285
6309.5732421875,0.02051217146353479,-1.824098000907512e-05,-0.002699138222768311,-0.023534165791372276
5754.3994140625,0.02051218543979742,-2.0000757294607128e-05,-0.0022597523328341806,-0.019726911233383108
5248.07470703125,0.020512202242539062,-2.1930289439147924e-05,0.0006347796415544608,-0.02119239556508445
4786.30078125,0.02051222244327636,-2.4045946074796633e-05,-0.0002287578391495411,-0.018223111646248194
4365.158203125,0.020512246729048736,-2.6365673610263013e-05,-0.0013943619866046628,-0.01628376536674166
3981.07177734375,0.020512275925755004,-2.890914655809739e-05,0.0011105598573680035,-0.016839538663398095
3630.78051757813,0.020512311026198275,-3.1697933195310806e-05,0.0009324217734163753,-0.013970249701855812
3311.31127929688,0.020512353223788745,-3.475567688563962e-05,-8.989165998695564e-05,-0.012086341738601741
3019.95166015625,0.020512403953041998,-3.810829446956369e-05,0.001119660246338798,-0.011696915579599563
2754.22875976563,0.02051246493824143,-4.178419321815886e-05,0.0010948772705378293,-0.009604675169885559
2511.88647460938,0.02051253825190172,-4.581450796568443e-05,0.002348292840148019,-0.009671020278100585
2290.86767578125,0.020512626385005134,-5.02333601031663e-05,0.0018269818924981328,-0.008367398436835767
2089.29614257813,0.020512732331361003,-5.5078140253656376e-05,0.0022387156530277036,-0.006794059837961956
1905.46069335938,0.020512859688929585,-6.038981652443179e-05,0.001963355930379884,-0.006590387850763231
1737.80078125,0.020513012781465723,-6.621327020790279e-05,0.0022037399557478243,-0.005824741867860803
1584.89318847656,0.020513196804562754,-7.259766087185382e-05,0.0019246035749112544,-0.005213387445362853
1445.43981933594,0.020513418000868967,-7.959682272849258e-05,0.002018968444995068,-0.004230468010176992
1318.25671386719,0.020513683870307328,-8.726969405436531e-05,0.001879575043789227,-0.004387112912231865
1202.26440429688,0.02051400342208401,-9.568078119051446e-05,0.0022793816886570104,-0.0033227654234666147
1096.47814941406,0.020514387476668363,-0.00010490065839341046,0.0015454272063827636,-0.0026986403151248103
1000.0,0.020514849027405437,-0.00011500650407646602,0.0021737342828614357,-0.0029410780812230658
912.010864257813,0.020515403673136808,-0.00012608267334968397,0.0016416711361056067,-0.003141987127863984
831.763793945313,0.020516070135325453,-0.0001382213054978651,0.0020912928212585523,-0.0020092194869004653
758.577575683594,0.020516870875378915,-0.00015152296353739035,0.0014288018983806133,-0.0021317303583458904
691.830993652344,0.02051783283059349,-0.00016609730084457015,0.0020303830951903905,-0.0017449138628041702
630.957336425781,0.02051898828992482,-0.00018206374662832063,0.0021478681946718176,-0.0013169288489864206
575.43994140625,0.02052037593398974,-0.00019955219847001438,0.0022229327676145418,-0.0010020292052704144
524.807434082031,0.020522042066968126,-0.00021870370494247754,0.001428785623229227,-0.0011348470603678774
478.630096435547,0.020524042071282247,-0.00023967111447303365,0.001479385764777047,-0.0006168090851179336
436.515838623047,0.020526442118847733,-0.00026261965795020296,0.0008858287715558313,-0.00036181548748464047
398.107177734375,0.02052932117496614,-0.0002877274219110729,0.0014299217275250374,-0.0001319232960861729
363.078063964844,0.020532773331719156,-0.00031518565519576017,0.0011609881082351552,4.167599691213983e-05
331.131134033203,0.02053691050628877,-0.0003451988350335706,0.0009752677253887683,0.00019327301832692937
301.995178222656,0.020541865534687672,-0.00037798439820729997,0.0007434041868692731,-0.0005316113392353
275.422882080078,0.020547795681131728,-0.00041377201877448286,9.859876133282847e-05,0.0009751990929626171
251.18864440918,0.020554886565772562,-0.00045280228686187077,0.001007176370588763,0.00024941475977512925
229.086761474609,0.020563356485559275,-0.0004953246131965284,0.000669451337649174,-3.944326066022838e-05
208.929611206055,0.02057346106202281,-0.0005415941547813508,0.00033118725449721165,0.0004110591410447492
190.54606628418,0.02058549809241866,-0.0005918675318906901,0.0005299898513612608,0.0006359867534984099
173.780090332031,0.02059981240339731,-0.0006463970900835798,0.0003745184690521104,0.0002968046203864202
158.489318847656,0.020616800407838032,-0.0007054234625755261,-4.294619433956731e-05,0.0005337683945909739
144.543975830078,0.020636913947510643,-0.0007691662199525778,0.00021916220312114335,0.0004597761994497222
131.825668334961,0.02066066287177382,-0.0008378124682497319,0.0002793016256648212,0.0006662398457261681
120.226440429688,0.020688615666617383,-0.0009115033858483382,0.0003591495770110843,0.00023942505186146166
109.647819519043,0.020721397333156765,-0.0009903188900924683,0.0005171103108045638,-0.00021098618059376827
100.0,0.020759683646765597,-0.0010742608974637108,2.614835700119611e-05,0.0005577801675585891
91.2010803222656,0.020804190949210235,-0.0011632359823127464,-0.0013387986117514641,-0.0014441332608842465
83.1763763427734,0.020855660774552694,-0.0012570386205338012,-0.00028107386008510704,0.00033354508574079877
75.8577575683594,0.020914838919982505,-0.0013553365772915535,-0.00024053892995399423,0.00036060070280454653
69.1830978393555,0.020982449061942368,-0.0014576602928001265,-0.00048432394139743054,0.0005624850079755735
63.0957336425781,0.021059161663670684,-0.0015633982502356771,-0.00044110542474251613,0.0007144253804846231
57.5439949035645,0.021145559665628273,-0.0016718001965762054,-0.0007950423239986258,0.0003097583144573946
52.4807472229004,0.021242103191162525,-0.0017819896739712051,-0.0017068696896777764,3.884200204249495e-05
47.8630104064941,0.021349096105988025,-0.00189298660009395,-0.0003817049846100741,-0.00130325236571255
43.6515846252441,0.021466657606183905,-0.002003739666291802,0.00023436368745510458,0.0004872767402740977
39.810718536377,0.02159470197658447,-0.0021131672180049257,-0.0008359451879987288,-0.0002800269500144257
36.307804107666,0.02173292920778832,-0.0022202042021960255,0.00017344863008101827,0.00010073011767257464
33.1131134033203,0.021880828315144783,-0.0023238518808058614,-0.0004415265231073155,0.0004925816718467386
30.1995162963867,0.022037694065224284,-0.002423226463649465,-0.00015025043641411426,-7.236479133746485e-05
27.5422878265381,0.022202656533908346,-0.0025176026998680566,-0.00023993204872655577,-0.0002493246598762565
25.1188640594482,0.022374721671121443,-0.0026064488049168076,0.00013090899087704264,-4.212217773690756e-05
22.9086761474609,0.022552819991018807,-0.002689449840667108,-7.581703970189341e-05,7.667878877889219e-05
20.8929615020752,0.022735859768246658,-0.002766517707176604,-0.0004894197566757408,-0.000444643449999504
19.0546073913574,0.022922780775105032,-0.0028377871048030183,-0.0003054584929594664,-0.00018685725707091828
17.3780078887939,0.02311260465427862,-0.002903598041361333,-0.0005261411155797792,-0.0005198341394720331
15.8489322662354,0.023304478451677754,-0.002964466555264519,0.00032769814140455253,0.00011641464546628113
14.4543981552124,0.023497708557890965,-0.0030210461994784215,-0.00014867778236953358,-8.280077634032152e-05
13.1825675964355,0.02369178322449296,-0.0030740834162102846,-0.0001952568690481403,-0.0002665779874192844
12.0226440429688,0.0238863828281585,-0.003124370197774911,0.00010302873949440128,9.796330238678874e-05
10.9647817611694,0.024081378045835072,-0.0031726973870823665,9.518562571007166e-05,-9.029533658726652e-05
10.0,0.024276816993298207,-0.003219811655198011,-6.133914647394462e-06,-0.00018203881530911084
9.12010860443115,0.024472903099698486,-0.0032663786627610608,-3.4867520861542323e-07,7.482372855043906e-05
8.31763744354248,0.024669966000746897,-0.0033129542348536824,-0.00016867901043970263,-9.639586597718231e-05
7.58577585220337,0.024868428014487135,-0.0033599646285843313,2.3487262696134797e-05,4.5658509366568525e-05
6.91830968856812,0.025068768820117278,-0.003407696216265443,-0.00013941753809612253,4.4217146103457065e-05
6.30957365036011,0.02527149081299273,-0.0034562942084344133,-0.0002641466998103692,8.644056725778688e-05
5.75439929962158,0.025477087293636933,-0.003505769443497453,0.00038388388313073327,-0.00029238292647945294
5.24807453155518,0.025686015208327615,-0.0035560118128071198,5.25906878350163e-05,0.0002189673389781802
4.78630113601685,0.025898673641940623,-0.0036068085858695313,-0.00012318317268227713,9.898843261366879e-05
4.36515855789185,0.026115388717448576,-0.003657865757385848,-6.245158990632327e-05,0.00012485291782515177
3.98107171058655,0.026336405024391076,-0.0037088305464514975,-0.00010900239600572514,-1.3950258357297348e-05
3.63078045845032,0.026561883218061237,-0.003759313320641838,0.00012049724854163585,-0.0002515648416183381
3.3113112449646,0.02679190303050775,-0.0038089074676946767,-0.00045314354038934745,6.890203635232352e-05
3.01995182037354,0.02702647063330371,-0.0038572060654172534,-7.229043090792309e-06,-2.311493849855347e-05
2.75422859191895,0.02726552909995432,-0.00390381457262064,-0.00011820444081907938,4.045527450416029e-05
2.51188635826111,0.02750897063376464,-0.003948359151095182,-0.00024445885358296074,0.0001454717882871182
2.29086756706238,0.027756649247902783,-0.003990490600685974,-5.4656349521717273e-05,8.657327272422553e-05
2.0892961025238,0.02800839269511263,-0.004029884223430222,0.0002686909025148322,-0.0002736043991286223
1.90546071529388,0.028264012627371077,-0.0040662362105366254,-6.515093080323303e-06,-0.0001347566819903251
1.73780083656311,0.02852331220037349,-0.004099257354577977,0.00044156729108699166,-0.0003198174004908766
1.58489322662354,0.028786090603078077,-0.004128665024331307,-0.0002873079572075221,-3.0509954235107342e-05
1.44543981552124,0.029052144267982086,-0.004154174398074749,-7.919932025091461e-05,3.531501125275151e-05
1.3182567358017,0.029321264785298333,-0.0041754899416743835,-0.0003048122557315659,0.00014174153463251613
1.20226442813873,0.029593233787589185,-0.004192298042384587,-0.00029375327271931664,0.00015205587560151307
1.09647822380066,0.02986781527946972,-0.00420426158681028,-0.0004047318761489782,-5.1738233114479934e-05
1.0,0.030144746050400562,-0.004211017106039992,7.895809428196121e-05,-4.0359039171292306e-05
0.912010848522186,0.030423724923546086,-0.004212174923483139,-0.00021640407640241555,0.00019985028975836108
0.831763744354248,0.030704401658174688,-0.004207322538288268,0.00039339088022438684,0.00011969667261653265
0.758577585220337,0.030986366338907004,-0.004196031274211093,0.0001504286302907061,0.00020254331274650698
0.691830992698669,0.03126914005638806,-0.004177866030858723,0.00044260870577546296,0.000304762746764377
0.630957365036011,0.031552167615687174,-0.004152397797381403,-0.0002188514854557233,0.00022419711115399723
0.575439929962158,0.03183481290804747,-0.004119218436468409,-6.761953366393042e-05,-0.00023085681482040927
0.524807453155518,0.03211635745513339,-0.004077957121533096,0.00018073267686268685,-0.00029088521177769635
