freq,mu_Z_re,mu_Z_im,Z_re_res,Z_im_res
10000.0,0.024611161997822144,-3.0769723330247023e-06,-0.009607234993669153,-0.031421217949954124
9120.1083984375,0.024611162694673398,-3.373831322296966e-06,-0.0075325903272820995,-0.026707910582234998
8317.6376953125,0.0246111635324358,-3.699330178724622e-06,-0.0047416467013956,-0.026873218012539325
7585.77587890625,0.024611164539601785,-4.056231851745779e-06,-0.005363549381945117,-0.022609806941623845
6918.3095703125,0.024611165750422544,-4.447565801069049e-06,-0.0014771930839633553,-0.021871553303129572
6309.5732421875,0.024611167206070855,-4.8766536922345515e-06,-0.0005521815581102443,-0.019833663727185234
5754.3994140625,0.024611168956038623,-5.34713756670873e-06,-0.002924901018264578,-0.018900367846008407
5248.07470703125,0.024611171059815896,-5.863010722575391e-06,-0.0028425755868268024,-0.016404533162552273
4786.30078125,0.024611173588908634,-6.428651567484423e-06,-0.0020584795436492664,-0.014796935685034785
4365.158203125,0.02461117662926278,-7.0488607262422595e-06,0.0012742836817081805,-0.014320444927153442
3981.07177734375,0.024611180284177425,-7.728901714672105e-06,-0.0003397878174432739,-0.012372645405144073
3630.78051757813,0.024611184677804248,-8.474545521960955e-06,-0.0004965156998984512,-0.009961252542181161
3311.31127929688,0.024611189959353484,-9.292119472008545e-06,0.0011723730692329848,-0.009131142252414208
3019.95166015625,0.02461119630814631,-1.0188560767217481e-05,0.0012477066505058101,-0.009913031834943317
2754.22875976563,0.024611203939688697,-1.1171475161763301e-05,0.0007410673508767979,-0.009114989340414163
2511.88647460938,0.02461121311296708,-1.2249201243537084e-05,0.00021194187809708137,-0.006974786501085137
2290.86767578125,0.024611224139223554,-1.3430880856576134e-05,0.0012590146606068532,-0.008706554117155077
2089.29614257813,0.02461123739249257,-1.472653622627183e-05,0.0015562613762095702,-0.008379424454522071
1905.46069335938,0.02461125332228359,-1.6147154414083685e-05,0.0013864748489063883,-0.0052164116641812835
1737.80078125,0.02461127246879858,-1.770477977113001e-05,0.0014372715648345788,-0.00534750042718363
1584.89318847656,0.024611295481264426,-1.94126151114241e-05,0.001218389068782126,-0.004351510793676925
1445.43981933594,0.024611323139904086,-2.1285132376754453e-05,0.0007105348625164841,-0.0033276367344541543
1318.25671386719,0.024611356382412037,-2.33381936200802e-05,0.001210259919208638,-0.00337007101121028
1202.26440429688,0.02461139633570508,-2.55891831885165e-05,0.001597309105737979,-0.0037025855167130165
1096.47814941406,0.02461144435406589,-2.805715205271451e-05,0.0018811106234874891,-0.0028618459008832144
1000.0,0.024611502064975293,-3.0762975245010645e-05,0.0016950323419890924,-0.0026933199196599107
912.010864257813,0.024611571424080346,-3.372952341640599e-05,0.0018868945468201448,-0.002895412081848606
831.763793945313,0.02461165478122535,-3.698184953984593e-05,0.0012812308002740497,-0.002050623724777046
758.577575683594,0.02461175495960079,-4.0547391781736424e-05,0.0014462570307429909,-0.0021212018843834364
691.830993652344,0.02461187535068335,-4.445619351958845e-05,0.0012760273470574478,-0.0012076523614281884
630.957336425781,0.024612020028011862,-4.8741141412034656e-05,0.0017774079713988623,-0.0017492363947290345
575.43994140625,0.024612193883461253,-5.343822226356511e-05,0.0007848087261145519,-0.001344819301035765
524.807434082031,0.024612402790338463,-5.858679918030009e-05,0.0010942409421510618,-0.0013435315076393
478.630096435547,0.024612653798408494,-6.422990719613853e-05,0.0015688760047625934,-0.0008733679076732385
436.515838623047,0.02461295536684378,-7.041456799987551e-05,0.00122909954714168,-0.0006508636909353755
398.107177734375,0.024613317642113955,-7.719212275753873e-05,0.0014875611101601537,-0.0005523989134822387
363.078063964844,0.02461375278894993,-8.461858094213497e-05,0.0011522619194278272,4.4148872191865035e-05
331.131134033203,0.02461427538376903,-9.275498186167458e-05,0.0008224481223211288,9.427052546822541e-05
301.995178222656,0.024614902881274853,-0.00010166776384124278,0.0013851101671558536,-0.0003415876494849428
275.422882080078,0.024615656166290394,-0.00011142913368934899,0.0009041368504515944,0.001069404071891351
251.18864440918,0.02461656020417017,-0.00012211742607165673,0.000896672023675868,5.2008550555943263e-05
229.086761474609,0.024617644804250646,-0.00013381743868734323,-0.00020920966314135273,-0.00038149621635594325
208.929611206055,0.02461894551149297,-0.00014662072432332512,0.00101361373296667,0.0003695968850783749
190.54606628418,0.024620504641448555,-0.00016062581487343892,0.0005722526102414568,0.0003381162249075611
173.780090332031,0.024622372472551186,-0.0001759383451991671,0.0005827649774816854,-0.0001288087335689415
158.489318847656,0.024624608606881468,-0.0001926710360907737,0.00034218855280336927,0.0001622649901787263
144.543975830078,0.024627283505270773,-0.00021094348573365778,0.0004992338932254745,0.00028994135266854226
131.825668334961,0.024630480193899074,-0.000230881708237236,0.00022941523175037254,0.0006322260861928641
120.226440429688,0.024634296126345767,-0.00025261734653442335,0.00016765487907326876,0.00039051880786007665
109.647819519043,0.02463884516629148,-0.0002762864769614956,1.91075262682798e-05,0.0005470437153995044
100.0,0.024644259630435688,-0.00030202791523384527,0.00019224573552008642,0.0002932271993698547
91.2010803222656,0.024650692298042377,-0.00032998093165263417,-0.0007155544022445226,0.0009708004515264658
83.1763763427734,0.02465831825317933,-0.0003602822909224007,-3.543904242916951e-05,0.00043583721694539926
75.8577575683594,0.024667336379782114,-0.0003930625535854446,3.694254686011436e-05,0.00043148895191685545
69.1830978393555,0.024677970281610635,-0.00042844161617148016,-0.0005282547112606638,0.00040881248896421985
63.0957336425781,0.024690468356327197,-0.0004665235309170723,3.28575524846976e-05,0.00044793494555552774
57.5439949035645,0.024705102725114565,-0.0005073907351610977,8.77865237853652e-05,0.00010977642056290223
52.4807472229004,0.02472216671931157,-0.0005510979334536182,-0.00019720346999753044,4.7376297629281804e-05
47.8630104064941,0.02474197066810992,-0.0005976660041643803,-0.0003294882229241784,-0.0008016676448324802
43.6515846252441,0.02476483582757342,-0.0006470764302069526,0.00012406147323481762,0.0008627546239291474
39.810718536377,0.024791086448512047,-0.0006992668574756292,-0.0002983004020834512,-5.918718735562921e-05
36.307804107666,0.024821040192279115,-0.0007541284349599553,-8.024930056638527e-05,0.00026999088815954483
33.1131134033203,0.024854997350430487,-0.0008115055593390445,-0.00028494914009571243,0.0002134985202263555
30.1995162963867,0.024893229571008497,-0.0008711985141711836,-0.00017809893486520414,0.00023808641669121645
27.5422878265381,0.024935968995512117,-0.0009329692563626395,-0.00015855689305008247,6.38786134656605e-05
25.1188640594482,0.024983398818593974,-0.0009965502799914705,0.0004920421328363754,0.00041299153552782947
22.9086761474609,0.025035646260925075,-0.0010616561208530266,-0.00017386443798942525,-0.00018229104314512658
20.8929615020752,0.025092778778031552,-0.0011279967127572881,-8.635404114414741e-05,-0.00019964849140688813
19.0546073913574,0.02515480402507112,-0.001195291530296053,-0.0001371510734386773,5.18672094197471e-05
17.3780078887939,0.025221673699659167,-0.0012632833062000116,6.652616207006648e-05,-0.0005042467931546115
15.8489322662354,0.025293290950194742,-0.001331750126007412,-0.00018089044855465822,0.00024972175302778797
14.4543981552124,0.025369520635048045,-0.0014005148815785333,-0.0001423085474575557,-8.479205750423335e-05
13.1825675964355,0.025450201410473404,-0.0014694513830936212,-0.00012059352952139765,6.5540351324789355e-06
12.0226440429688,0.02553515845883379,-0.0015384868374701364,-0.00023227034162991156,-0.0002045169594373363
10.9647817611694,0.025624215665770594,-0.0016076008387938328,-0.0002477615442743053,0.00032012315289076717
10.0,0.02571720621214896,-0.0016768214182334834,-0.0004420746989390392,0.00015929081650791648
9.12010860443115,0.025813980835878974,-0.0017462190129801083,-6.356754580722629e-05,-0.00015922776712180842
8.31763744354248,0.02591441339635563,-0.001815899394023181,5.067280316062989e-05,2.9917804022318957e-05
7.58577585220337,0.026018403784738513,-0.0018859966242913188,-0.00018477594722658697,-2.2804323047818714e-05
6.91830968856812,0.026125878612156875,-0.0019566669988161957,0.00012639030313107633,-0.00022762601009529578
6.30957365036011,0.02623679042402367,-0.002028084672064342,0.00021268353406047116,-0.00014899562579474205
5.75439929962158,0.026351116394119297,-0.002100439334717118,0.0002860946408080982,-0.0001218738616077181
5.24807453155518,0.0264688575230349,-0.0021739359121185175,0.00013010702652819714,0.0003467172742473825
4.78630113601685,0.02659003929521976,-0.0022487958641227573,0.0001656331988805597,5.582419273542603e-06
4.36515855789185,0.026714714546420253,-0.0023252593215715676,0.0001280795081636532,0.00018963968826713222
3.98107171058655,0.026842968982470107,-0.0024035870354576884,-3.087103663679258e-05,-3.3133454575883306e-06
3.63078045845032,0.026974929405575658,-0.0024840609738331428,-4.6491713995042844e-05,0.0002500592628765573
3.3113112449646,0.027110774287104962,-0.0025669823929659564,0.00016977845978776232,4.1445384920343626e-05
3.01995182037354,0.02725074592045789,-0.0026526663396589656,-0.00013288517483231108,6.15699272520343e-05
2.75422859191895,0.027395163036004377,-0.002741431796914887,1.9012323633476463e-05,0.00021092781984151333
2.51188635826111,0.027544432498935862,-0.002833587046065522,6.722583663866175e-05,-0.0004578730308499217
2.29086756706238,0.027699058567434886,-0.002929410250239124,7.439187660848723e-05,0.0005043546619488757
2.0892961025238,0.02785964817928546,-0.00302912572953805,-0.00016367672754053972,-1.8024105541050023e-05
1.90546071529388,0.028026910863995416,-0.0031328768570463563,0.00015321224200711553,0.00014142001899664384
1.73780083656311,0.02820165213653074,-0.0032406969149363046,-0.00028546582451836194,-0.00027505919940300477
1.58489322662354,0.02838475959909406,-0.0033524795792156297,7.934267235246151e-05,1.3872712562070389e-05
1.44543981552124,0.028577181430653093,-0.003467950917858692,-0.0004445957819667057,0.00021180282897860806
1.3182567358017,0.028779897446727223,-0.003586644878832353,-0.00025813507010987585,-0.0011957691649326532
1.20226442813873,0.0289938834260194,-0.003707884193399262,0.0005258445392338981,8.598124887673796e-05
1.09647822380066,0.029220069890135578,-0.0038307684426298304,9.171771001227624e-05,-0.0006041792639634304
1.0,0.029459296952204745,-0.00395417072856506,-0.0003635853126477545,0.00014489843463814066
0.912010848522186,0.029712267192624733,-0.004076743991029857,-7.135051248196786e-05,0.0008221757328980431
0.831763744354248,0.029979498753014675,-0.004196937532694119,0.00029290437108627637,4.105236235158079e-05
0.758577585220337,0.030261280950212417,-0.0043130237946365155,-0.0006804401017189814,-1.8876545325315422e-05
0.691830992698669,0.03055763469677002,-0.004423134894624663,0.00010855534713302001,0.0004904992603209368
0.630957365036011,0.03086827987561763,-0.00452530792634626,0.00037400344143452904,-2.487179543516054e-05
0.575439929962158,0.031192611565855705,-0.0046175375518599255,0.00044505078163500564,0.0002829086097677746
0.524807453155518,0.03152968666928792,-0.004697834021008181,-0.00011038847786398048,-0.0003869034075798814
