freq,mu_Z_re,mu_Z_im,Z_re_res,Z_im_res
10000.0,0.020459781408075597,-4.795273744892202e-06,-0.007825051427121803,-0.026594200065338493
9120.1083984375,0.020459783148960308,-5.257908120955505e-06,-0.0068625613329846916,-0.023389631543174555
8317.6376953125,0.0204597852419307,-5.765175046387043e-06,-0.005473795231134702,-0.021522559513868788
7585.77587890625,0.02045978775819031,-6.321380087286858e-06,-0.004205370483796891,-0.019959650496193287
6918.3095703125,0.020459790783340075,-6.9312440425382e-06,-0.0031662517466005263,-0.01874580827226944
6309.5732421875,0.020459794420288276,-7.599942955939695e-06,-0.002318003233982825,-0.01679908146766184
5754.3994140625,0.020459798792748448,-8.333151971251926e-06,-0.0017304945044231516,-0.015415705418025453
5248.07470703125,0.02045980404944359,-9.137093397038937e-06,-0.0013798015949017112,-0.01406429044839944
4786.30078125,0.020459810369159545,-1.001858938459997e-05,-0.0006730071227294548,-0.012646570222861801
4365.158203125,0.02045981796681846,-1.0985119656430335e-05,0.0002916308701034591,-0.011649773626045131
3981.07177734375,0.02045982710077855,-1.204488474842172e-05,-0.001956691900347751,-0.01072618094880102
3630.78051757813,0.02045983808160686,-1.320687530290694e-05,0.00023602681280036203,-0.009740161499359707
3311.31127929688,0.020459851282623134,-1.4480947955239655e-05,0.0004273243574169326,-0.00921651981721694
3019.95166015625,0.020459867152570546,-1.5877908453854796e-05,0.0010334058433759466,-0.008186011365041554
2754.22875976563,0.020459886230844514,-1.740960264526601e-05,0.00043357681514641366,-0.007173692731651866
2511.88647460938,0.02045990916579112,-1.9089016068388454e-05,0.0009611697742258202,-0.006553134112555189
2290.86767578125,0.020459936736701264,-2.093038292144844e-05,0.001565446882127064,-0.006072094969018449
2089.29614257813,0.02045996988023239,-2.2949305238508185e-05,0.00104586349631269,-0.005356827405156809
1905.46069335938,0.020460009722167705,-2.516288314407643e-05,0.000957960410172206,-0.005024076849263277
1737.80078125,0.020460057615552592,-2.7589857133999413e-05,0.0013567298494917904,-0.0045269298213747
1584.89318847656,0.020460115186535843,-3.0250763347754907e-05,0.0012817861508960422,-0.004091431395909155
1445.43981933594,0.020460184389382245,-3.3168102908844984e-05,0.0013606787711676442,-0.003679417752955045
1318.25671386719,0.020460267572582735,-3.636652634462915e-05,0.0014756182422051359,-0.0030599306433739294
1202.26440429688,0.02046036755817114,-3.987303415921153e-05,0.001446279121209943,-0.0029382846266278115
1096.47814941406,0.02046048773690685,-4.371719459340497e-05,0.001434642283763752,-0.002744841138145705
1000.0,0.02046063218246735,-4.7931379559072424e-05,0.0012195897472981505,-0.0023250276473486724
912.010864257813,0.020460805788315578,-5.2551019590758356e-05,0.001116198420203978,-0.0020784032322730584
831.763793945313,0.02046101443174678,-5.761487850686017e-05,0.0012611141026337806,-0.0019504729469655602
758.577575683594,0.020461265170272504,-6.316534814189033e-05,0.0013466628131234039,-0.0014721241557294903
691.830993652344,0.020461566476596946,-6.924876302955458e-05,0.0011039727465049463,-0.0014170274772914546
630.957336425781,0.020461928519465024,-7.591573441191015e-05,0.0011939727245345241,-0.00106599603233641
575.43994140625,0.02046236349893254,-8.322150191175423e-05,0.0011112983400885373,-0.0012077815199817543
524.807434082031,0.020462886046046853,-9.122630026012465e-05,0.001131328369850755,-0.0008854571441542247
478.630096435547,0.020463513698457118,-9.999573654835625e-05,0.0013316818736776176,-0.0007365981392130562
436.515838623047,0.02046426746519019,-0.00010960117155770687,0.0012431739595691882,-0.0006554736051344069
398.107177734375,0.020465172495610296,-0.00012012009592222091,0.001204637478954395,-0.00036917071174322094
363.078063964844,0.02046625886931469,-0.00013163648812775504,0.0010513888008837902,-0.00011525907878973524
331.131134033203,0.020467562525279683,-0.00014424113656001796,0.0008025112736297808,-0.00015507791417927876
301.995178222656,0.02046912634977477,-0.0001580319019329928,0.0008400520891822701,-0.0002695118325707928
275.422882080078,0.020471001442992767,-0.00017311388892150357,0.0008864518520475678,7.987162298489641e-05
251.18864440918,0.020473248583463333,-0.00018959948634383991,0.0007671893362080316,0.0001120247253716601
229.086761474609,0.02047593990657391,-0.0002076082241995009,0.00068684021327561,0.00018563734872319913
208.929611206055,0.020479160807787118,-0.00022726638246157226,0.0006737890464651175,0.0002609784877503278
190.54606628418,0.0204830120713798,-0.0002487062716383191,0.0006340804905979013,0.0001546172883834809
173.780090332031,0.020487612210044626,-0.0002720650887285121,0.0004741811229083265,-3.5103636554512097e-05
158.489318847656,0.02049309997773013,-0.00029748323569253024,0.0005941340229495308,0.0003651258842069698
144.543975830078,0.020499636986125138,-0.00032510197365544767,0.0005520727567559364,0.0002925569203879523
131.825668334961,0.020507410311918477,-0.0003550602768458911,0.0004442093463947784,0.0001960474119610089
120.226440429688,0.02051663492652764,-0.00038749075100941567,0.00028559845718734156,0.0005457845742143844
109.647819519043,0.020527555713085344,-0.00042251449851263246,0.0002695406914035442,0.0005823419305500676
100.0,0.0205404487602275,-0.0004602348541996607,0.00010384890957289977,0.0005195777287550392
91.2010803222656,0.02055562154429793,-0.0005007299895220163,0.0003829566486442289,0.0015531266273176839
83.1763763427734,0.020573411543973057,-0.000544044496398073,9.333383024505773e-05,0.000373695495166227
75.8577575683594,0.02059418279137376,-0.000590180220303275,-1.8054673456384396e-06,0.00041918846663352503
69.1830978393555,0.020618319872615837,-0.0006390868096044246,-0.00010278226077746477,0.0004626658171051753
63.0957336425781,0.020646218976165868,-0.0006906526737126633,-0.00018386838755403076,0.0003452471814837368
57.5439949035645,0.020678275766431085,-0.0007446972643647696,-0.000279989523233215,0.0001998917674954305
52.4807472229004,0.02071487014955213,-0.0008009657748791518,-0.0003128978812105693,-5.407382462205182e-05
47.8630104064941,0.02075634838497329,-0.0008591274360195632,-0.0005466571315558104,0.0001717942671849368
43.6515846252441,0.020803003449967352,-0.0009187785255843374,-9.554543621254769e-05,0.0003805559315597626
39.810718536377,0.020855055022269038,-0.0009794509623247429,-0.00013560166654036018,0.00010640724766515703
36.307804107666,0.02091263082842507,-0.0010406269148835398,3.695336203256988e-05,4.1881444220760126e-05
33.1131134033203,0.02097575132464669,-0.0011017592517063666,-0.00015959936464531033,8.705199196833418e-06
30.1995162963867,0.021044319663647833,-0.0011622969583444764,-0.00013754127502046617,7.994789063702368e-05
27.5422878265381,0.021118118618631082,-0.0012217139535441596,-0.00021659284362821746,8.292380358574042e-05
25.1188640594482,0.02119681559128625,-0.0012795391576679656,-0.00015683710949555146,0.00010647046469723447
22.9086761474609,0.02127997608754759,-0.0013353853050671182,-0.0001559757265078114,-5.831293021918123e-06
20.8929615020752,0.021367085194152355,-0.0013889739150006867,-4.314162774704533e-05,-5.992910357318672e-05
19.0546073913574,0.02145757575134616,-0.0014401540632984708,-0.0001154574324669401,-2.978220653457081e-05
17.3780078887939,0.0215508612013777,-0.0014889131041226928,7.538033196529889e-05,8.80004633380723e-06
15.8489322662354,0.021646370591652926,-0.001535378210497223,-5.6071726548173606e-05,-3.788112687802287e-05
14.4543981552124,0.02174358297948374,-0.0015798084417004373,-4.516127641665882e-05,-6.857116485037415e-06
13.1825675964355,0.021842058541883952,-0.0016225779013384325,-9.318648029374779e-05,-7.770630099373263e-05
12.0226440429688,0.021941464014356322,-0.0016641513284593764,-5.3363300854977064e-05,-4.892855215077644e-05
10.9647817611694,0.022041590621788107,-0.0017050540842007459,2.524602981290522e-05,-3.114180396164589e-05
10.0,0.022142363348253733,-0.001745838910019008,7.41105612597319e-05,-4.594598957710812e-05
9.12010860443115,0.022243841148648417,-0.001787052010246252,6.1118674613176716e-06,-6.150802137775183e-05
8.31763744354248,0.022346208453114344,-0.00182920095692345,4.7810956771643376e-05,-6.817567343784994e-05
7.58577585220337,0.02244975899115154,-0.001872726649466593,2.533306136674046e-05,-3.0289453874993112e-05
6.91830968856812,0.02255487351093402,-0.0019179811260164612,3.782941374892018e-05,-7.5471379296610745e-06
6.30957365036011,0.022661993355666765,-0.00196521246869202,2.2150651728263665e-05,-2.36747513348201e-05
5.75439929962158,0.02277159206289889,-0.002014557425390396,-4.848018567920817e-05,-7.338560138969588e-05
5.24807453155518,0.02288414717353353,-0.0020660417419480926,7.51669768191271e-05,3.250382412707184e-06
4.78630113601685,0.023000114286401353,-0.002119587609968463,-5.427127621047967e-06,1.095783295543707e-05
4.36515855789185,0.023119905097001636,-0.0021750271301100264,1.2527284735237149e-05,1.197997673057366e-05
3.98107171058655,0.023243870748024375,-0.002232120299370634,1.4599574547174282e-05,5.8677818967266e-05
3.63078045845032,0.023372291333264718,-0.0022905757763998645,-2.503699880178345e-05,1.5038287116335685e-05
3.3113112449646,0.02350537187630066,-0.002350072567660198,2.7357481659759375e-05,0.0001808600916230023
3.01995182037354,0.02364324459030252,-0.002410280811774342,3.8397099515020267e-05,4.262145125605776e-05
2.75422859191895,0.02378597675220463,-0.002470880003745844,-5.18336300423701e-05,4.499829178005593e-05
2.51188635826111,0.02393358312372191,-0.00253157327972569,-3.613233741299113e-05,2.6823849452309746e-05
2.29086756706238,0.024086041547220625,-0.002592096747180529,-9.371509416727583e-05,0.0001221215917708708
2.0892961025238,0.024243310151761083,-0.0026522232670547147,-0.00010815629535381593,-8.301720807571454e-05
1.90546071529388,0.024405344531140252,-0.0027117605417188552,-0.00011368174830924879,7.095550823544693e-06
1.73780083656311,0.024572113300282562,-0.002770543803252661,6.0993949491564003e-05,7.1816548924390905e-06
1.58489322662354,0.024743610590651242,-0.0028284238033613506,-5.295726661425776e-05,-4.267849369555057e-05
1.44543981552124,0.024919864294088056,-0.00288525115135611,-5.121770346044191e-06,6.128722843490135e-06
1.3182567358017,0.025100939188177702,-0.002940858314980376,6.467316324802741e-06,-2.769666840567609e-05
1.20226442813873,0.02528693445046953,-0.002995040769412728,-8.689321557467031e-05,0.000157154594824072
1.09647822380066,0.025477975469399693,-0.003047538854798462,-0.00010368055446030588,4.242926029283814e-05
1.0,0.025674200259755302,-0.003098021870540881,-2.5387279083098624e-05,-1.8126241924681062e-05
0.912010848522186,0.02587574116692195,-0.00314607581062134,3.0055193158448623e-05,-1.410295193914014e-05
0.831763744354248,0.026082702874535957,-0.003191195931178693,5.8765485281355584e-05,7.590857345120706e-05
0.758577585220337,0.026295137996961735,-0.003232785058103147,1.8087621023333417e-05,5.077056131545278e-05
0.691830992698669,0.02651302172804367,-0.0032701582073985155,2.9579093699570735e-05,2.4345341715284376e-05
0.630957365036011,0.02673622712160694,-0.0033025537206144064,6.5894123569641e-05,-2.662283911420652e-05
0.575439929962158,0.02696450259414423,-0.0033291507366469,0.00018564257648693086,7.391782162499954e-06
0.524807453155518,0.02719745316656068,-0.0033490924468594927,0.0001511992618603783,3.068136737160738e-05
