freq,mu_Z_re,mu_Z_im,Z_re_res,Z_im_res
10000.0,0.025156351623287273,-4.534668568594014e-06,-0.02268131554389943,-0.0386540750631132
9120.1083984375,0.025156352361987128,-4.9721601467994175e-06,-0.01588931337897967,-0.0359190430644017
8317.6376953125,0.025156353249852437,-5.45185855088555e-06,-0.013857911691363065,-0.030428161740810287
7585.77587890625,0.02515635431694841,-5.977835342494758e-06,-0.009256048342706193,-0.028036453436896393
6918.3095703125,0.025156355599376186,-6.55455476093674e-06,-0.007264309426334915,-0.02618709383493714
6309.5732421875,0.02515635714047588,-7.186911574001539e-06,-0.004752903430527117,-0.023943352408281004
5754.3994140625,0.025156358992266946,-7.880272565037552e-06,-0.003938575471234055,-0.01982575410812874
5248.07470703125,0.025156361217171436,-8.6405220183253e-06,-0.0032906688949758643,-0.019700284758463724
4786.30078125,0.025156363890075514,-9.47411156734416e-06,-0.005954509555792985,-0.017708834959040444
4365.158203125,0.025156367100795093,-1.0388114869935659e-05,-0.0025601317211787072,-0.015365083844781234
3981.07177734375,0.025156370957024873,-1.1390287516409662e-05,-0.0027371890501896277,-0.01394556018346341
3630.78051757813,0.025156375587866476,-1.2489132734665598e-05,-0.00016980188997012258,-0.013330687865766466
3311.31127929688,0.02515638114805166,-1.369397340108931e-05,-0.00116245394651944,-0.01174658051876119
3019.95166015625,0.025156387823001128,-1.5015030999006516e-05,-0.0008854719378793736,-0.009170227001209008
2754.22875976563,0.025156395834892046,-1.6463512199913466e-05,-0.00022402932027075495,-0.008589820528048015
2511.88647460938,0.02515640544994207,-1.805170377727809e-05,-0.00105727215008403,-0.008099494380261777
2290.86767578125,0.02515641698716861,-1.9793076694615883e-05,-0.00040547823430318874,-0.008599384365857216
2089.29614257813,0.025156430828929342,-2.1702400213311625e-05,0.00030991055405184265,-0.0064903267424462115
1905.46069335938,0.025156447433626883,-2.379586699117371e-05,0.0008777787468792833,-0.006065669113422474
1737.80078125,0.02515646735101649,-2.6091230200891035e-05,0.0007402255561918883,-0.005843637273745891
1584.89318847656,0.025156491240676742,-2.8607953836907826e-05,0.0007552791295612413,-0.005591908522447308
1445.43981933594,0.02515651989425401,-3.136737731388488e-05,0.0008239686086295092,-0.003870937242108485
1318.25671386719,0.02515655426228703,-3.439289583600181e-05,0.0007509854241675301,-0.004573672628689102
1202.26440429688,0.025156595486483982,-3.7710157790311094e-05,0.0009239453107932824,-0.004097754111149411
1096.47814941406,0.025156644938557494,-4.1347280929116974e-05,0.0011060422491720942,-0.003411065605322117
1000.0,0.025156704266922025,-4.533508880305166e-05,0.0008465382507010233,-0.002398037520183752
912.010864257813,0.02515677545279544,-4.970736945093294e-05,0.0012418664625315386,-0.003000191069711433
831.763793945313,0.025156860877613454,-5.450115820563076e-05,-0.003931876565476045,-0.011946911153403931
758.577575683594,0.025156963403980666,-5.975704680255499e-05,0.00019536518649336532,0.001163571127289245
691.830993652344,0.025157086472891766,-6.551952088346258e-05,0.0003366059772004666,-0.0026635874992804627
630.957336425781,0.02515723422047536,-7.183732835452114e-05,0.00554877385374946,-0.006624486524591821
575.43994140625,0.025157411618162744,-7.876388084068604e-05,0.0027778884749904455,0.00022402637584201395
524.807434082031,0.025157624640978236,-8.635769102488931e-05,0.0020735112666257355,-0.0012162127435928892
478.630096435547,0.02515788046954539,-9.468284811899459e-05,0.0008356538259830897,-0.0013277098155028944
436.515838623047,0.025158187732511907,-0.00010380953399595384,0.0013081230078281075,-0.0009186219082971539
398.107177734375,0.025158556797388335,-0.00011381458219371704,-2.258022796796516e-05,-0.00030912538253001704
363.078063964844,0.02515900011933712,-0.0001247820818245218,0.0005461803433981192,-0.0005258556247137218
331.131134033203,0.025159532659248557,-0.00013680402778162626,0.0005085621853630554,-0.00038206081378342626
301.995178222656,0.025160172384575425,-0.00014998101802520143,0.0004409974332605267,-0.00012958773301251382
275.422882080078,0.025160940868888117,-0.00016442299772614116,0.00043438798013711866,-0.00023969373239531616
251.18864440918,0.02516186400893161,-0.00018025004787894442,0.0005517059529109129,-0.0010163671827740444
229.086761474609,0.025162972881385394,-0.0001975932149894991,0.0014145601530757938,-0.0007552443179979991
208.929611206055,0.025164304765133292,-0.00021659537397433792,-0.008262289224000508,0.0006641039979446621
190.54606628418,0.025165904359279588,-0.00023741211429184982,0.0005912483198031865,0.00048078130545145016
173.780090332031,0.025167825231537704,-0.00026021263197049737,0.0008039964085673028,-0.00029713010967112385
158.489318847656,0.025170131536708905,-0.0002851806044708377,0.002690073984252004,0.005239806750403762
144.543975830078,0.025172900050084945,-0.0003125150159987276,-2.5086463291256605e-05,0.00036666832789227237
131.825668334961,0.02517622256543884,-0.00034243088868911266,0.008605457040336238,0.007983795956694488
120.226440429688,0.025180208711364883,-0.0003751598593685011,-0.0006329536154478163,0.0036597388501372987
109.647819519043,0.025184989242476193,-0.0004109505227213385,0.0001397824721752934,0.0012863210739189617
100.0,0.025190719862082458,-0.0004500684377748397,-9.515556266024086e-05,0.0009854293378989602
91.2010803222656,0.025197585628291025,-0.0004927956636576133,0.0005871519007882263,0.0014090563033194866
83.1763763427734,0.025205805984765742,-0.0005394296560105161,-0.000907303678363159,0.0006562724637198838
75.8577575683594,0.025215640436273595,-0.0005902813123605216,0.0652045009242115,-0.00825898603816242
69.1830978393555,0.025227394854699343,-0.0006456719081868669,-0.0008161450121057581,0.0008553751442561331
63.0957336425781,0.02524142834782795,-0.0007059286146250655,-0.00046849873423384855,0.00012389248862733457
57.5439949035645,0.025258160544467115,-0.0007713782373841944,-0.000767322840261285,0.0009301492705915055
52.4807472229004,0.02527807904184558,-0.0008423387768135902,0.0011795877456734806,0.0006195437166450098
47.8630104064941,0.025301746615923593,-0.0009191083847966859,-0.001430487668358106,0.0008960679512980141
43.6515846252441,0.025329807610559942,-0.0010019513054130523,-0.0005175752329344592,0.0004380570983202477
39.810718536377,0.02536299269962261,-0.001091080454362429,-0.001136258204102989,0.000534277672695071
36.307804107666,0.025402120969690103,-0.0011866364451106727,-0.001073865496121599,-0.0001531271785479727
33.1131134033203,0.02544809801805044,-0.0012886631282018875,-0.0009663783169982613,0.0002287742702317126
30.1995162963867,0.02550190854575956,-0.0013970801056206103,5.6596284178159206e-05,0.00029032575815618965
27.5422878265381,0.02556460181318086,-0.0015116532283148867,-0.0013106463656588421,0.00026102220208721336
25.1188640594482,0.025637268377668287,-0.0016319647571289867,0.016767702354318587,0.010458492846206414
22.9086761474609,0.02572100686096847,-0.00175738563655677,-0.0007735874298840303,0.00010664741614092995
20.8929615020752,0.02581688013552792,-0.001887053070345646,-0.0015011392843805801,-0.00020413303816484607
19.0546073913574,0.025925861351583288,-0.0020198571824883525,-0.000977330229785113,0.0005577284513557474
17.3780078887939,0.026048771583381997,-0.0021544407891243844,-0.0004391805148684022,0.0002695413468271155
15.8489322662354,0.026186212457064525,-0.0022892160356056184,-0.0010998421094380734,-0.00027016294337931825
14.4543981552124,0.026338498703064265,-0.002422400725987512,-0.0009961634512526338,-0.0005383981382295123
13.1825675964355,0.02650559687239452,-0.0025520755673586904,0.012892135355597021,0.00011353634793160976
12.0226440429688,0.026687077153016943,-0.0026762613732968007,-0.0006414997395974564,-0.00036361838547930084
10.9647817611694,0.0268820850742275,-0.002793012779494947,-0.0012877107965534006,-0.001215503561599447
10.0,0.027089338776570868,-0.0029005225798113287,-0.0008470993219789336,-0.0007004580976440289
9.12010860443115,0.027307155473203667,-0.002997228805910422,-0.0006837426442194323,-0.000602915347557222
8.31763744354248,0.02753350799684369,-0.0030819155022809666,-0.0005821407794491112,-0.0005976905327598667
7.58577585220337,0.02776610924065469,-0.003153798036466563,-0.00075014235317351,-0.0004924750944629631
6.91830968856812,0.028002519333368083,-0.003212584787460019,-0.0004208626359646153,-0.0005814704573173192
6.30957365036011,0.028240267930652825,-0.0032585090611775727,-0.0003340851533153756,-0.0017548065752436726
5.75439929962158,0.028476982408713533,-0.0032923278080774186,-0.00020477079455926556,-0.0007393265290661188
5.24807453155518,0.028710512180503384,-0.00331528680100577,-0.002379352490726915,-0.00042123403101707035
4.78630113601685,0.028939039878606212,-0.0033290549484995633,-0.00010679153347078682,-0.0005953018857149635
4.36515855789185,0.029161171599459763,-0.003335633022108275,-0.0001792557694195382,-0.00019028683691587516
3.98107171058655,0.02937600057295027,-0.0033372439491917674,-4.505884179413153e-05,-0.0005461109384318676
3.63078045845032,0.029583141148640475,-0.003336212845991126,2.4213796394750853e-06,-0.000650893912191326
3.3113112449646,0.029782732569786873,-0.003334845069293924,4.904493055037443e-05,-0.0003633109177100238
3.01995182037354,0.029975414303309952,-0.003335309891396778,9.44212350917524e-05,-0.00028765245936217786
2.75422859191895,0.030162276496061305,-0.0033395361223501393,9.155253029730429e-05,-0.00022759414960273928
2.51188635826111,0.030344790301769415,-0.0033491243946069276,4.994542106931399e-05,-5.560362363992745e-05
2.29086756706238,0.030524723370306157,-0.003365279135961405,-0.000456198911435942,-0.001525244519781705
2.0892961025238,0.030704045797989167,-0.003388761720827859,7.993368367886777e-05,5.633063500454097e-05
1.90546071529388,0.03088483147215502,-0.003419865036020507,-7.711790609698024e-05,9.888515657699307e-05
1.73780083656311,0.031069159184214185,-0.0034584087861642813,-0.00035594063568441386,6.24786299311883e-06
1.58489322662354,0.03125901729088344,-0.0035037542505850935,-6.825640577756004e-05,0.0003968062998065064
1.44543981552124,0.03145621517336173,-0.0035548367996918987,-0.0003214088674803675,0.0004583402077448016
1.3182567358017,0.03166230431321709,-0.0036102141820782002,-0.00031422787782100364,-0.00010355628178950003
1.20226442813873,0.031878511442042026,-0.003668128303055429,-0.0004020938443177746,-0.000183371151600829
1.09647822380066,0.03210568586712665,-0.0037265779051313735,0.0007687115145284529,0.0006774803091456269
1.0,0.03234426266133247,-0.0037833992161928937,4.8532696360965855e-05,6.172596183406497e-06
0.912010848522186,0.03259424288199556,-0.003836351313608451,-0.00015630405022493826,-0.0001059708716150509
0.831763744354248,0.03285519134264487,-0.0038832027089884978,-0.0002078962697456277,2.8937033274023007e-06
0.758577585220337,0.033126251721581575,-0.003921815561433904,-0.0002621394155415263,-8.762222186260412e-05
0.691830992698669,0.033406178005313945,-0.003950224015715823,-0.00014767190041535538,0.00011420972659867672
0.630957365036011,0.0336933804985743,-0.003966703456877524,-0.00014298052222919827,3.5214190791761288e-06
0.575439929962158,0.033985983952570985,-0.003969827962252898,-0.0002320591363420138,5.060311671750261e-05
0.524807453155518,0.034281894828916054,-0.003958513882343395,-0.0002057847717995484,9.061962705410494e-05
