freq,mu_Z_re,mu_Z_im,Z_re_res,Z_im_res
10000.0,0.022105752950474976,-1.2639242873446407e-05,-0.021062486345007625,-0.03328284927056815
9120.1083984375,0.022105761998051955,-1.3858611118631765e-05,-0.014861109472160947,-0.029142324412596034
8317.6376953125,0.022105772875405594,-1.5195608095612462e-05,-0.014093044318102505,-0.02798865564163161
7585.77587890625,0.022105785952532233,-1.6661578040435472e-05,-0.014517043782746864,-0.020091887780647636
6918.3095703125,0.02210580167422228,-1.8268958313296578e-05,-0.003157545057440519,-0.018739493698460896
6309.5732421875,0.0221058205751695,-2.0031384378507442e-05,-0.0017114746334037992,-0.015341008580475907
5754.3994140625,0.022105843298131304,-2.196380487799045e-05,-0.004107584707444795,-0.01432641265533089
5248.07470703125,0.022105870615749805,-2.408260750876993e-05,-0.0011437965221114954,-0.015652884266258372
4786.30078125,0.022105903456776082,-2.6405756938125957e-05,-0.0024488017905069173,-0.013036461514997126
4365.158203125,0.02210594293757778,-2.8952945602977495e-05,-0.0002101496876826224,-0.011077252206040479
3981.07177734375,0.022105990399996948,-3.1745758723600564e-05,-0.005897413516958053,-0.008490586419474401
3630.78051757813,0.02210604745683187,-3.4807854673446227e-05,-0.0019159636295128304,-0.010026127704760546
3311.31127929688,0.02210611604647785,-3.816516213061674e-05,0.0023988870580688507,-0.006043212982639017
3019.95166015625,0.022106198498559604,-4.184609525914602e-05,0.001284493038011203,-0.009409620335931646
2754.22875976563,0.022106297612766612,-4.588178853998136e-05,0.0017493463313383133,-0.006842207345473781
2511.88647460938,0.022106416753523053,-5.0306352520546204e-05,0.002503579712502653,-0.007295970371658147
2290.86767578125,0.022106559963675963,-5.515715234397136e-05,0.001974776403757563,-0.008704662827182972
2089.29614257813,0.02210673210097919,-6.047511035635932e-05,0.00338412900342119,-0.0058686203838331594
1905.46069335938,0.02210693900191328,-6.630503433176747e-05,0.0028358558257772816,-0.0045262835812789675
1737.80078125,0.022107187678238334,-7.269597258979324e-05,0.0034403987425770353,-0.004646623233525093
1584.89318847656,0.02210748655274546,-7.970159716157022e-05,0.005307582146674761,-0.0025954115561320702
1445.43981933594,0.02210784574184357,-8.738061567900804e-05,0.0027689548316949704,-0.004005904050228508
1318.25671386719,0.022108277394107197,-9.57972121326555e-05,0.0019733720409186965,-0.003994257862949155
1202.26440429688,0.02210879609554656,-0.00010502151618502388,0.0027654776778782593,-0.004784396378647224
1096.47814941406,0.022109419354247633,-0.00011513009871191094,0.0024072958761926326,-0.003712582403969211
1000.0,0.022110168179388455,-0.00012620649115840232,0.004999969443197656,-0.0033534373510787025
912.010864257813,0.022111067771940995,-0.00013834172242228947,0.004490612298279597,-0.00471082031109269
831.763793945313,0.022112148347473305,-0.00015163486625963493,0.004039375576353206,-0.0007947153741303349
758.577575683594,0.02211344611426627,-0.00016619358652192508,0.0033878907241466673,-0.0008953441327709251
691.830993652344,0.022115004433384104,-0.00018213466362612175,0.0033349703979398022,-0.0014448565020556217
630.957336425781,0.02211687519070976,-0.00019958447932523382,0.003086164508436861,-0.0015157894956625338
575.43994140625,0.02211912041409641,-0.00021867942839363277,-0.0004966233869012904,0.004939546111678067
524.807434082031,0.02212181417131638,-0.00023956621473725367,0.002148228789212482,-0.0012231379648490537
478.630096435547,0.022125044786020585,-0.0002624019762359847,0.003858307324930487,0.0005878987358092153
436.515838623047,0.022128917408707857,-0.0002873541665576874,0.002478607130769056,-0.0008478200174249874
398.107177734375,0.022133556975780386,-0.00031460010011529046,0.0031205023068769863,-0.0009706524180511905
363.078063964844,0.022139111581783163,-0.000344326042905174,0.0027507767561481614,-0.0005096354215495739
331.131134033203,0.022145756274400574,-0.0003767257020367699,0.0038085437714441735,-0.0006123515939829699
301.995178222656,0.02215369725676803,-0.00041199793460520545,0.0012550235733631288,-0.0011496534932285054
275.422882080078,0.022163176443504132,-0.0004503434622711699,0.002904068213032532,-0.00020291739316246986
251.18864440918,0.02217447626009866,-0.0004919603422041424,0.00320934186294956,-0.0025824139781053424
229.086761474609,0.022187924498649834,-0.0005370379193686981,0.004676523173185634,-0.0006927456533070981
208.929611206055,0.02220389893947717,-0.0005857489705001712,0.003831413525329768,-0.0005841522633070412
190.54606628418,0.0222228313166554,-0.0006382397611230363,0.0031835915822442003,-0.0009576926592341363
173.780090332031,0.022245210047314567,-0.0006946177887015962,0.0035462699937323684,0.00028334868007960385
158.489318847656,0.022271580970590135,-0.0007549371002704214,0.004362432262604236,-0.0011351278590034214
144.543975830078,0.02230254516454425,-0.0008191812642349542,0.002502187643963951,-0.0008011004095192912
131.825668334961,0.022338752759106816,-0.0008872443655364599,0.0029636166369993167,-0.00628806593211816
120.226440429688,0.02238089159480338,-0.0009589107967913448,0.0026454174553513787,-0.00010423152986924482
109.647819519043,0.022429669626602238,-0.0010338351067256705,0.0032167549958315375,0.0012072939488935294
100.0,0.022485790236564433,-0.001111523730382524,0.0029488647567947335,-0.0008580441518503241
91.2010803222656,0.022549920112274604,-0.0011913209549843427,-0.002228008254982497,-0.0006563309674843427
83.1763763427734,0.022622650139515144,-0.0012724018895779955,-0.0012690037260606572,-0.0011469521421487955
75.8577575683594,0.02270445078549167,-0.0013537753403733738,-0.0020536348229907297,0.00020277085410542626
69.1830978393555,0.022795624636993125,-0.0014342992258959374,-0.0012220856017019742,-0.0009328610654690374
63.0957336425781,0.022896259918103866,-0.0015127103873443233,-0.0018038340963023348,-0.0006786142806438233
57.5439949035645,0.023006189720282233,-0.0015876693520561127,-0.001559084175577468,-0.0007476098704950127
52.4807472229004,0.02312496208179698,-0.0016578188881597334,-0.0016981540567805181,-0.0014861719612584334
47.8630104064941,0.023251825760804014,-0.0017218532723083254,-0.0011289494077340867,-0.001769254444504585
43.6515846252441,0.023385735491354673,-0.0017785933837633989,-0.001450666895072228,-0.0006804328682240989
39.810718536377,0.023525378728090844,-0.001827061379745548,-0.0012273499129423562,-0.000875563505988548
36.307804107666,0.023669223634725154,-0.0018665480775465794,-0.0011383654938883457,-0.00034000967849847946
33.1131134033203,0.023815585646149037,-0.001896666443916999,-0.0010692846297060618,-0.000998938362590099
30.1995162963867,0.023962707751048168,-0.001917385767763756,0.000208507784259869,-0.0007694642214014561
27.5422878265381,0.024108848019543654,-0.0019290430164176477,-0.0025748587706651456,-0.0017971002189654476
25.1188640594482,0.02425236711069977,-0.0019323302549111988,-0.0011176998747881306,-0.0009606289677123989
22.9086761474609,0.024391808612424407,-0.0019282594945392246,-0.00018286046556799385,-0.0005732903879247246
20.8929615020752,0.024525966074703302,-0.0019181085487650815,-0.0007736780229824977,-0.0009576787676485815
19.0546073913574,0.024653932268092763,-0.0019033531425667305,-0.00045172106259093806,-0.0006037269486261305
17.3780078887939,0.02477512829190763,-0.0018855914143801635,-0.0001991005223366711,-0.0004060623371930634
15.8489322662354,0.024889312306414738,-0.001866467053380329,-3.112517856486072e-05,-3.6498423037290353e-06
14.4543981552124,0.02499656960083519,-0.0018475966551482956,-0.00027638279186210923,-0.0005282523832425955
13.1825675964355,0.025097287166247064,-0.0018305056722074588,0.0007085864425989651,-0.0012270398431629588
12.0226440429688,0.025192116800388895,-0.0018165758043577132,-0.0006132000650553061,-0.001067467830242013
10.9647817611694,0.025281930993668756,-0.001807005099552794,-0.000256280694730545,-0.00015451952495719391
10.0,0.025367775522242137,-0.0018027806398799744,-0.0007704873009819618,-0.0011017376999711745
9.12010860443115,0.025450821959269624,-0.0018046626476361954,-0.00040425360869107696,-0.00011813991049079535
8.31763744354248,0.025532322407245026,-0.0018131782237930409,-0.0006223670835500753,-0.000615422188539641
7.58577585220337,0.025613567837257566,-0.0018286227251429546,-0.00038220263205033383,-9.195688208835464e-05
6.91830968856812,0.025695850643889382,-0.0018510669056641458,-0.00014534262977411797,-0.0004014194296988458
6.30957365036011,0.02578043146965622,-0.0018803682728841897,-0.0002632257437932793,7.102889090921023e-05
5.75439929962158,0.025868510038949882,-0.0019161855215065653,-0.0005416430967074178,0.00011130046380223484
5.24807453155518,0.02596119963934776,-0.001957995287043797,-0.00024421154150603905,-5.666497712379691e-05
4.78630113601685,0.026059504929091294,-0.0020051107620305346,-0.0002848912448627054,2.7216238021165323e-05
4.36515855789185,0.026164302867572153,-0.0020567018932952886,-0.00040161955662504703,8.246992497591135e-05
3.98107171058655,0.026276326692047255,-0.002111816953784001,-0.0004489263982151437,-3.6101031964800787e-05
3.63078045845032,0.026396152959974904,-0.0021694052749897568,-0.0005047270787633951,-2.9798529076156734e-05
3.3113112449646,0.026524191720801782,-0.0022283408816488625,-0.0004276726409612186,-0.00016591889109036266
3.01995182037354,0.026660679876857614,-0.00228744671792069,0.001809014976077914,0.0010757982160868097
2.75422859191895,0.026805677754949065,-0.0023455191210248628,-0.0005012868659987346,-9.594390097646295e-05
2.51188635826111,0.02695906885879128,-0.002401352190448012,-0.0004665313570014207,-0.0001027805554104119
2.29086756706238,0.02712056272628735,-0.002453761718587248,-0.0004477421849684478,2.0858986883151923e-05
2.0892961025238,0.027289700787150078,-0.0025016083771378637,0.0006051800210110786,-0.003411641325151164
1.90546071529388,0.027465865107738067,-0.002543819882954237,-0.00030913008514733137,0.00016533788195736282
1.73780083656311,0.027648289916435757,-0.0025794118800594335,-0.0004918023521504437,-0.00027775384200953365
1.58489322662354,0.027836075812864066,-0.002607507266934854,-0.0008320521411421325,-0.0011643966277054539
1.44543981552124,0.028028206563688624,-0.0026273536674721806,7.456134925022326e-05,4.85232852355192e-05
1.3182567358017,0.028223568364595584,-0.002638338698269724,-0.0003245456371553171,3.0948215899975675e-05
1.20226442813873,0.02842097139294146,-0.0026400026332391623,-0.00029688732390403816,0.00011899881737393756
1.09647822380066,0.028619173386662325,-0.0026320480298155924,-0.000359360656172876,-0.00010356055795199227
1.0,0.028816904866168235,-0.002614345867004697,-0.000529009855320766,0.0014634858818683028
0.912010848522186,0.029012895477925498,-0.0025869377765086214,-0.0004078677762401027,3.6616309803978644e-05
0.831763744354248,0.02920590079676022,-0.002550034024206845,-0.00021643452991138012,-0.00010955467299924486
0.758577585220337,0.029394728796645703,-0.002504007028713858,-0.00035673220260469887,0.000145145855545942
0.691830992698669,0.029578265105603074,-0.002449380379086977,-0.00011295794952122587,3.3386462268232206e-06
0.630957365036011,0.029755496115296685,-0.0023868135247421623,0.000171842680185684,8.257803730243787e-05
0.575439929962158,0.02992552903212808,-0.0023170825409630537,-9.73220251301865e-06,0.00018138351487714637
0.524807453155518,0.030087608040018185,-0.002241057603331918,-6.928375299441666e-05,0.00023654985363528178
