freq,mu_Z_re,mu_Z_im,Z_re_res,Z_im_res
10000.0,0.022168146325529,-1.3953293170046797e-05,-0.015183603511869502,-0.024454504469837247
9120.1083984375,0.022168152897719996,-1.529946276096815e-05,-0.020594383657808604,-0.024389227547730468
8317.6376953125,0.022168160799193853,-1.6775502340049096e-05,-0.013736131218027647,-0.02105195686079665
7585.77587890625,0.02216817029879783,-1.8393939612309405e-05,-0.005577486370342069,-0.01956605198073191
6918.3095703125,0.022168181719748555,-2.016851031970707e-05,-0.002184299868972745,-0.01614405007386401
6309.5732421875,0.022168195450625306,-2.2114274593908025e-05,-0.005072082748689793,-0.016417385099026308
5754.3994140625,0.0221682119585856,-2.4247744477307086e-05,0.001973536185203399,-0.01811921020726021
5248.07470703125,0.0221682318052516,-2.658702366633287e-05,-0.001938214848352899,-0.015222054532995632
4786.30078125,0.022168255665806574,-2.9151960613396014e-05,-0.0026064354241812256,-0.012476988769473696
4365.158203125,0.022168284351950653,-3.1964316314474065e-05,0.00037848770154095407,-0.008414205557948274
3981.07177734375,0.022168318839493776,-3.5047948059084626e-05,-0.0017055281384553249,-0.002208923173766885
3630.78051757813,0.022168360301521476,-3.842901066638789e-05,0.001669173711207575,-0.010394654084003987
3311.31127929688,0.022168410148259144,-4.213617681414746e-05,-0.0021442443618812576,-0.011725643999268148
3019.95166015625,0.0221684700749833,-4.620087819697969e-05,-0.0024756235130113,-0.01173095294761068
2754.22875976563,0.022168542119606352,-5.065756944541652e-05,-0.0013734429600397481,-0.010586179002202817
2511.88647460938,0.022168628731875594,-5.554401666489492e-05,-0.0004966893697689045,-0.007057483711993295
2290.86767578125,0.022168732856534774,-6.090161295320473e-05,0.0017968692380416727,-0.0032782432241150045
2089.29614257813,0.022168858033245434,-6.67757230732845e-05,0.002632951420372332,-0.008321237644824784
1905.46069335938,0.022169008516648974,-7.321605979352862e-05,0.0015189625704085732,-0.0045695352792635285
1737.80078125,0.022169189420581856,-8.027709424963944e-05,9.424228692155728e-05,-0.0029987004805402395
1584.89318847656,0.022169406891313734,-8.80185030070738e-05,0.0022498307679569354,-0.0004587376820524738
1445.43981933594,0.02216966831554633,-9.650565431811576e-05,0.002663608728544528,-0.0012682818642760158
1318.25671386719,0.02216998257018211,-0.00010581013654678398,0.001963890644680312,-0.004071712744434684
1202.26440429688,0.022170360322064132,-0.00011601033073591421,0.0011929842931687334,-0.0006009097738444142
1096.47814941406,0.022170814387605695,-0.00012719202986585538,0.0033711294458370934,-0.0031571687684826552
1000.0,0.022171360164097834,-0.00013944910617240318,0.001310133098773033,-0.001977996516615803
912.010864257813,0.022172016146681198,-0.00015288422801024317,0.0018803412645076976,0.0006900810963990569
831.763793945313,0.0221728045476649,-0.000167609625807966,-0.0007382392900016008,-0.001528792400225066
758.577575683594,0.02217375203787291,-0.00018374790629312095,0.0038663195055624114,-0.003260047232787421
691.830993652344,0.022174890633286662,-0.00020143291093686685,0.0008819694775955636,-0.001801115173104167
630.957336425781,0.022176258754310826,-0.0002208106124512987,0.002421550941047925,0.0007888853179551013
575.43994140625,0.022177902489649227,-0.00024204003925388514,0.0051283552048077274,-0.002396880894181785
524.807434082031,0.022179877101921375,-0.0002652942122817365,0.0002781708683007762,-0.0016614808620810367
478.630096435547,0.022182248817960087,-0.00029076107249563775,0.003970405372062988,-0.0015544685994550377
436.515838623047,0.022185096952513958,-0.00031864436668524427,0.0013378397258083582,-0.0015254586781299443
398.107177734375,0.02218851642048964,-0.00034916444870661104,0.0035840795311988423,-0.0005834860088351111
363.078063964844,0.02219262069878856,-0.00038255893820131315,0.0024557719272164623,-0.0016419348838662131
331.131134033203,0.022197545303535272,-0.0004190831579248505,0.001228128357362572,-0.0011928288632983505
301.995178222656,0.022203451851296338,-0.00045901024557534737,0.003958058440971239,-0.00033482469578164736
275.422882080078,0.022210532772585716,-0.0005026308063623332,0.0011461265117377155,-0.0010760476871598333
251.18864440918,0.022219016739487344,-0.0005502519331211849,-0.0027585443469288554,-0.003913166480445285
229.086761474609,0.022229174854013014,-0.0006021953742143046,0.001480384500476415,-0.0014568669577252045
208.929611206055,0.0222413276160998,-0.0006587945752505402,0.0022688989366336024,0.0004917285043086598
190.54606628418,0.02225585264383597,-0.000720390259324765,0.0049444956821088695,-0.001804829948618265
173.780090332031,0.02227319304773115,-0.0007873241432697258,0.0021083941025426475,-0.0010117765653865258
158.489318847656,0.022293866256680197,-0.0008599303230221768,0.0022083359011074964,-4.733932768437679e-05
144.543975830078,0.022318472947435948,-0.0009385238023873403,0.0018845422672801489,-0.0005262706924163403
131.825668334961,0.02234770553639459,-0.0010233856134418875,-0.005170512846798408,0.0024492417599703124
120.226440429688,0.022382355442037087,-0.001114743988338548,0.0019725013130802854,-0.000461729353602748
109.647819519043,0.022423318022064424,-0.0012127511321016594,0.002767866843513725,-0.0006349548233122595
100.0,0.02247159374666291,-0.0013174553529576262,0.0014665462614305118,0.001354663480330874
91.2010803222656,0.02252828381758569,-0.0014287686665701456,0.0014025667290055895,-0.004681502863873746
83.1763763427734,0.02259457813064257,-0.0015464305382838577,-0.002388671474059429,-0.0009421982889680577
75.8577575683594,0.022671733305488637,-0.0016699692001885024,-0.0023921744221104616,-0.0015117578092350024
69.1830978393555,0.02276103857664075,-0.001798662958704993,-0.0008016945073226513,-0.0014929121730766928
63.0957336425781,0.02286376778830566,-0.0019315050239481343,-0.0013895670617672384,-0.002038704406858134
57.5439949035645,0.02298111669710754,-0.0020671765193377356,-0.0014376508445394579,-0.0013045336342451357
52.4807472229004,0.023114126315589338,-0.0022040332212080777,-0.00022923559856856054,-0.0013163330392880778
47.8630104064941,0.023263595132098722,-0.002340111966085586,-0.00019595858646817912,5.836147737781419e-05
43.6515846252441,0.023429985507591136,-0.002473162215417712,-0.0024582693584128644,-0.002603413207205412
39.810718536377,0.02361333205189219,-0.002600706748500703,-0.0009489392599870104,-0.0014836357280838032
36.307804107666,0.023813161809324655,-0.0027201327778425886,-0.003141137029648345,-0.0020554425012347887
33.1131134033203,0.024028437079808774,-0.0028288111131009666,-0.0012076237630629268,-0.0019348947604489668
30.1995162963867,0.02425753116581553,-0.002924236795981092,-0.0007564837488162682,-0.001234237082418692
27.5422878265381,0.024498245038775388,-0.0030041805904421444,0.008808100887326187,0.07266191919631625
25.1188640594482,0.024747868934425807,-0.003066837644713144,-0.00031450397357039167,-0.0028505684193654442
22.9086761474609,0.025003287701173584,-0.0031109582804332075,-0.00029607327444951606,-0.0011965363690819076
20.8929615020752,0.025261123144587363,-0.003135946656255908,-0.0007560696065818384,-0.001545695548555808
19.0546073913574,0.02551790161793585,-0.0031419160921707847,-0.0001709198319399495,-0.0032207916272803307
17.3780078887939,0.02577023159570787,-0.0031296946702162316,-0.0004915413647165294,-0.0013328907673816315
15.8489322662354,0.026014974631554236,-0.0031007806274804934,0.00014430127311383656,-0.0015845842163774934
14.4543981552124,0.026249394142633845,-0.003057252988084737,0.0009689781308235453,-0.0010740763040777371
13.1825675964355,0.026471269705312456,-0.0030016478792157736,0.001002879270332057,0.00040986657251142634
12.0226440429688,0.026678969351921794,-0.0029368142255170432,0.00039355383661819274,-0.0010155846953912432
10.9647817611694,0.026871477827264314,-0.0028657636125525585,0.00044180044515281305,-0.0011739020687481585
10.0,0.027048383981638696,-0.002791528041921524,0.00026176418428969575,-0.0011669147400930242
9.12010860443115,0.02720983459151505,-0.002717036503499486,0.0007103508571457522,-0.0007444233457950858
8.31763744354248,0.027356464449855265,-0.0026450174015031644,0.0010275170547689658,-0.0008961953541280644
7.58577585220337,0.027489313341289158,-0.002577929711925264,0.0013160048495823584,-0.000663176482567964
6.91830968856812,0.027609739783125312,-0.002517921976658595,-0.00024945442108588803,-0.002234749156895195
6.30957365036011,0.02771933950889532,-0.0024668153746801626,0.000999313000921622,-0.00042554907489606277
5.75439929962158,0.027819874207880735,-0.002426105346244771,0.0009028673874404355,-0.0005485805726545712
5.24807453155518,0.02791321344156764,-0.0023969755900769187,0.0008295967378189398,-6.263697722251865e-05
4.78630113601685,0.028001290361436292,-0.0023803184778217155,0.0007824530704339909,4.173605323098441e-05
4.36515855789185,0.02808607002036638,-0.002376756799961404,0.001091057483721479,-9.826168566480368e-05
3.98107171058655,0.02816952781478511,-0.00238666295497255,0.0011591559062396097,0.00039306554519995
3.63078045845032,0.0282536348437665,-0.002410173062758466,0.0005716079955695001,-2.805178106016562e-05
3.3113112449646,0.02834034670287043,-0.002447194804293814,0.0006017569094267303,9.479894037748605e-05
3.01995182037354,0.028431592308299447,-0.002497409051818251,0.0006570683646368487,0.00024925074486664917
2.75422859191895,0.0285292597527992,-0.002560266438897409,0.0006936205591451007,0.000224344519872491
2.51188635826111,0.02863517684629512,-0.0026349809496730124,0.0006363084702785196,6.005307556388763e-05
2.29086756706238,0.02875108488486598,-0.002720523287032482,0.0005757848976690773,0.0002643436785296181
2.0892961025238,0.02887860525423277,-0.002815617178656424,0.00048100043112026675,-1.3567437507524052e-05
1.90546071529388,0.029019199640564767,-0.002918741822433449,0.00030183824997406794,0.0002714475447267513
1.73780083656311,0.02917412577536512,-0.003028143320916192,0.00031184500422882025,0.00012273538603070795
1.58489322662354,0.02934439164264604,-0.003141857201149173,0.0011274093822996427,-0.00014554986908057272
1.44543981552124,0.029530711771603796,-0.003257743031827051,0.0004318285003864948,-5.888118885205096e-05
1.3182567358017,0.029733469519953978,-0.003373530851294436,-0.0017024299165198202,0.0027432021036844644
1.20226442813873,0.029952689044989638,-0.00348687777947337,-0.00329872316785906,0.0017413124376937299
1.09647822380066,0.030188019987969987,-0.003595432003590185,0.0004599612623744885,-0.00023326088451128485
1.0,0.030438736846132596,-0.0036969004428580765,0.0003833685269787959,-8.168432364327651e-05
0.912010848522186,0.030703753727568384,-0.003789115956801905,0.0005217143623959843,-0.0002187749173530049
0.831763744354248,0.030981653855208142,-0.0038700999742571993,0.0004693879941737415,-0.00020008599890519946
0.758577585220337,0.03127073197821393,-0.003938116880865265,0.00033240652838963103,-9.182403123516453e-05
0.691830992698669,0.03156904689844203,-0.0039917173091877384,0.0002938006060893353,-0.00045094226902323833
0.630957365036011,0.03187448072046343,-0.0040297685007549666,0.00044698181361262773,-0.0002763359623946665
0.575439929962158,0.032184801208232486,-0.004051471015837459,0.0004816978745208825,-0.00048286712582085905
0.524807453155518,0.032497723768252544,-0.004056362118368237,0.00030605233718794533,-0.0004159981941629369
