freq,mu_Z_re,mu_Z_im,Z_re_res,Z_im_res
10000.0,0.012976298231951476,-1.018238889820923e-05,-0.006834456573851823,-0.02599151363300931
9120.1083984375,0.012976304847542301,-1.1164727568102947e-05,-0.005588955026324699,-0.024251995640754205
8317.6376953125,0.01297631280047582,-1.2241827899067224e-05,-0.00346361680405448,-0.02314972557371247
7585.77587890625,0.01297632236093465,-1.3422828378274458e-05,-0.0016462392726522487,-0.020204455267848576
6918.3095703125,0.012976333853619189,-1.4717747920836392e-05,-0.0021231357186865113,-0.01838604645943054
6309.5732421875,0.012976347668720765,-1.6137570446224452e-05,-0.0013690514353379337,-0.016592127815192426
5754.3994140625,0.012976364275097208,-1.7694337488321178e-05,-0.0013141994870907916,-0.01490210662615412
5248.07470703125,0.012976384236086115,-1.940124975238658e-05,-0.0003612819327227859,-0.015213294823930586
4786.30078125,0.012976408228481997,-2.12727778958241e-05,-0.0002618522940028029,-0.009882058455924823
4365.158203125,0.012976437065309019,-2.3324784284321158e-05,0.000921509418195219,-0.012564849850183222
3981.07177734375,0.012976471723149129,-2.557465561909018e-05,-0.0013226471682092709,-0.01144068928190749
3630.78051757813,0.012976513374925358,-2.8041448654286673e-05,0.001336618457318058,-0.010004670616449387
3311.31127929688,0.012976563429256434,-3.074604882405038e-05,0.00015591074319693497,-0.008816118648783351
3019.95166015625,0.012976623577646054,-3.3711344061497916e-05,0.0021914285324728545,-0.010057532489357599
2754.22875976563,0.012976695851191192,-3.6962414390300255e-05,0.0009598658166371926,-0.0078747440970008
2511.88647460938,0.012976782688545739,-4.052673896763342e-05,-0.0008577561810140608,-0.007114472104813733
2290.86767578125,0.01297688701768359,-4.44344213927342e-05,0.0016061014833016907,-0.005546792500349334
2089.29614257813,0.01297701235381374,-4.871843534864745e-05,0.0012833587032319398,-0.006580926032395648
1905.46069335938,0.012977162917348463,-5.3414890928488326e-05,0.0020701788190928636,-0.004985844532413688
1737.80078125,0.012977343774940807,-5.8563324518859106e-05,0.002549755178000806,-0.004365603803552959
1584.89318847656,0.012977561009655603,-6.420701169869453e-05,0.001006825854609603,-0.0034860798659313947
1445.43981933594,0.012977821923956164,-7.039330501234389e-05,0.0014945223780124632,-0.0037055108563241435
1318.25671386719,0.01297813528413393,-7.717399686734003e-05,0.0009303480871997293,-0.0024831955769673403
1202.26440429688,0.01297851161265663,-8.460570788012158e-05,0.00158319224769163,-0.0025519378828816213
1096.47814941406,0.012978963537773995,-9.275029981371181e-05,0.0013528242545937947,-0.002278576023968412
1000.0,0.012979506212224502,-0.00010167531169371865,0.001378794829299002,-0.0020081288270966187
912.010864257813,0.01298015781218939,-0.00011145441674889465,0.0011761880713217904,-0.0020476390083625944
831.763793945313,0.012980940133115276,-0.00012216789318263762,0.0016999406141843757,-0.0013012492810004377
758.577575683594,0.01298187929833534,-0.00013390310535712165,0.001036964130348041,-0.0014052379313720215
691.830993652344,0.012983006600846884,-0.0001467549801909623,0.0013170625908275838,-0.0005074406136863623
630.957336425781,0.012984359501130619,-0.00016082646951533854,0.0009916404767108186,-0.0011675172548041386
575.43994140625,0.01298598280571559,-0.00017622897209325258,0.00116435612015579,-0.0013154694279069526
524.807434082031,0.012987930054616442,-0.000193082690458867,0.00026987838263464216,-0.000687804036062267
478.630096435547,0.012990265147768456,-0.0002115168863096148,0.0008086040560235565,-0.0003872550696254148
436.515838623047,0.012993064240914983,-0.00023166998358613072,0.0005514887137237825,-0.0003512787013820307
398.107177734375,0.012996417940587155,-0.00025368945483251256,0.0011415765667263551,-0.00023073344476188317
363.078063964844,0.013000433824313476,-0.0002777314094762195,0.0005356245928533759,-0.00037662373699069664
331.131134033203,0.013005239304369788,-0.00030395978221479155,0.0004002175966561876,0.00018088736131040848
301.995178222656,0.013010984837115542,-0.0003325449882199178,0.0006936784750230414,0.0005357878168920822
275.422882080078,0.01301784745829496,-0.00036366189137250243,0.00127391542719996,0.0003155568427762976
251.18864440918,0.01302603458704306,-0.0003974868953638889,0.0005558497616822613,3.8736391305811094e-05
229.086761474609,0.01303578799020655,-0.00043419394244747155,0.00042349265318515107,0.0007311720906446284
208.929611206055,0.01304738772653311,-0.000473949181216576,9.669074408981057e-05,0.0005609067777890241
190.54606628418,0.013061155791123383,-0.0005169040501460056,0.00010974820955558275,0.0006672828480258944
173.780090332031,0.01307745906442194,-0.0005631865520573187,0.00014410330831794022,0.0004946482780777814
158.489318847656,0.013096711018888627,-0.0006128905392575137,-0.00016911758312737266,0.00026625113744778634
144.543975830078,0.013119371472233571,-0.0006660629448731253,-0.00026503405130502873,0.00012527992592477474
131.825668334961,0.013145943513516226,-0.0007226890929790367,-0.0006415561154448739,0.0004532909906652632
120.226440429688,0.01317696660373053,-0.000782676520293834,-0.0002990344950214701,0.00026160011579996604
109.647819519043,0.013213004790025941,-0.0008458381327514548,-0.00018887234501245923,0.00020704136279474524
100.0,0.013254629057618029,-0.0009118760212981634,-0.0003833029598275719,5.201467092093661e-05
91.2010803222656,0.01330239316386367,-0.000980367839633919,-0.0004218193708620307,-0.001786093648820519
83.1763763427734,0.013356802838475349,-0.001050758143443149,-0.0003140123164347506,6.875224362725102e-05
75.8577575683594,0.013418279171077291,-0.0011223575040912306,-0.0005149547456822084,1.660891005486934e-05
69.1830978393555,0.013487118104278818,-0.0011943522005110393,-2.6563374519582295e-05,-0.00041520406750513925
63.0957336425781,0.013563449316302439,-0.0012658268736337255,-0.000596401459893061,8.075613885767446e-05
57.5439949035645,0.01364719895438097,-0.0013358014081658277,-0.0005533571375832304,-0.0003493011142181278
52.4807472229004,0.013738061516284107,-0.0014032816144332531,-0.0006033580464132934,-0.001106240557522753
47.8630104064941,0.013835486258195277,-0.0014673211176262717,0.0003957285087569772,0.0001138494785560282
43.6515846252441,0.013938682620377478,-0.001527089606229187,-0.0005298950700450226,-0.00010858474225178705
39.810718536377,0.014046647246310304,-0.0015819407209414545,-0.00028103158312119646,-0.0003427301209080545
36.307804107666,0.014158212451874194,-0.0016314718800798573,-0.0003131694508205062,0.0001510157321377428
33.1131134033203,0.014272112980887649,-0.001675568564807379,-0.0004415552835609505,-0.00033022816946117893
30.1995162963867,0.014387065031076974,-0.001714427151351552,-0.0002797930981263269,-0.0002069112487206521
27.5422878265381,0.014501849647695056,-0.0017485529992074698,-0.0003161565474329442,-0.0002686009851561699
25.1188640594482,0.014615391850924022,-0.0017787337508274907,-0.0003567100460772771,-0.0003276501754521906
22.9086761474609,0.014726827621365861,-0.001805990965004822,-1.0163039910384558e-06,-0.0001226478795445221
20.8929615020752,0.014835552744584582,-0.0018315157513840155,-0.00034069785474011814,-0.00038332335052621556
19.0546073913574,0.014941250188599431,-0.001856595527085511,-7.994730924526863e-05,-0.00018364320759021112
17.3780078887939,0.015043895492504438,-0.0018825392927643303,-1.3996114780062685e-05,-5.350545883593032e-05
15.8489322662354,0.015143742171648667,-0.001910607954174534,-0.0001753602721060333,-6.737284796713401e-05
14.4543981552124,0.015241290862573814,-0.0019419546763397059,-0.0001573232459886869,3.95315578359404e-06
13.1825675964355,0.015337246883939946,-0.0019775782973917894,-1.954897837715304e-05,-0.00032073564654618936
12.0226440429688,0.015432470914319029,-0.002018291064340199,-5.126494571671206e-06,-6.634756344149921e-05
10.9647817611694,0.015527927022034349,-0.0020647004426125833,-0.00010243925864055099,-0.00010513185454948332
10.0,0.01562463141699601,-0.0021172038255862615,-0.00021780632714459014,-7.63216963641615e-05
9.12010860443115,0.01572360442734189,-0.0021759944748614116,-0.00016460223340561062,6.35378282035884e-05
8.31763744354248,0.015825827443448005,-0.002241076903429139,-0.0001633643867101943,-3.168126755613912e-05
7.58577585220337,0.01593220604510555,-0.0023122899942695464,-0.00023389795868145047,2.234497979253583e-06
6.91830968856812,0.016043540201125223,-0.0023893362696102327,2.0505971250622118e-05,-8.011100281093281e-05
6.30957365036011,0.01616050226612162,-0.002471815789108547,-8.750410752227794e-05,3.14216651120529e-05
5.75439929962158,0.016283623367379922,-0.0025592631181180167,-0.0001099934281599789,-4.5808822423216815e-05
5.24807453155518,0.01641328861768355,-0.0026511856890943037,-0.00011679487471474848,-9.426703450350366e-05
4.78630113601685,0.016549741330149977,-0.00274710171162404,-4.746630549112493e-05,-0.00042327121137903994
4.36515855789185,0.01669309604372109,-0.002846575695249858,-0.00013013613019860829,0.0002507691931243417
3.98107171058655,0.016843359723910337,-0.002949249604831308,-1.700788513164797e-06,-4.31988389444078e-05
3.63078045845032,0.01700046001930201,-0.003054867835534442,-0.00033040069978269165,0.00012479083444385782
3.3113112449646,0.017164279013327323,-0.003163294441169161,-3.353668803817572e-05,4.665014044373875e-05
3.01995182037354,0.017334690554588757,-0.0032745214892715585,-0.00013553699985174167,-6.216897314195854e-05
2.75422859191895,0.017511599026268292,-0.0033886678867793996,2.3751329834911794e-06,0.0001148547160618003
2.51188635826111,0.01769497733659539,-0.0035059685594931163,6.0305381515898815e-06,-3.9087446366316454e-05
2.29086756706238,0.017884901972673006,-0.00362675437160589,-0.00011537851188419407,1.3219561271210142e-05
2.0892961025238,0.01808158313282609,-0.0037514236246875762,4.492518850448754e-05,9.111692628932392e-05
1.90546071529388,0.018285388211064915,-0.00388040635942594,-0.00026431671316088506,-0.00042209713927583974
1.73780083656311,0.01849685721119455,-0.004014122968175773,6.219111403035077e-05,6.560029684622715e-05
1.58489322662354,0.018716709002288515,-0.004152938867360151,-5.8918014732685375e-05,0.0002210655674339491
1.44543981552124,0.018945837661790994,-0.004297117102437638,-0.00013287711126790808,3.266208291706225e-05
1.3182567358017,0.01918529850203387,-0.004446770919478694,5.854238528596803e-05,6.561733969370591e-05
1.20226442813873,0.01943628371970866,-0.004601818344681721,0.00015468404906006025,4.532297781177901e-05
1.09647822380066,0.019700087981803456,-0.004761940909874198,0.00012795664606815582,0.00022375013833070192
1.0,0.0199780646451806,-0.00492654859237626,-0.00023682641600620072,7.196630201973964e-05
0.912010848522186,0.02027157372343865,-0.005094752989436097,-0.00015060925376094922,3.861136016750262e-05
0.831763744354248,0.02058192314182088,-0.005265350583680592,-1.0211304084819378e-05,-0.00013951783973789166
0.758577585220337,0.02091030523852709,-0.005436817668365053,-1.8237822490909522e-05,-0.00017665933816295252
0.691830992698669,0.021257730859111236,-0.005607318161222148,9.587472934573585e-05,-0.00014261438527984806
0.630957365036011,0.021624963699359696,-0.005774725031796863,-6.691183290980299e-05,2.0427360441436192e-05
0.575439929962158,0.022012457759792384,-0.005936655517207728,3.402358453948387e-05,0.0001287280362971717
0.524807453155518,0.022420300834334075,-0.0060905196397652095,0.00014629653886577554,0.00016622416012979004
