freq,mu_Z_re,mu_Z_im,Z_re_res,Z_im_res
10000.0,0.024773057058168606,-6.0243033718637234e-06,-0.02363888596026779,-0.037662771108086066
9120.1083984375,0.024773058240666366,-6.605515286204853e-06,-0.01704494213555813,-0.030781139263912904
8317.6376953125,0.024773059662319328,-7.242800847877847e-06,-0.011405834678672674,-0.030216165723459077
7585.77587890625,0.024773061371491836,-7.941569740129855e-06,-0.009599994772030461,-0.02342203370814973
6918.3095703125,0.024773063426327523,-8.707753502943071e-06,-0.008208812857556477,-0.021295208371364643
6309.5732421875,0.02477306589672583,-9.547855855957988e-06,-0.005908519996309071,-0.021357761632802057
5754.3994140625,0.024773068866718023,-1.0469007881727415e-05,-0.004312101610910678,-0.01761291084030493
5248.07470703125,0.024773072437322918,-1.1479028516702703e-05,-0.004002457498633084,-0.015206391469591502
4786.30078125,0.024773076729979405,-1.2586490868622775e-05,-0.005381773603949695,-0.01700702369367982
4365.158203125,0.02477308189067206,-1.3800794924526008e-05,0.0011785273769791584,-0.012461998956943826
3981.07177734375,0.02477308809489007,-1.5132247248580772e-05,0.00047091841429466874,-0.011290535448828581
3630.78051757813,0.024773095553587133,-1.659214835486561e-05,-0.0005299422835605659,-0.010562211911788766
3311.31127929688,0.024773104520345708,-1.8192888476482254e-05,0.0008298088180075068,-0.010626692758180682
3019.95166015625,0.024773115299986985,-1.9948052538318117e-05,0.00014974736456788498,-0.008682613315356618
2754.22875976563,0.024773128258922226,-2.187253520450731e-05,0.0013647898313786273,-0.008381939917659306
2511.88647460938,0.02477314383759248,-2.3982666983402094e-05,0.0018894734330390794,-0.0070918390458367024
2290.86767578125,0.02477316256542719,-2.6296352378770952e-05,0.0018315154679587886,-0.007629347958944471
2089.29614257813,0.024773185078817764,-2.883322129599766e-05,0.004417494808155464,-0.007936052452424599
1905.46069335938,0.02477321214273793,-3.1614794862823225e-05,0.0022817421634517276,-0.005456148765516824
1737.80078125,0.024773244676711347,-3.466466710216552e-05,0.0011877649701855474,-0.005147090556921965
1584.89318847656,0.02477328378606224,-3.8008703826121183e-05,0.0012351841841974388,-0.003686290266899521
1445.43981933594,0.024773330799425522,-4.167526040254563e-05,0.0023624276734241223,-0.00028524328209014564
1318.25671386719,0.02477338731389596,-4.5695420066176046e-05,0.002641208545380358,-0.003868425575727876
1202.26440429688,0.024773455249239684,-5.010325465233701e-05,0.003427921818663384,-0.010282388851082637
1096.47814941406,0.024773536913041124,-5.493610966480415e-05,0.0012156373932400225,-0.001827496754559604
1000.0,0.024773635079003018,-6.023491583514821e-05,0.00859432492110792,-0.001892735947293448
912.010864257813,0.02477375308095904,-6.60445293041533e-05,0.0015790078979680405,-0.002727672712281553
831.763793945313,0.02477389492585233,-7.241410289633436e-05,0.001777731930156231,-0.0016505272834815342
758.577575683594,0.024774065429348655,-7.939749081433137e-05,0.0014379398915955535,-0.0013501200886517314
691.830993652344,0.024774270378676196,-8.705368926423115e-05,-0.001431870959076105,5.2377058103168846e-05
630.957336425781,0.02477451672806111,-9.544731546856629e-05,0.0027831930483755117,-0.0016142998585543663
575.43994140625,0.024774812833214588,-0.00010464912751019655,0.002139855847502488,-0.0024728103494762966
524.807434082031,0.02477516873255603,-0.00011473658720665938,0.0026305158294760295,-0.0008442185096691594
478.630096435547,0.02477559648432531,-0.0001257944679528946,0.002560565396926808,-0.0005556299003947946
436.515838623047,0.024776110570458358,-0.00013791550902322088,0.0022956544119395565,-0.0005551054144431208
398.107177734375,0.02477672838007891,-0.0001512011167513213,0.002108875218386312,-0.0003203781761847213
363.078063964844,0.024777470787838266,-0.00016576211240188927,0.0030541295910628645,-0.0032673221667487893
331.131134033203,0.024778362844943218,-0.0001817195242960603,0.0019677789107553183,0.0009157773074935397
301.995178222656,0.024779434603855566,-0.00019920542036105902,0.0017215249214624674,0.000312806801955041
275.422882080078,0.024780722100972877,-0.00021836377347178365,0.002277541671633479,0.00017926314829551636
251.18864440918,0.024782268525414427,-0.00023935134836854983,0.0021418092859315264,0.0013825327126549501
229.086761474609,0.02478412560610984,-0.00026233859366368373,0.001973010818054441,0.0006532019050176163
208.929611206055,0.02478635525354757,-0.00028751051533231435,0.0015161841178835712,0.00021024112109828565
190.54606628418,0.024789031496567394,-0.00031506749882488736,0.001783495670480393,0.0005361925336798127
173.780090332031,0.024792242758161248,-0.000345226035419014,0.0021319090949360464,-6.0479193193014e-05
158.489318847656,0.024796094516772293,-0.00037821929395744113,0.0020535734989824937,0.0009651578734014588
144.543975830078,0.024800712399888514,-0.00041429746012967155,0.0014499092183595137,0.0004437250220047284
131.825668334961,0.024806245754058567,-0.00045372774348268385,0.001499274338181266,0.0004092206201641161
120.226440429688,0.024812871727567024,-0.0004967939248790912,0.0012254679086020244,0.001553825880352509
109.647819519043,0.024820799886991984,-0.0005437952859646516,0.0006680683640742854,0.0007297231422417484
100.0,0.024830277363671358,-0.0005950447270287678,0.000995212520374357,0.0005856334133432322
91.2010803222656,0.02484159448673136,-0.0006508658416517366,0.0011165244274318614,0.0016281484849802632
83.1763763427734,0.02485509080302664,-0.000711588681373035,0.001112465313195643,0.000921103028882965
75.8577575683594,0.024871161305743426,-0.0007775439136490801,0.0014124271510422247,0.0005764143587260199
69.1830978393555,0.024890262589682986,-0.0008490550611653619,0.0007286034085649852,0.0007831881008556381
63.0957336425781,0.024912918521295388,-0.0009264285215476039,0.00038359553946098676,0.0008248002961908961
57.5439949035645,0.024939724859332955,-0.0010099411196054285,0.00035072458956235397,0.0005884591770378715
52.4807472229004,0.024971352094379708,-0.001099825053227756,0.00043966541585090807,1.6496718177843976e-05
47.8630104064941,0.025008545611583107,-0.001196250277803641,2.6733968936307195e-05,0.0005858953061984591
43.6515846252441,0.02505212215299278,-0.0012993046477726275,0.00069004049117238,0.0011311848718383727
39.810718536377,0.02510296149637724,-0.0014089724927854965,0.00025932645883584154,0.0008168053400057036
36.307804107666,0.025161992336600505,-0.001525112745217732,0.00036695929893800633,0.0006271076008157678
33.1131134033203,0.02523017158553987,-0.0016474382024663239,0.00030319249079616833,0.0005125659048151763
30.1995162963867,0.025308456749297287,-0.0017754979471098957,-2.645839693441246e-05,0.0006200558000821043
27.5422878265381,0.02539777168925917,-0.001908665258466542,0.00040655555125387183,0.0008193201236134581
25.1188640594482,0.025498966898970573,-0.0020461334365911446,0.000508583363346974,0.00015437225964585544
22.9086761474609,0.025612776339222727,-0.0021869217302378516,-0.000808630898426272,0.0008519361004504485
20.8929615020752,0.02573977373939457,-0.002329892966863309,0.000440097976741171,-0.00039231907479900913
19.0546073913574,0.02588033193278692,-0.0024737835357048045,0.00010057614672561929,0.00017855610157469556
17.3780078887939,0.02603458909912855,-0.0026172451625233687,-5.563796834204965e-05,-9.546600716476856e-05
15.8489322662354,0.02620242563878689,-0.002758896585678917,-0.00019083144272170893,0.0006272020729870828
14.4543981552124,0.026383454755084124,-0.0028973819912388107,0.00020720514668662315,-5.005763293951075e-05
13.1825675964355,0.026577028741409214,-0.0030314320795550393,-0.0005402608613472859,6.788674701606063e-05
12.0226440429688,0.026782261571249924,-0.0031599230755697486,0.00023166685398572431,-0.00010643370157294857
10.9647817611694,0.0269980668666553,-0.003281928945965901,-0.0005524963495541005,0.0011826340363547986
10.0,0.02722320886021628,-0.003396762559460293,-0.00027152715558042065,-0.00012820146632369286
9.12010860443115,0.027456362755263933,-0.003504002453947022,-0.00017989890161646677,0.000708667108601378
8.31763744354248,0.02769618005488156,-0.003603503135884609,-8.461727764373997e-05,-9.495954021300924e-05
7.58577585220337,0.02794135406068344,-0.003695388268528486,0.0002288412993290377,0.0005870094151813141
6.91830968856812,0.028190680836624085,-0.0037800275516739097,8.731806773558393e-05,-0.00031194596374840974
6.30957365036011,0.02844311146542757,-0.0038579993944496795,0.00023432856902807012,0.00019213016444132036
5.75439929962158,0.028697792294888304,-0.003930042529633996,0.00013959206965430404,0.0004316223467078035
5.24807453155518,0.02895409098257146,-0.003997000419574853,0.0002540801315458613,-2.6181359815552474e-05
4.78630113601685,0.029211607365938554,-0.004059762634533427,0.00011562795850885571,0.00013093283752817295
4.36515855789185,0.029470169399837032,-0.004119207339707711,-2.8372327825067906e-05,6.562638806928856e-05
3.98107171058655,0.029729815503525575,-0.004176148648515869,1.9837474393675364e-05,-0.00012223279769776885
3.63078045845032,0.02999076556477183,-0.004231291945924675,0.00015586551341642899,1.7453327874024545e-05
3.3113112449646,0.030253383497349084,-0.004285199439615631,2.4586150995584144e-05,6.411563372546881e-05
3.01995182037354,0.030518134612723475,-0.004338267242706095,-1.4028023795024241e-05,0.00022705087234940573
2.75422859191895,0.03078554113992772,-0.004390714319906798,-6.577642968578004e-05,7.186494533000225e-05
2.51188635826111,0.031056139031374243,-0.0044425827195536186,0.00015359126957634195,0.00033957197092058123
2.29086756706238,0.031330438765608176,-0.004493747733677552,0.0001325220492709757,0.00020266940057754763
2.0892961025238,0.03160889225550694,-0.004543936032487412,0.00018609093972243862,0.00042535861613008773
1.90546071529388,0.031891867257387456,-0.004592749436409549,-8.629288551114528e-05,0.00024148853772745088
1.73780083656311,0.03217962991933785,-0.004639691835374822,0.002018319932031252,0.0012226009982513782
1.58489322662354,0.03247233537320494,-0.004684196831428686,-0.00031952130313516597,9.859581500911395e-05
1.44543981552124,0.032770025621597615,-0.004725653943950421,-0.0001864181054187855,-2.2813477898220996e-05
1.3182567358017,0.03307263344822628,-0.004763431641004499,-5.649623291623107e-06,7.519379378150091e-05
1.20226442813873,0.033379990719144555,-0.004796895990364355,-5.5733956510845006e-05,9.05605496539447e-05
1.09647822380066,0.03369183926342478,-0.004825424315713172,8.175982593048442e-05,-9.618364863827212e-05
1.0,0.03400784252437216,-0.004848413831161646,-0.00013411523548503834,-8.163807036204538e-05
0.912010848522186,0.03432759634451618,-0.004865285769743974,5.858010844938394e-05,-0.00013361807603967397
0.831763744354248,0.03465063756132263,-0.004875485967765672,2.9726678372830884e-05,2.1986701384283866e-06
0.758577585220337,0.034976449509615475,-0.004878483186967415,0.00018287142133197737,-0.0001989276479257146
0.691830992698669,0.03530446400813638,-0.004873766632309278,0.00030428131990017926,-7.688136329977308e-06
0.630957365036011,0.035634059905361296,-0.004860844142153563,0.0002362807088604965,-0.00011833305971296285
0.575439929962158,0.035964558730204446,-0.004839242400954712,0.00014011458524024883,-0.00011315193248851146
0.524807453155518,0.03629521839668672,-0.004808510265929579,0.0003515277092687244,-0.00016349235890617854
