freq,mu_Z_re,mu_Z_im,Z_re_res,Z_im_res
10000.0,0.019427181380154524,-3.271853157507905e-05,-0.004799221483705575,-0.011620555311229078
9120.1083984375,0.019427225010430014,-3.587478596739589e-05,-0.0032420679759629853,-0.010971796007938895
8317.6376953125,0.019427277463483692,-3.9335432472178656e-05,-0.0029472444774629077,-0.01000470677298538
7585.77587890625,0.01942734052293587,-4.312980074464966e-05,-0.0020520723903865307,-0.009233447044082249
6918.3095703125,0.019427416332780188,-4.729003855520849e-05,-0.00044012307304261075,-0.009392777730017208
6309.5732421875,0.019427507470087323,-5.1851379220735396e-05,-4.419376449177684e-05,-0.008172636846547334
5754.3994140625,0.01942761703236978,-5.685243487201413e-05,-0.0009099701900871192,-0.006723566760419214
5248.07470703125,0.01942774874250328,-6.233551580414398e-05,-0.00011132250447832073,-0.006001666421479944
4786.30078125,0.019427907074733325,-6.834697895167803e-05,-0.0001349296617073753,-0.006520550707210278
4365.158203125,0.01942809740595248,-7.493760679240378e-05,-0.0001252845437107221,-0.005245274531285703
3981.07177734375,0.019428326197301293,-8.216301964239682e-05,-0.000890833876694308,-0.005106191495969996
3630.78051757813,0.0194286012120815,-9.008412246473176e-05,0.0009562687047095994,-0.0036645413748628316
3311.31127929688,0.019428931777265977,-9.876759029539831e-05,0.00010817185499997772,-0.003942113968129999
3019.95166015625,0.01942932909704057,-0.00010828639075321914,0.0006614078430017684,-0.0042416650119439184
2754.22875976563,0.019429806628718238,-0.00011872034741799886,0.00027834066142063893,-0.002475947143866199
2511.88647460938,0.01943038053311937,-0.00013015674334475902,0.0003558026949369679,-0.003136198491793959
2290.86767578125,0.019431070213916428,-0.0001426909650729868,0.0012474309408690293,-0.003352140315906787
2089.29614257813,0.01943189896286993,-0.00015642718450112157,0.0010753168130067277,-0.0024324333392171217
1905.46069335938,0.019432894731346295,-0.00017147907630186117,0.0010283494688903966,-0.001938453881224761
1737.80078125,0.019434091051256343,-0.00018797056313368994,0.0009917545813676425,-0.00159562307439509
1584.89318847656,0.01943552813341371,-0.0002060365779772432,0.0013612652461742099,-0.001978974175684143
1445.43981933594,0.019437254174541365,-0.0002258238324027291,0.0009941670586575656,-0.001603081350872929
1318.25671386719,0.019439326909961332,-0.0002474915638890257,0.0014103840418478314,-0.0010748139868814257
1202.26440429688,0.019441815453442347,-0.000271212241505434,0.001273116457136847,-0.000993653481719234
1096.47814941406,0.01944480246917799,-0.00029717217736690464,0.0004218720556933876,-0.0009761701880656046
1000.0,0.019448386727979532,-0.00032557200031954744,0.0009429214886931339,-1.57378238294743e-06
912.010864257813,0.01945268610059484,-0.00035662691654955535,0.0009043688470052394,-0.0004082161663283272
831.763793945313,0.019457841043337653,-0.0003905666607522345,0.0011627001063669526,-0.0004087673395758667
758.577575683594,0.019464018626958075,-0.00042763501424435363,0.0007770665575563759,-0.0005094860740480928
691.830993652344,0.019471417153832417,-0.0004680887368805002,0.0005861455301017157,9.702243457359981e-05
630.957336425781,0.019480271389887862,-0.0005121957146278641,0.0006283560154896617,-5.481583496516406e-05
575.43994140625,0.019490858407006616,-0.0005602320730665182,0.00039137141524351465,-0.00020395057671501824
524.807434082031,0.019503503987467592,-0.0006124779662850139,0.00046189124313619073,-0.00015620670973201387
478.630096435547,0.019518589467471845,-0.0006692116825666901,0.00027831816739444515,0.00022447352746380992
436.515838623047,0.01953655879877357,-0.0007307016697898618,0.0001548270501926692,0.0001029603241756383
398.107177734375,0.019557925463605845,-0.0007971960347746287,5.9927404809943796e-05,0.0003156555123026712
363.078063964844,0.019583278693146907,-0.0008689090642071194,0.00020622218389050595,0.0002475571786128806
331.131134033203,0.019613288216064183,-0.0009460043726176437,3.467860049988225e-05,0.0004804770363806562
301.995178222656,0.01964870647717305,-0.0010285743786130675,0.00020338774848764965,0.0001176495995263325
275.422882080078,0.019690366966457495,-0.0011166160580285073,0.0005711433866930939,-4.443459727073492e-07
251.18864440918,0.019739177013722735,-0.0012100033180939438,3.8875202623633864e-05,0.0003311131896299561
229.086761474609,0.0197961031946682,-0.001308456921359437,1.3813332035400583e-05,0.0003340538392160629
208.929611206055,0.01986214741848207,-0.0014115136323564373,5.925483785367003e-05,0.0004405007025158627
190.54606628418,0.019938312022925057,-0.0015184972321727831,-0.00010979592895444396,0.0002709530640280168
173.780090332031,0.020025552852975092,-0.001628495064027255,-0.00010961885846980796,0.0005712315808761451
158.489318847656,0.020124720445456674,-0.0017403446657426286,-0.00018382441383342496,0.0003080010825924715
144.543975830078,0.02023649123188056,-0.0018526356568612013,-3.296601895294224e-05,0.0003396562399289988
131.825668334961,0.02036129276496737,-0.0019637318528737922,-5.917285340463138e-05,0.0001238148924413078
120.226440429688,0.020499229456007455,-0.002071817571094826,-0.00044871119159464387,-5.481501834712606e-05
109.647819519043,0.020650017280972686,-0.0021749697726470337,-0.0003850187911623136,-0.00014658552671493368
100.0,0.020812937183850008,-0.002271254426123216,-0.00036282917988999033,3.4756846471084134e-05
91.2010803222656,0.020986816622329443,-0.0023588414571172668,-0.00021153990178035542,8.254523510863336e-05
83.1763763427734,0.021170046667266407,-0.0024361287064243527,-0.00031993303198759454,-0.00019486856715275266
75.8577575683594,0.021360638213636776,-0.0025018622871521815,-0.0002392859781957246,-7.767393815881485e-06
69.1830978393555,0.021556315814005307,-0.0025552394622445586,-8.423639382229217e-05,8.839673274444165e-05
63.0957336425781,0.021754642232776455,-0.002595981154686498,-0.00030582842278404493,-0.00011170356543989792
57.5439949035645,0.02195316206257838,-0.0026243644864524947,-0.00036397550661072114,-9.909170728579454e-05
52.4807472229004,0.02214954986889743,-0.002641210738281492,-0.000536037537260968,-0.0002922405821185921
47.8630104064941,0.022341747592553637,-0.0026478299368480843,0.0001486398385615352,0.00019998662543191555
43.6515846252441,0.022528077810510277,-0.002645928699622087,-3.0035749570223036e-05,-0.0002777013537531869
39.810718536377,0.0227073230924462,-0.0026374920959911377,0.00019990514539230259,-0.0001651372983447379
36.307804107666,0.022878766542593555,-0.00262465244179027,-0.00014381434925404488,-8.168025141570053e-06
33.1131134033203,0.023042193503467222,-0.0026095580246737193,-6.131932011447724e-05,-0.00018334583681731912
30.1995162963867,0.023197858642208902,-0.0025942529950072676,9.170781243201392e-06,-2.6951956354667652e-05
27.5422878265381,0.023346425458623875,-0.0025805768210486893,0.0001431940643329757,-0.00012704894207878938
25.1188640594482,0.023488886746739407,-0.002570088290419147,-6.306720974539465e-05,1.6057968179532082e-06
22.9086761474609,0.023626474514481487,-0.002564016008580917,9.630605566208691e-05,1.888328621268325e-05
20.8929615020752,0.023760567101627994,-0.0025632347148677884,0.00021445812562149308,0.00017275352209591152
19.0546073913574,0.023892599787613326,-0.002568265103471046,0.00016508593787802409,-5.6198012751145984e-05
17.3780078887939,0.024023983779376094,-0.0025792937535363152,7.597372216519224e-05,-3.4623853446815074e-05
15.8489322662354,0.024156037108331037,-0.0025962093139733256,-9.863139566866283e-05,-3.676142010052572e-05
14.4543981552124,0.024289929878117414,-0.0026186508529834947,-5.814655482588513e-05,1.6386440674105458e-05
13.1825675964355,0.0244266453463685,-0.0026460642250801226,-6.90866928447012e-05,0.0001837857277516776
12.0226440429688,0.02456695746265436,-0.0026777622392353657,-0.00012201283492064077,-6.363732832946568e-05
10.9647817611694,0.024711424567423586,-0.0027129844971654406,-8.028923658301435e-05,-3.842746137664062e-05
10.0,0.024860398017340066,-0.0027509529449969324,-2.5625235862334478e-05,9.784406712346752e-05
9.12010860443115,0.02501404353747009,-0.002790919658982151,8.594927879589792e-06,-8.140659450835098e-05
8.31763744354248,0.025172372249567615,-0.0028322041277546875,-5.7350011861183325e-05,-0.00010450000509218751
7.58577585220337,0.025335277713087252,-0.002874218281384478,1.5084914115153641e-05,-4.833017478507841e-05
6.91830968856812,0.025502575025097025,-0.0029164787303406813,-2.4078950151273926e-05,-8.323690069208124e-05
6.30957365036011,0.025674038153256473,-0.002958606862016286,-3.46092915877276e-05,-2.5776014852857583e-06
5.75439929962158,0.025849432172086743,-0.003000318576953747,-3.029922971435617e-05,-5.717160310544705e-05
5.24807453155518,0.026028537904957568,-0.0030414062887917843,-3.521538700693161e-05,-3.77515201013842e-05
4.78630113601685,0.026211167506646788,-0.003081716348457676,-1.5545564178119642e-06,-9.383655436677593e-05
4.36515855789185,0.026397170638074684,-0.0031211251981537983,-6.934488783114784e-06,5.8293423430901947e-05
3.98107171058655,0.02658643194224738,-0.003159517354168871,-1.2300226781905566e-07,-0.00011147970969317082
3.63078045845032,0.026778861428363752,-0.003196767783296635,1.3494412167452258e-05,5.3811627054650354e-06
3.3113112449646,0.02697438001477619,-0.0032327304867406583,1.0557471155088483e-05,4.0265797326941716e-05
3.01995182037354,0.027172902837635713,-0.003267234216064724,-4.100961959198693e-05,-3.125660735422411e-05
2.75422859191895,0.02737432297646286,-0.0033000853363335998,-1.851703644513772e-05,-3.131842090799966e-05
2.51188635826111,0.027578498013117132,-0.003331077002753244,-6.793554892316894e-05,-7.157581562244365e-05
2.29086756706238,0.027785241365078706,-0.00336000312407708,1.5714898351407158e-05,-0.00012011652169027992
2.0892961025238,0.027994319687778615,-0.0033866750860189992,-2.5265027587786232e-05,-8.692330136659925e-05
1.90546071529388,0.028205456896338382,-0.003410938953828616,-8.861279615411666e-05,2.8289329412684115e-05
1.73780083656311,0.02841834459310677,-0.003432690854155843,-0.00012062568360662884,6.700261591985725e-05
1.58489322662354,0.028632657976297292,-0.0034518884681103597,6.499923899549315e-05,9.789688513294013e-05
1.44543981552124,0.028848075709197854,-0.0034685569588119806,-0.00010406465187274769,0.0002282926108663195
1.3182567358017,0.029064301800374233,-0.0034827882582027553,1.8911835197633203e-05,-0.0001033986145336555
1.20226442813873,0.029281087307747436,-0.0034947332498926715,6.003314119203476e-05,1.1882275218828581e-05
1.09647822380066,0.029498249655833128,-0.0035045871149031833,-9.392910612597213e-05,2.826190449011683e-05
1.0,0.02971568752797036,-0.0035125687205820586,-7.886017887204222e-05,-9.203976917258622e-06
0.912010848522186,0.029933389651942643,-0.003518895520233765,-3.205015940625777e-05,4.117652367683494e-05
0.831763744354248,0.030151436292560112,-0.0035237558486370672,-7.608514186618898e-05,-4.1463908037467096e-05
0.758577585220337,0.030369992851760473,-0.0035272807552242376,2.1993364358735557e-06,5.328737024716231e-05
0.691830992698669,0.030589295606178585,-0.0035295176060720526,0.00010528607205798415,-2.5089292027052554e-05
0.630957365036011,0.030809630223963606,-0.0035304075838270893,-8.105807616919439e-05,4.968091051841053e-05
0.575439929962158,0.03103130425362717,-0.0035297689578651765,8.977691679127112e-05,6.180600345432339e-05
0.524807453155518,0.03125461522126029,-0.003527287594675941,0.00012394558274578596,-4.939475625754088e-05
