freq,mu_Z_re,mu_Z_im,Z_re_res,Z_im_res
10000.0,0.019274310954005402,-2.8237908693439695e-05,-0.003818411566226799,-0.01241724400183784
9120.1083984375,0.019274352531004034,-3.0961849628594046e-05,-0.003315075819325365,-0.011325397559343494
8317.6376953125,0.01927440251454049,-3.394846389220637e-05,-0.001982876926220109,-0.010447681774889707
7585.77587890625,0.01927446260364928,-3.722305341498154e-05,-0.0016866171428355226,-0.009515116875310082
6918.3095703125,0.019274534840445997,-4.081334808506216e-05,-0.0013563761521764028,-0.008652410468846862
6309.5732421875,0.019274621679289203,-4.4749736355729336e-05,-0.000631131754415197,-0.00781688295634283
5754.3994140625,0.01927472606982374,-4.906551639222541e-05,-6.705939088676172e-05,-0.0073439443456628254
5248.07470703125,0.019274851556686613,-5.3797169958942604e-05,1.3854604033712581e-05,-0.006516334387844143
4786.30078125,0.019275002399176087,-5.898466026039286e-05,0.00023931286641928895,-0.005565427054367893
4365.158203125,0.019275183714867198,-6.467175592376913e-05,0.0002410234137778973,-0.0063326743144232695
3981.07177734375,0.019275401651885012,-7.090638191001405e-05,0.0005535454750318115,-0.005906181547646614
3630.78051757813,0.019275663595577707,-7.774100082029963e-05,0.0005143361053672087,-0.005161164574344
3311.31127929688,0.01927597841624319,-8.523302318787359e-05,0.0006402826160579883,-0.004098135756126374
3019.95166015625,0.01927635676600775,-9.344524961262977e-05,0.000909181753180853,-0.00407429046254903
2754.22875976563,0.01927681143446691,-0.00010244634436987646,0.0006167391972137122,-0.0031579706581921765
2511.88647460938,0.01927735777437439,-0.00011231134046187212,0.0009565141969894893,-0.002951294308121672
2290.86767578125,0.019278014210965918,-0.00012312217440251552,0.0008830075543192172,-0.0025044867565089156
2089.29614257813,0.019278802850561372,-0.00013496824806384766,0.001609100901799474,-0.0019150880890508478
1905.46069335938,0.01927975020748386,-0.00014794701273580557,0.0007240270767808615,-0.0022194049277438057
1737.80078125,0.01928088807002998,-0.00016216456475575146,0.0008129011137912798,-0.0018172295536370514
1584.89318847656,0.0192822545321839,-0.00017773624629986747,0.0010202090742247004,-0.0015693177387983673
1445.43981933594,0.019283895217495857,-0.00019478722720656615,0.000983838759976357,-0.001270296115086066
1318.25671386719,0.01928586473041327,-0.00021345305347595598,0.000777022515471272,-0.001100728435886656
1202.26440429688,0.019288228368708266,-0.0002338801191740208,0.0008628233432260678,-0.0008880852169908208
1096.47814941406,0.0192910641376821,-0.0002562260266297888,0.0008292071466294987,-0.0009156559022978888
1000.0,0.019294465108841283,-0.0002806597767229782,0.0007426051041777848,-0.0007634431967343782
912.010864257813,0.01929854216358248,-0.0003073617103990984,0.0007110292681175787,-0.0003829572292642553
831.763793945313,0.019303427163515307,-0.0003365231052565393,0.00045767341927070715,-0.00045199247255803927
758.577575683594,0.019309276579375777,-0.00036834530298635813,0.0005796997383790761,-0.0003156467461578127
691.830993652344,0.01931627559903986,-0.00040303821396941953,0.00045228283349406026,-3.6290601835819536e-05
630.957336425781,0.01932464270769193,-0.00044081799778814283,0.00045844084499912716,-0.00011075532738784283
575.43994140625,0.019334634699030292,-0.0004819036923714895,0.0005660093651250926,6.120119975941044e-05
524.807434082031,0.019346552015794816,-0.0005265125080331943,0.00025777150834951565,4.8722547260605714e-05
478.630096435547,0.01936074423901143,-0.0005748534726921279,0.00030587504915303293,0.00016507404735197214
436.515838623047,0.019377615431745102,-0.000627119081600944,0.0003067982741189017,0.00013540674788555603
398.107177734375,0.019397628893085682,-0.0006834745955456491,0.0001776436613284832,0.0002062160555469509
363.078063964844,0.019421310702693175,-0.0007440446871212909,0.00012509113026827612,0.00017368517631000916
331.131134033203,0.01944925120767315,-0.0008088972102276419,0.00017626813348494905,0.00022078350564615809
301.995178222656,0.019482103367878797,-0.0008780240727260537,0.00023150742573919622,0.00014978654741794632
275.422882080078,0.019520576651679455,-0.0009513195095999009,-0.0004379362058768467,0.00014823100488199907
251.18864440918,0.01956542501741543,-0.0010285565285400222,-9.765928095686882e-05,0.0003521837871132778
229.086761474609,0.01961742746778971,-0.0011093628979517898,-0.0001930404906605905,0.0001792755522535103
208.929611206055,0.0196773598761323,-0.0011931988147468253,-0.0001807992487188985,0.00028625226417467483
190.54606628418,0.019745957340687757,-0.0012793392152926429,-0.0002760605405864418,5.9555380099357135e-05
173.780090332031,0.019823867236394135,-0.001366864366583688,-0.0004403597068603632,0.000244228343352512
158.489318847656,0.01991159461549768,-0.0014546628617362093,-0.000316532402119523,0.00020785177641949077
144.543975830078,0.020009443270604294,-0.0015414509236840734,-0.00033351954575330453,0.00017328297123022653
131.825668334961,0.020117457776702628,-0.001625811070723566,-0.000261018232070271,0.00014674910850993417
120.226440429688,0.02023537337202873,-0.001706251264678636,-0.0003415674773946699,8.441184634496411e-05
109.647819519043,0.02036258148481271,-0.0017812829846750129,-0.0002734387434539902,0.00024984703303768726
100.0,0.020498118397383733,-0.0018495134146523594,-0.0003576213153313676,-6.671101540455947e-05
91.2010803222656,0.020640682745378298,-0.00190974375493187,-0.0001845393892118026,0.00019463781007262996
83.1763763427734,0.020788684335042197,-0.0019610633269143756,-0.00024431586594470325,-0.0001707101134774756
75.8577575683594,0.020940322547632517,-0.0020029282591926727,-0.00022690358809818179,-0.0002885253330382727
69.1830978393555,0.021093688240292195,-0.0020352145714764127,-9.679488277180431e-05,-2.8827000603512832e-05
63.0957336425781,0.02124687924277484,-0.002058238365432185,-0.00020330131757555908,-0.000333782161330785
57.5439949035645,0.021398117449865584,-0.002072740075824622,-1.4162006988317766e-05,-0.00034041873616532216
52.4807472229004,0.02154585518993689,-0.0020798345573875675,0.00010615014590578675,-0.00020601563273706753
47.8630104064941,0.021688860411510642,-0.002080933135707611,-0.0003057471115730584,-9.149024967811201e-06
43.6515846252441,0.02182627348413265,-0.0020776469061640455,-9.18799061557507e-05,-0.0002529964583484455
39.810718536377,0.021957632539110775,-0.002071681982303493,-0.00010171121613442372,1.0667750214706992e-05
36.307804107666,0.022082868276922043,-0.002064737083658359,-0.00014907935372175662,-0.0001935855832768589
33.1131134033203,0.022202272464511508,-0.002058412037589979,0.00012656723427540914,-8.039674329147865e-05
30.1995162963867,0.02231644634876988,-0.0020541332211328894,-1.2166977183619698e-05,-6.555277071728944e-05
27.5422878265381,0.022426236056717553,-0.0020530990572113447,-1.557580289014704e-05,-6.429695202304474e-05
25.1188640594482,0.022532661657155385,-0.0020562462948861444,-5.5351082860616296e-05,-6.411727263064444e-05
22.9086761474609,0.022636845637264365,-0.002064235852013956,-4.3278630671435975e-05,-1.9750202920055995e-05
20.8929615020752,0.022739945199868584,-0.002077455969712395,-0.00014895923755421647,-1.650896128149509e-05
19.0546073913574,0.02284309159771817,-0.0020960398827621733,8.844619554471134e-06,-2.658338228733216e-07
17.3780078887939,0.02294733874078927,-0.002119895118446415,-3.4334552652288963e-06,8.515310364828497e-05
15.8489322662354,0.023053622620502368,-0.0021487415828871223,1.1277200976267387e-05,1.452820700227793e-05
14.4543981552124,0.02316273261950959,-0.0021821556177039096,-3.8083906318091276e-06,2.158802742790577e-06
13.1825675964355,0.023275295348711977,-0.0022196171260157617,-8.079960768602248e-05,-2.972850712936164e-05
12.0226440429688,0.02339177115094096,-0.0022605567338811316,-5.935037303534188e-05,2.762343669956849e-05
10.9647817611694,0.02351246274733333,-0.0023043998392060635,-8.829437470646989e-05,2.2558740736436378e-05
10.0,0.023637534681630264,-0.0023506044656851745,-2.444199852933565e-05,-5.025953508374335e-06
9.12010860443115,0.023767041326145284,-0.0023986902117836576,-6.393501104911756e-05,-3.656908237525784e-05
8.31763744354248,0.02390096040391884,-0.002448256231924366,-5.23768184188568e-05,5.018784796336287e-07
7.58577585220337,0.024039228383369856,-0.0024989872443944667,-9.788299732644418e-05,4.831922990373343e-05
6.91830968856812,0.02418177388890235,-0.002550647709598614,-3.439001457244961e-05,-1.5645636325614058e-05
6.30957365036011,0.024328545472450055,-0.002603065630317213,-4.5391925745246614e-05,-1.893792104771261e-05
5.75439929962158,0.024479530739900942,-0.0026561085277194063,-4.791655826815941e-05,3.981467774559358e-05
5.24807453155518,0.02463476483165563,-0.002709655027670037,-5.081172645747187e-05,-3.301765008013706e-05
4.78630113601685,0.024794327501670495,-0.0027635659554244045,-9.032670734730394e-05,-1.6853210719042742e-06
4.36515855789185,0.0249583293737727,-0.002817658873208584,-5.8999186579599544e-05,-4.123121307118361e-05
3.98107171058655,0.02512688921684444,-0.0028716895738325923,4.229935948240476e-06,-2.9141270526492156e-05
3.63078045845032,0.025300105135118097,-0.0029253432560583993,-6.899513753740386e-05,-1.9060590850499166e-05
3.3113112449646,0.02547802330643665,-0.0029782369996364626,7.191390525088104e-08,-6.452773538786257e-05
3.01995182037354,0.025660608249853598,-0.003029933914711928,5.4417464087998246e-05,-8.81219113462806e-06
2.75422859191895,0.025847718537028188,-0.0030799680130019712,7.89002032831887e-05,-1.3843152804671188e-05
2.51188635826111,0.02603909138897602,-0.003127877644596609,-5.323301693258009e-05,2.0775899888891055e-05
2.29086756706238,0.026234338770070333,-0.0031732443229811128,0.0001010249950077341,-1.543587758711263e-05
2.0892961025238,0.026432956482757695,-0.003215733045137931,-3.5691161166105656e-05,5.0997300647669195e-05
1.90546071529388,0.02663434648511545,-0.003255129881762546,-1.5739560149750226e-05,4.339954201065376e-05
1.73780083656311,0.026837851318551452,-0.003291372682281861,-3.6070656941947915e-05,-1.4287659281061148e-05
1.58489322662354,0.027042798280119004,-0.003324571230992857,3.8951217531304344e-05,0.00010469003805494304
1.44543981552124,0.027248549918628392,-0.003355014027351665,-8.46042206220643e-06,4.972156018553508e-05
1.3182567358017,0.02745455669744452,-0.003383160034238551,-9.910409764807976e-05,6.482035289774894e-05
1.20226442813873,0.02766040730560583,-0.0034096150110034663,-0.00014835019325457055,4.7991991925333804e-05
1.09647822380066,0.02786587216939137,-0.003435093452769394,-0.00010492428158122985,8.787679524430592e-05
1.0,0.028070936182068542,-0.0034603683763154078,-8.304396875025849e-05,1.8027143462692134e-05
0.912010848522186,0.0282758174907914,-0.0034862122718438268,-7.88719880828008e-05,7.816737180497317e-05
0.831763744354248,0.028480970250573272,-0.0035133332729234226,-3.214464882362808e-05,2.724246421017748e-05
0.758577585220337,0.028687070460634526,-0.0035423109724934208,7.39277914336249e-05,1.5148711595379394e-05
0.691830992698669,0.028894985228870452,-0.003573536358647169,4.886662969405195e-05,1.9446762405131e-05
0.630957365036011,0.02910572695014188,-0.003607160032180738,0.00012729162749958167,3.5703718534621336e-06
0.575439929962158,0.029320394867225354,-0.0036430523128976222,0.00012220839516705398,-5.060001628622024e-06
0.524807453155518,0.02954010724891456,-0.003680778056799453,0.00018931425977975966,-7.342416275955312e-05
