freq,mu_Z_re,mu_Z_im,Z_re_res,Z_im_res
10000.0,0.019367721246207236,-3.218490249501878e-05,-0.004646531923090964,-0.012746706861919019
9120.1083984375,0.019367766815863417,-3.528960724316552e-05,-0.003933594312824484,-0.011275018497602566
8317.6376953125,0.01936782159901501,-3.869370963805434e-05,-0.0023968870838796882,-0.009829033216800554
7585.77587890625,0.01936788745765278,-4.2426051292503566e-05,-0.00235555245931552,-0.009156237007770603
6918.3095703125,0.019367966629695484,-4.651824212018883e-05,-0.0017225110753063162,-0.008413844352721588
6309.5732421875,0.01936806180475329,-5.100492358073586e-05,-0.0006567016154709095,-0.007534767612515536
5754.3994140625,0.019368176215083414,-5.592405520319106e-05,-0.0009111009009768849,-0.00657555833183159
5248.07470703125,0.019368313744799467,-6.131722761702776e-05,-0.0006356923578817349,-0.007156150296166628
4786.30078125,0.019368479060917713,-6.723000251091456e-05,0.00011412430086691142,-0.005906560612398715
4365.158203125,0.019368677770638942,-7.371228336672437e-05,-0.00016831103906585904,-0.006246772093319624
3981.07177734375,0.019368916609965457,-8.081871641773739e-05,0.0017374752552138557,-0.005218021977673937
3630.78051757813,0.019369203670004522,-8.860912738511047e-05,0.0006203111988102236,-0.00444864605186641
3311.31127929688,0.019369548668191915,-9.7148991561771e-05,0.001071980704591715,-0.0036114861121393713
3019.95166015625,0.019369963273362267,-0.00010650994127086837,0.0012705695777693662,-0.0037056057980416686
2754.22875976563,0.019370461495136927,-0.00011677031007571487,0.0006224686815497274,-0.002836998007939815
2511.88647460938,0.01937106015013333,-0.00012801571464187393,0.0008400301061737281,-0.0022898745508307737
2290.86767578125,0.01937177941977481,-0.00014033967217494248,0.0011484043377588092,-0.002844016138073643
2089.29614257813,0.019372643517116393,-0.00015384425137383872,0.0009665466712510916,-0.0024485327369366387
1905.46069335938,0.019373681483455068,-0.00016864075257337543,0.0010563862450793694,-0.0019075763451576755
1737.80078125,0.019374928137888048,-0.00018485040482039814,0.000995839646686647,-0.0018614912273724983
1584.89318847656,0.019376425208991004,-0.00020260507558742563,0.001172913374846405,-0.0016457125716031256
1445.43981933594,0.019378222678316504,-0.00022204796513116619,0.0012279638689884041,-0.0011123569562056662
1318.25671386719,0.0193803803746404,-0.0002433342739450553,0.0008281739179792011,-0.0011506087027000553
1202.26440429688,0.019382969856755725,-0.0002666317953665393,0.0007659284477400247,-0.0010229879620421393
1096.47814941406,0.019386076630542884,-0.0002921213968380661,0.001100628898928785,-0.0007638086322418661
1000.0,0.01938980274830602,-0.0003199973279512619,0.0009641220513417204,-0.0005382187218307619
912.010864257813,0.019394269838021703,-0.0003504672734814452,0.0005960396221146025,-0.0003627136896719097
831.763793945313,0.01939962261032896,-0.00038375204558388737,0.001017710349081359,-0.0003434074827076163
758.577575683594,0.019406032883493005,-0.0004200847844707347,0.0006910275154987031,7.37359139953653e-05
691.830993652344,0.01941370415514874,-0.00045970950156239983,0.0005726032984869414,1.3197329856600153e-05
630.957336425781,0.019422876721833564,-0.0005028787482194007,0.0005136105032904625,6.909487362579932e-05
575.43994140625,0.019433833313172458,-0.0005498501628173697,0.0005150154503041592,-4.707613657256972e-05
524.807434082031,0.019446905144825853,-0.0006008815859718855,0.0006951386121663537,-0.00018744272774038554
478.630096435547,0.019462478212255285,-0.0006562243977718673,0.000554359383124186,0.00022868909238193274
436.515838623047,0.019480999529082603,-0.0007161146903449201,0.00046117414506180454,6.680791843287988e-05
398.107177734375,0.019502982851884277,-0.0007807618662684635,0.00019665842952477572,-0.00014174640681296352
363.078063964844,0.01952901324671571,-0.0008503343060461689,7.027229708501254e-05,4.4434090346231136e-05
331.131134033203,0.0195597496037748,-0.0009249418141951942,0.00017739014377859963,0.00028121032689900575
301.995178222656,0.019595923942034226,-0.0010046147509434455,0.00013592384428262605,2.4507287800854547e-05
275.422882080078,0.0196383360826337,-0.0010892800771324586,-7.381401425959888e-05,-0.00014002005510695863
251.18864440918,0.01968784207350019,-0.0011787350378499402,0.00012482466048008983,0.00040015568066965987
229.086761474609,0.019745334647561282,-0.0012726198399503168,5.306642499088368e-05,0.0005736290261084832
208.929611206055,0.019811714150010474,-0.0013703915054877841,-0.0002912859544168256,0.000441915775000516
190.54606628418,0.019887848911109035,-0.0014713020219175542,-0.0001600839521264663,0.00028574686342044573
173.780090332031,0.019974524923002602,-0.0015743846982593543,-8.679290827519684e-05,0.00014805030302444564
158.489318847656,0.02007238625248067,-0.0016784533104833108,-0.0002393213782728304,0.00017314786641188908
144.543975830078,0.020181869380900705,-0.001782118537594549,-9.426359014769528e-05,7.145413277575099e-05
131.825668334961,0.020303136932037884,-0.0018838254931406507,-0.00042384929738181754,3.654582323264939e-05
120.226440429688,0.020436018093330736,-0.00198191424356008,-0.00018853010346186333,3.481170638292008e-05
109.647819519043,0.020579964373499456,-0.002074702424831636,-0.0002302075882849447,-3.721589771653582e-05
100.0,0.020734029354614783,-0.002160585498338024,-0.0001699659059815166,-0.0001188728622100242
91.2010803222656,0.020896879560695608,-0.002238146545550219,-0.0005505591859951905,-0.000364287341198319
83.1763763427734,0.021066840319002043,-0.002306264518112555,-0.00020631817165575606,-0.0001401802714026553
75.8577575683594,0.021241976004339656,-0.0023642083924723676,-0.0002907346372828454,-0.0002305886537296675
69.1830978393555,0.021420199126622685,-0.0024117051972737166,-0.0002855419361377162,1.192000930108324e-05
63.0957336425781,0.021599398117684295,-0.0024489725951142675,-0.00018962180969820525,-0.0001629251532294677
57.5439949035645,0.02177757075978893,-0.0024767110827694037,-0.00025925920353757,-0.00027908154347340347
52.4807472229004,0.021952949127359678,-0.0024960562255022982,-0.00031280737538782327,-0.0004511044494597983
47.8630104064941,0.022124103358614203,-0.0025084964796645267,-0.0002625388143183971,-4.732220952642684e-05
43.6515846252441,0.0222900147265553,-0.002515766235386294,1.5349192058998484e-05,-5.605646999679373e-05
39.810718536377,0.02245011295103541,-0.002519725970762201,1.0389116640009688e-05,-9.773826210430093e-05
36.307804107666,0.022604277266550482,-0.0025222417698248,-2.74573430534171e-05,7.1430313394000786e-06
33.1131134033203,0.022752804920697284,-0.002525074933914653,5.143159689908333e-05,-0.0002507430643571532
30.1995162963867,0.022896353531799377,-0.0025297899010995563,2.5157261810376808e-05,-7.639333861275644e-05
27.5422878265381,0.02303586536766971,-0.0025376854202305717,-5.099831800789434e-06,-6.591619165297177e-05
25.1188640594482,0.0231724816634593,-0.002549751074599511,6.072290980200026e-05,-0.0001181169595443109
22.9086761474609,0.023307454496358994,-0.0025666486404745097,-4.9789712096105776e-05,2.123299726259015e-05
20.8929615020752,0.02344206239362595,-0.0025887161469583158,9.789022882815065e-05,2.1784289317884273e-05
19.0546073913574,0.02357753453613346,-0.0026159913696320166,-4.3778737773239595e-05,-3.344970270711652e-05
17.3780078887939,0.02371498710399256,-0.0026482509876680728,3.4901398955622387e-06,5.348729054827431e-06
15.8489322662354,0.023855374250712307,-0.002685061324916938,-9.109912425049257e-05,-6.069489248863771e-05
14.4543981552124,0.02399945521730923,-0.002725836513564548,-3.668589513756981e-05,4.4756876304152034e-05
13.1825675964355,0.024147778240286553,-0.002769899791549467,-9.583732739764858e-05,1.0475046489732878e-05
12.0226440429688,0.024300680959914656,-0.002816543707392619,-4.333863189364198e-05,-3.800031519631897e-05
10.9647817611694,0.024458306074237903,-0.0028650851453521278,-0.00010068325688829607,1.914589676467243e-05
10.0,0.024620629973680103,-0.0029149115152892974,-0.00016526678952539717,-0.00010487521740179745
9.12010860443115,0.024787501173541837,-0.002965515192884012,-6.232902176586327e-05,-6.079761526271189e-05
8.31763744354248,0.024958684663104497,-0.003016514252836597,-2.2065271807203413e-05,-5.538111176599681e-05
7.58577585220337,0.02513390789725113,-0.003067658812843918,-5.391602419086913e-05,-3.125431864781786e-05
6.91830968856812,0.025312904184861058,-0.003118823550160745,-2.3050317363843692e-05,-3.916471030914479e-05
6.30957365036011,0.025495449653191414,-0.0031699882327526608,-5.347597010628424e-05,-5.390397002406075e-05
5.75439929962158,0.02568139077052497,-0.0032212091016833814,-4.2133621126230064e-05,-5.481339649018131e-05
5.24807453155518,0.025870660477576038,-0.0032725846747683526,2.2053876218536272e-05,-6.196357198352473e-06
4.78630113601685,0.026063282197791,-0.003324219849977164,-5.2990236801199464e-05,-3.441109796196388e-05
4.36515855789185,0.026259362224173168,-0.003376192139320504,-4.9304690528332445e-05,-1.773816146750408e-05
3.98107171058655,0.026459072100164065,-0.0034285234014833936,-0.00011390043592293675,3.127244232640656e-05
3.63078045845032,0.026662623510481737,-0.003481159719813591,-2.168491411026416e-05,-9.967064223069099e-05
3.3113112449646,0.026870238810430953,-0.0035339610885829747,-5.2478880036847114e-05,-1.7444207519474834e-05
3.01995182037354,0.027082120600358046,-0.0035867015218303813,-7.453973291775273e-05,5.1654936565318724e-05
2.75422859191895,0.027298423692844055,-0.0036390790967259627,1.5918615080545706e-06,-9.096826147186269e-05
2.51188635826111,0.02751923244244338,-0.0036907344729300933,-5.372349375011923e-05,-5.0857164770093475e-05
2.29086756706238,0.02774454576150553,-0.003741275608523433,4.178394750732964e-05,-2.949111720803319e-05
2.0892961025238,0.027974271297743835,-0.0037903058314086788,-2.5044113108566024e-05,3.649001295242139e-05
1.90546071529388,0.02820822928528148,-0.0038374521412945237,0.0001155227092917814,0.00013579021980397645
1.73780083656311,0.02844616558935205,-0.0038823906562301643,5.51806070999486e-05,0.00010687091881303543
1.58489322662354,0.0286877725423689,-0.00392486643173953,2.202779185299375e-06,5.180459341736984e-05
1.44543981552124,0.028932715393658104,-0.003964705470318667,-8.714757804496182e-06,-2.5442879016366292e-05
1.3182567358017,0.02918066164643788,-0.0040018175305734476,3.2716074707776766e-06,-2.374253663524773e-05
1.20226442813873,0.02943131026823613,-0.004036189234510338,-6.604309182077148e-05,9.477892264362145e-06
1.09647822380066,0.0296844177725474,-0.004067867939053199,-3.996222887830275e-05,-1.2117848424399169e-05
1.0,0.02993981845555633,-0.004096937693859259,-0.00019247338297037273,-5.40060197825893e-06
0.912010848522186,0.03019743661192653,-0.004123489371382558,-4.3758500540270334e-05,-4.3982638859157985e-05
0.831763744354248,0.03045728927864078,-0.004147587589202228,-9.483905123231981e-05,-0.000126009586481228
0.758577585220337,0.03071947889292636,-0.0041692373231899905,2.510192636660802e-06,-6.391432889829053e-05
0.691830992698669,0.030984176120480402,-0.004188353153871531,7.953292449802002e-06,-1.8975278308309626e-06
0.630957365036011,0.031251593926550955,-0.004204733853789681,0.00010002913475235659,2.1227078882319478e-05
0.575439929962158,0.03152195466067634,-0.004218044590754486,-1.0854477621662084e-05,4.873667602421378e-05
0.524807453155518,0.03179545244617968,-0.004227808402841016,6.350046439677903e-05,0.00015465057828548383
