freq,mu_Z_re,mu_Z_im,Z_re_res,Z_im_res
10000.0,0.010933027036219305,-4.212284585071136e-06,-0.013683272160858495,-0.02746579321672547
9120.1083984375,0.010933028641489272,-4.6186720008191135e-06,-0.011779058617207329,-0.026123634782897916
8317.6376953125,0.010933030571330035,-5.0642649891254175e-06,-0.010534694243680965,-0.02403439182148003
7585.77587890625,0.010933032891337464,-5.552845421617968e-06,-0.008763374128754536,-0.022731134968224317
6918.3095703125,0.010933035680353042,-6.088559848859437e-06,-0.004089037260711758,-0.02119430670641146
6309.5732421875,0.010933039033134157,-6.6759546252883e-06,-0.004504396325628542,-0.02009989903466429
5754.3994140625,0.010933043063561491,-7.3200144095245525e-06,-0.0053128547957734095,-0.017876941529683523
5248.07470703125,0.010933047908490891,-8.026204355644068e-06,-0.0022224944055617077,-0.010877380213983944
4786.30078125,0.010933053732378916,-8.80051634634296e-06,-9.340694500638465e-05,-0.016886345560172444
4365.158203125,0.010933060732837273,-9.649519660141575e-06,-0.00014760478103582712,-0.010935966011919642
3981.07177734375,0.010933069147302566,-1.0580416479956856e-05,-0.001796244077251534,-0.010361687872269956
3630.78051757813,0.010933079261045083,-1.1601102697681318e-05,0.002493589620749583,-0.009663586122143082
3311.31127929688,0.010933091416786748,-1.2720234518926968e-05,-0.002104460708965252,-0.008387253850525227
3019.95166015625,0.010933106026252087,-1.3947301397114721e-05,-0.0005631687058012137,-0.008692359366307014
2754.22875976563,0.01093312358404442,-1.529270589993329e-05,-0.00855715194796278,-0.012395759502357735
2511.88647460938,0.010933144684315894,-1.6767851111560248e-05,-0.0006772636292565054,-0.00886574140101396
2290.86767578125,0.010933170040801531,-1.8385236281138854e-05,0.0004900730603490319,-0.009288245809394038
2089.29614257813,0.010933200510894745,-2.015856143966485e-05,0.005265758520668245,-0.007395749995977965
1905.46069335938,0.010933237124590668,-2.2102841761213033e-05,0.0002180607732222683,-0.008856741474595113
1737.80078125,0.010933281119267701,-2.4234532482366077e-05,0.00029582177410580196,-0.007754465687192366
1584.89318847656,0.01093333398150238,-2.6571665235133242e-05,0.004624208874720679,-0.0034400351422804332
1445.43981933594,0.010933397497295804,-2.9133996685793736e-05,-0.0005113601952200959,-0.005592007088234393
1318.25671386719,0.010933473812433016,-3.1943170435396206e-05,0.0018223990816791154,-0.004616157820529896
1202.26440429688,0.010933565504946266,-3.5022893048076005e-05,0.0023537292779465657,-0.004868149799353576
1096.47814941406,0.010933675672092214,-3.839912511898884e-05,0.0030328350692771146,-0.0033414978502739885
1000.0,0.010933808034708184,-4.210028821819632e-05,0.004081839679231384,-0.0022395722011683966
912.010864257813,0.010933967062328062,-4.61574884494369e-05,0.0014433625499346622,-0.0004462231947937369
831.763793945313,0.010934158123137864,-5.0604757158460385e-05,0.0019242389938258636,-0.002885360451652061
758.577575683594,0.010934387663547535,-5.5479309133389096e-05,-0.001359458682890365,-0.0002300330538610891
691.830993652344,0.010934663423086735,-6.0821818130890474e-05,-0.0008326429419859647,-0.0013347995047818906
630.957336425781,0.010934994691328201,-6.667670906148262e-05,0.002193549783245801,0.0004853766796123174
575.43994140625,0.010935392614723628,-7.309246539566554e-05,0.002890851732613029,-0.0009656394828246656
524.807434082031,0.010935870562557834,-8.012194920799877e-05,0.0025207610846206333,-0.0012312638926179986
478.630096435547,0.010936444562725155,-8.782273000058736e-05,0.003293848533980055,-0.0016211213667871873
436.515838623047,0.010937133819597657,-9.625741615335281e-05,0.003696355053025257,0.0001170926513438472
398.107177734375,0.010937961328004476,-0.0001054939806297858,0.003354928500180175,-0.0001249752007086732
363.078063964844,0.010938954599070764,-0.00011560606917113726,0.0028339783324482642,-0.0011805713377681373
331.131134033203,0.010940146515255442,-0.00012667327476609925,0.0030982232411556412,-0.0002535769622533993
301.995178222656,0.010941576333220028,-0.00013878135659843946,0.002622578413660627,-0.0009343634331330395
275.422882080078,0.010943290853913153,-0.0001520223749239045,0.002926171833689553,-4.93053165983045e-05
251.18864440918,0.010945345778883855,-0.00016649470453498016,0.004299142436058756,5.482274355519842e-06
229.086761474609,0.010947807269785118,-0.00018230287877043602,0.003186101137343418,0.000576604995344364
208.929611206055,0.010950753723520845,-0.00019955720353246521,0.0029197021175810453,-0.00046169776186646527
190.54606628418,0.010954277767213487,-0.0002183730659220217,0.0032930529586695876,-0.0002555693183006568
173.780090332031,0.010958488463920389,-0.000238869846023922,0.001872581794422989,-0.000134578910754922
158.489318847656,0.010963513699694482,-0.00026116932301387845,0.0031843713460107826,-3.109735868947846e-05
144.543975830078,0.01096950269347096,-0.00028539345056874344,0.0022248624176350595,0.00043561186485795655
131.825668334961,0.010976628531527335,-0.00031166136456375274,0.004072659314435535,-0.0007630862221652527
120.226440429688,0.010985090575613648,-0.0003400854810501532,0.0057156567382297485,-0.00020192029919825321
109.647819519043,0.01099511652798838,-0.00037076655149847066,0.0016975127867002796,0.00037810649649782936
100.0,0.011006963859520828,-0.00040378757334720073,0.003263654141895528,-0.0004966233137080978
91.2010803222656,0.011020920223310178,-0.0004392065156109149,0.0005406737166787773,0.0007618865648425852
83.1763763427734,0.011037302394312784,-0.0004770479195212668,-0.0004924422084270162,0.0004319492813738332
75.8577575683594,0.011056453213407806,-0.0005172935827936287,-0.0005438148599721943,-0.00032667408709632874
69.1830978393555,0.011078735992267568,-0.0005598727326655655,-0.0008272852823587324,-6.53639614397655e-05
63.0957336425781,0.011104525881526078,-0.0006046523300354794,0.0002178958381386792,0.0002730644813383206
57.5439949035645,0.011134197847334288,-0.0006514284035095676,-0.000816816552194212,0.0004195853395482324
52.4807472229004,0.01116811115933788,-0.0006999195470594603,-0.001357986548112521,0.0007408632513946397
47.8630104064941,0.011206590676541622,-0.0007497638782240081,-0.0007179825437709786,-7.967437540520818e-05
43.6515846252441,0.0112499057005483,-0.0008005207798609796,-0.0022566567484897,-0.0062494796163567795
39.810718536377,0.011298247700400672,-0.0008516785844217059,-0.0021889478956982275,0.001148697764893294
36.307804107666,0.011351708715005588,-0.0009026689704966933,-0.0003043269541424115,-0.0005283978144631934
33.1131134033203,0.011410262608078467,-0.0009528882342388121,-0.0007577527453031339,-7.820631209741209e-05
30.1995162963867,0.011473751486628292,-0.0010017248280664098,0.0006554302287985914,0.0003663854729065903
27.5422878265381,0.011541879431140475,-0.0010485917263919273,-1.4419040846725198e-05,-0.00010513471712122731
25.1188640594482,0.011614215200569216,-0.0010929614124797424,-0.0006301695352534838,-0.00028446957524644236
22.9086761474609,0.011690204807044465,-0.0011344007136126339,-0.00023595073032243487,-0.00043725832726933386
20.8929615020752,0.011769193901501425,-0.0011726024483720552,-0.0004089067440406751,-0.0002943211391027552
19.0546073913574,0.011850458900309183,-0.0012074109459090663,-0.00046133962007701736,-0.0003959183291327663
17.3780078887939,0.011933244861661517,-0.0012388389468194975,-0.0002700359523304819,-0.00047497288594049755
15.8489322662354,0.012016807411063195,-0.0012670741370627205,-0.00016802017743540454,-0.00012183410122342062
14.4543981552124,0.012100455606460062,-0.0012924744970852476,-0.00039540019434743806,-0.0003490701075399476
13.1825675964355,0.012183592562988788,-0.0013155526424833762,-0.001190753745421413,-0.00029960707193997624
12.0226440429688,0.012265750913313648,-0.001336950266694225,-5.29133170926524e-05,-0.00021381144687312504
10.9647817611694,0.012346620704967361,-0.0013574045679785544,-7.336117700873848e-05,-0.00019166612227195434
10.0,0.012426068049961058,-0.0013777090796738844,-0.0003529601049485423,-5.24594077378844e-05
9.12010860443115,0.012504143643016078,-0.0013986715952106997,-8.019152767012143e-05,-0.00017450173834209978
8.31763744354248,0.012581081063065557,-0.00142107188673169,2.7955443177256692e-05,-0.00018314499845209
7.58577585220337,0.01265728548295755,-0.0014456216991590124,6.759613878984903e-05,-7.444839465341234e-05
6.91830968856812,0.012733313980915555,-0.0014729291121255005,-9.30356053328446e-05,-4.196396700700041e-05
6.30957365036011,0.012809849041812982,-0.0015034688701060118,-8.821052003561876e-05,-0.00011783433790771183
5.75439929962158,0.012887667053858564,-0.0015375597496838879,-8.093087979143578e-05,-4.4914623847787946e-05
5.24807453155518,0.012967603663445822,-0.0015753495200280332,-0.00010162553703657769,-0.0002834198922593333
4.78630113601685,0.013050517780257913,-0.001616807595949959,4.328568948913647e-06,-6.718881161175885e-05
4.36515855789185,0.013137255862775452,-0.001661725108076295,-0.00022107821660934807,-3.784173031569512e-05
3.98107171058655,0.013228617898252058,-0.0017097218255012413,-7.461168703794263e-05,-6.983739458614143e-05
3.63078045845032,0.01332532625056245,-0.0017602591605302555,-0.0001382659062053506,4.094943242104448e-05
3.3113112449646,0.013427998305626418,-0.0018126583493634617,-0.0003605509238762822,0.0002584091086551381
3.01995182037354,0.013537123610637835,-0.0018661228237915575,-0.00013324357811386398,-6.59048088137576e-05
2.75422859191895,0.013653045986210859,-0.0019197637546150394,-0.00010816333779144205,-4.151918508993931e-05
2.51188635826111,0.013775950892691954,-0.001972627746692963,-0.000165388324434447,2.6430082687036935e-05
2.29086756706238,0.013905858153219564,-0.002023725691206285,-2.8455166403935916e-05,-0.00024858179032018505
2.0892961025238,0.014042619976461014,-0.002072061826307984,-8.462612771978698e-05,-0.00011885021330858368
1.90546071529388,0.014185924080217639,-0.0021166621195919137,-7.327925691526065e-05,4.4277966877086326e-05
1.73780083656311,0.014335301592655534,-0.002156601160339657,-0.00018081825255596672,-0.00015792657019915706
1.58489322662354,0.014490139299582115,-0.002191026835075854,-0.00012406278257498515,-0.00011685155362575403
1.44543981552124,0.01464969571304361,-0.002219182152642517,-4.024617749409133e-05,-0.00017872098122411742
1.3182567358017,0.014813120357523954,-0.002240423686496244,2.2059187124754548e-05,-8.000234670134387e-05
1.20226442813873,0.014979475604470046,-0.0022542362081206017,2.8777362878545584e-05,-0.00011669047906460181
1.09647822380066,0.015147760334213828,-0.002260243200885176,-7.137487570417142e-05,0.0009683301605264241
1.0,0.015316934667197225,-0.0022582130634911284,-0.0001562960747208738,-0.00023775670097552848
0.912010848522186,0.015485944986046735,-0.0022480609406871667,-2.1948650775965167e-05,-5.034548688366688e-05
0.831763744354248,0.01565374846884024,-0.002229846251594372,-3.123988083586146e-05,-9.72553914659717e-05
0.758577585220337,0.015819336374847743,-0.002203766121940656,-9.95668247475573e-06,4.0158531216843724e-05
0.691830992698669,0.01598175536998056,-0.0021701450623795755,-9.189996711473844e-05,2.116522041702455e-05
0.630957365036011,0.016140126251742916,-0.00212942136424874,1.613665478001486e-05,-5.63662472463991e-06
0.575439929962158,0.0162936595333978,-0.0020821308013898644,-0.00017099109755309982,-1.7773522521364292e-05
0.524807453155518,0.01644166747275496,-0.0020288883245064377,-6.629133785740482e-06,0.00012516020774106223
