freq,mu_Z_re,mu_Z_im,Z_re_res,Z_im_res
10000.0,0.029165315569795215,-1.3159661146142127e-05,-0.006162722467028085,-0.021052388547512044
9120.1083984375,0.029165326373959126,-1.4429213472888997e-05,-0.0052290980347150726,-0.01957768318242699
8317.6376953125,0.029165339362524648,-1.5821228335011902e-05,-0.004373873877621955,-0.017966760242889013
7585.77587890625,0.02916535497693672,-1.7347513888672543e-05,-0.0029765503010307816,-0.016340768664334572
6918.3095703125,0.029165373747768827,-1.9021015352635195e-05,-0.002309440071162773,-0.014970485735423035
6309.5732421875,0.029165396312689603,-2.0855924276027394e-05,-0.0021635574898959987,-0.014113165324715328
5754.3994140625,0.02916542343802929,-2.286779757654098e-05,-0.0013546822964382102,-0.01260633683826844
5248.07470703125,0.029165456044687947,-2.5073688497845093e-05,-0.0003896933317044521,-0.011532384593060344
4786.30078125,0.029165495239226506,-2.7492289102372437e-05,-0.00030936109271799406,-0.010305762868976873
4365.158203125,0.029165542351207534,-3.01440869719593e-05,0.00026514440973743336,-0.009563541940346358
3981.07177734375,0.02916559897800095,-3.305153558377672e-05,0.0007956171824515489,-0.009137341581381577
3630.78051757813,0.029165667038570455,-3.623924098677967e-05,0.0007803500855074544,-0.007984779392105979
3311.31127929688,0.02916574883803683,-3.9734165437860876e-05,7.869708880742926e-05,-0.006649342584677361
3019.95166015625,0.029165847145155462,-4.356584949931767e-05,0.0006564910636697625,-0.0062931156481667175
2754.22875976563,0.029165965285320516,-4.7766653825931896e-05,0.0009382262492373152,-0.006164802288641532
2511.88647460938,0.029166107252159342,-5.237202235063993e-05,0.0015953082590486438,-0.0049047679927249396
2290.86767578125,0.02916627784150636,-5.742076757666809e-05,0.0016127064533809597,-0.0046228683364700675
2089.29614257813,0.029166482812118266,-6.295538089736416e-05,0.001165153881859466,-0.004330163193415164
1905.46069335938,0.029166729078683614,-6.902236742179667e-05,0.0012692016373012129,-0.0037354933588692966
1737.80078125,0.029167024942987098,-7.567260688532403e-05,0.0014938624230552977,-0.003299785165995224
1584.89318847656,0.02916738037160607,-8.296174111660828e-05,0.001378521510874968,-0.002866629270118408
1445.43981933594,0.029167807327878336,-9.095058795525501e-05,0.0014538435659526353,-0.002543563209664955
1318.25671386719,0.02916832017003943,-9.97055808362463e-05,0.0012321782320683303,-0.002323441256051946
1202.26440429688,0.029168936126944673,-0.00010929923131980725,0.0013224656517478728,-0.0019444140195838072
1096.47814941406,0.029169675866302053,-0.00011981061294345013,0.0012376932149491537,-0.0016067877095904501
1000.0,0.02917056417250012,-0.00013132585610132935,0.0012407198377785214,-0.0015570240228144293
912.010864257813,0.029171630753367744,-0.00014393865180948408,0.0012963190806802444,-0.0011255089897084841
831.763793945313,0.029172911198957496,-0.00015775074455309435,0.0010458369573192947,-0.0012252175455854943
758.577575683594,0.02917444811798465,-0.0001728724049515055,0.001022904307021049,-0.0008328568250051056
691.830993652344,0.02917629248053599,-0.00018942285032616882,0.001189788343019988,-0.0007371227134172688
630.957336425781,0.029178505198924322,-0.00020753058408305654,0.000960312219230923,-0.0005375928179259565
575.43994140625,0.029181158981317457,-0.0002273336131861628,0.0010450546359957562,-0.00041199284813266276
524.807434082031,0.029184340492735078,-0.0002489794826720121,0.0006837705084182764,-3.48843134594121e-05
478.630096435547,0.029188152857447382,-0.000272625054702876,0.0007666670608765837,-0.000108583046011476
436.515838623047,0.0291927185321173,-0.00029843593412825977,0.0006764129215797998,6.015789065694021e-05
398.107177734375,0.02919818257110989,-0.0003265854269748208,0.000621530983027592,9.132022894747923e-05
363.078063964844,0.029204716285170854,-0.00035725287279329734,0.0004310210546868559,0.0001630484696828027
331.131134033203,0.029212521270632757,-0.00039062117453837715,0.0005922968245744564,0.00015978918649082286
301.995178222656,0.029221833742049057,-0.0004268733040709408,0.0005526105526951555,0.00045316168560635917
275.422882080078,0.029232929041438763,-0.00046618753105365034,0.00025586835091656254,0.0003021155834014497
251.18864440918,0.029246126114103526,-0.0005087310988280373,0.00015649273869722605,0.0003598951893102626
229.086761474609,0.029261791623034144,-0.0005546520478011366,0.0002005579982182447,0.0004684102241961634
208.929611206055,0.029280343239441894,-0.0006040689246138332,9.013261391259408e-05,0.00034323270066026674
190.54606628418,0.02930225146749461,-0.0006570581620013038,1.885643043960869e-05,0.00038547305917239615
173.780090332031,0.029328039167077165,-0.0007136390539226154,2.4698925764163326e-05,0.0003174896357240847
158.489318847656,0.02935827774236454,-0.0007737564755897615,-1.169676651706017e-05,0.00040735659242453856
144.543975830078,0.02939357881644006,-0.0008372618595025867,-2.1454941246539655e-05,0.0003249800520129134
131.825668334961,0.029434580134016237,-0.0009038934008962038,-8.494429125196351e-05,0.00029968409894039617
120.226440429688,0.029481924524897903,-0.0009732570566528556,-0.00021384524703569815,0.0002984426149806443
109.647819519043,0.029536231151856166,-0.001044810611312574,-0.0004238647305596331,0.0003686617347175259
100.0,0.029598058895101975,-0.0011178536658820566,-0.0002683794639201237,0.00025962958189724343
91.2010803222656,0.02966786287029925,-0.001191526923871682,-0.00036589503983315216,0.00028986130600501796
83.1763763427734,0.029745946386946002,-0.0012648241280488856,-0.0002865710015169977,9.169935594271431e-05
75.8577575683594,0.029832412321605203,-0.0013366194987312757,-0.00030643416520169733,7.961608137772424e-05
69.1830978393555,0.029927119303112676,-0.0014057121513384003,-0.0003486278768723254,-1.832649986920022e-05
63.0957336425781,0.030029649107458162,-0.0014708868958238593,-0.00028323176622193844,8.66055223907407e-05
57.5439949035645,0.03013929174349703,-0.0015309881802290756,-0.0003344248135288691,2.738003045162432e-05
52.4807472229004,0.030255053546575768,-0.0015850011624409647,-0.0001945398931224307,-9.338084068296476e-05
47.8630104064941,0.030375691224289576,-0.0016321316772697865,-2.7526076483125328e-05,-3.199027307318643e-05
43.6515846252441,0.03049977136368946,-0.0016718757161216843,-0.0003344005573253407,-0.00013619755015698422
39.810718536377,0.030625751239200954,-0.0017040694759190398,-0.00014371797726504473,-9.03887369633398e-05
36.307804107666,0.030752073279008765,-0.0017289130966662903,-0.00011377478541383518,-0.00013441643859449042
33.1131134033203,0.03087726340556526,-0.0017469645748561598,-7.343373334024045e-05,-0.00023907567753405972
30.1995162963867,0.031000022786812964,-0.0017591043934178075,-0.00010540428463913509,-0.00017848455812310743
27.5422878265381,0.03111930373587151,-0.0017664752504162509,-0.00012418259404159068,-0.00012867698206835078
25.1188640594482,0.031234363042201688,-0.0017704042138327,-0.00011269939652470973,-0.00017638148253600007
22.9086761474609,0.03134478943664268,-0.0017723161281953722,-2.6308575089423192e-05,-4.27368350263723e-05
20.8929615020752,0.031450505349598236,-0.0017736471094633233,-1.8679555692360794e-05,-0.00010337036330952329
19.0546073913574,0.03155174604978384,-0.0017757655834113773,-6.205072738560413e-06,7.391998983322752e-06
17.3780078887939,0.03164902112768109,-0.0017799062349412311,-9.10743386943122e-05,-3.4522164850331024e-05
15.8489322662354,0.031743064115655646,-0.0017871197450431606,4.056495549464856e-07,-8.558141044256052e-05
14.4543981552124,0.03183477578162918,-0.00179823909590991,-1.6359412672417584e-05,-7.578907704951015e-05
13.1825675964355,0.03192516581783606,-0.0018138615280368536,-6.671829452203903e-05,6.085740776946369e-06
12.0226440429688,0.03201529646133927,-0.0018343443068096024,1.9709410424471885e-05,-3.184303812480229e-05
10.9647817611694,0.0321062304557363,-0.001859812071229059,-3.913561691840095e-05,2.0816334841040852e-05
10.0,0.03219898488060256,-0.0018901735573137691,-4.4173787677036225e-05,5.419235387193089e-05
9.12010860443115,0.03229449175025417,-0.0019251457415627889,-1.8970596538027407e-05,6.934232077421124e-05
8.31763744354248,0.03239356598017648,-0.00196428367346993,1.0712650994781914e-05,-5.0697274883329795e-05
7.58577585220337,0.03249688113248925,-0.0020070144347603667,-9.965484821215093e-05,2.1855495894333287e-05
6.91830968856812,0.03260495324546986,-0.0020526736671446053,-4.232491438694447e-05,2.9150333780194812e-05
6.30957365036011,0.03271813286117831,-0.002100543075396255,-3.808396287638405e-05,0.0001213772192908448
5.75439929962158,0.03283660509238567,-0.0021498872205296003,-7.785088767682524e-05,-1.0908884523200355e-05
5.24807453155518,0.032960397190438015,-0.0021999879707073505,-8.062180222438708e-05,1.4500369834349533e-05
4.78630113601685,0.033089392678776336,-0.0022501750852413514,-4.627848978946275e-05,5.529625309034841e-05
4.36515855789185,0.03322335074575844,-0.0022998517677672147,-0.00011458505956225828,-2.2722241022148613e-06
3.98107171058655,0.03336192936548415,-0.0023485144161562365,-0.00021488695493514925,-2.19553735982367e-05
3.63078045845032,0.03350471054702091,-0.002395766323045709,-0.00010723153562259419,-1.696101537430883e-05
3.3113112449646,0.03365122623759362,-0.0024413255220061057,3.4679696141216854e-05,1.5866765969941785e-06
3.01995182037354,0.03380098367741695,-0.002485027344238483,-1.5737612933053313e-05,-1.4426227000082902e-05
2.75422859191895,0.03395348935919827,-0.002526822454940599,2.6857103882470257e-05,-4.5860839720898716e-05
2.51188635826111,0.034108271116994514,-0.002566771179090148,1.756962635391518e-05,-1.893152261794786e-05
2.29086756706238,0.0342648981753087,-0.0026050348259576785,7.960038811920256e-05,5.20214945009213e-05
2.0892961025238,0.034422999189408526,-0.00264186451195113,-2.4693145243372128e-05,0.0002142831964200699
1.90546071529388,0.0345822783730714,-0.00267758774816256,-7.226815598319891e-05,4.7074442140639886e-05
1.73780083656311,0.03474252974718433,-0.0027125928413853136,-7.786298066757291e-05,0.00011275835774978652
1.58489322662354,0.034903649383816716,-0.00274731102763827,0.00018101572397711402,-4.304110921669966e-06
1.44543981552124,0.035065645303944716,-0.002782196205855768,-3.0623796959783345e-05,4.433940276363192e-05
1.3182567358017,0.035228644472864244,-0.002817702257300722,-4.181920239625797e-05,0.0001398599601880779
1.20226442813873,0.035392896160937284,-0.002854258085934362,1.5106872178087538e-05,3.268217355203778e-05
1.09647822380066,0.03555877085284335,-0.0028922408279505305,0.00010501171902754791,5.285330857066929e-05
1.0,0.03572675390465847,-0.0029319479642329425,-5.020396487123019e-05,0.00013354732190385766
0.912010848522186,0.035897433289913794,-0.002973569400736685,-2.0478388638806022e-05,-5.787478958968473e-05
0.831763744354248,0.036071481027910725,-0.0030171608595984875,-8.608602612257543e-05,-7.654452201608748e-05
0.758577585220337,0.036249628233772535,-0.0030626201036657195,0.00011034862981443294,3.2117314330180283e-05
0.691830992698669,0.03643263414696505,-0.0031096676297451996,5.262943065652281e-06,-1.94920487369939e-06
0.630957365036011,0.03662124994047,-0.0031578334228720174,0.00016478049404930473,-6.0960365113175465e-06
0.575439929962158,0.03681617855619162,-0.003206451209028657,0.00011470049213142125,-6.692602275825722e-05
0.524807453155518,0.037018032204593876,-0.003254661342543163,-1.6121733699622776e-05,-4.2503938492962755e-05
