freq,mu_Z_re,mu_Z_im,Z_re_res,Z_im_res
10000.0,0.019139742252718563,-9.111114108174201e-06,-0.008702030631411936,-0.030779222943150573
9120.1083984375,0.019139746918913077,-9.99012005328675e-06,-0.0068685852292812224,-0.028477757060646987
8317.6376953125,0.019139752528838355,-1.0953925204537066e-05,-0.005564463519283146,-0.025623257912349935
7585.77587890625,0.01913975927335246,-1.2010709020050012e-05,-0.00432078350978864,-0.02380256764647615
6918.3095703125,0.01913976738190636,-1.3169439515949531e-05,-0.003461317401766941,-0.022337353395304547
6309.5732421875,0.019139777130345276,-1.4439949177413717e-05,-0.0022332619811497242,-0.020323390865110116
5754.3994140625,0.019139788850285416,-1.5833018108781143e-05,-0.0016305951484661824,-0.01786165551631108
5248.07470703125,0.019139802940385062,-1.7360465155557474e-05,-0.001466344184978336,-0.016777560727225256
4786.30078125,0.01913981987989087,-1.9035247687718507e-05,-0.0005461283876882286,-0.015427727197830117
4365.158203125,0.019139840244919312,-2.087157091004949e-05,-0.00016071370276778824,-0.014273376836086349
3981.07177734375,0.01913986472802363,-2.2885007520136225e-05,0.0001395635904570293,-0.012625597035248735
3630.78051757813,0.019139894161707798,-2.509262869376428e-05,0.0005679753314322966,-0.011811999608671865
3311.31127929688,0.01913992954668368,-2.751314740574548e-05,0.0008006346064504816,-0.010374649443737645
3019.95166015625,0.019139972085823232,-3.016707520805089e-05,0.0008901828329460314,-0.00948422369580585
2754.22875976563,0.01914002322495372,-3.307689359552743e-05,0.0012126410836020216,-0.008787385229078527
2511.88647460938,0.01914008470186333,-3.626724124649031e-05,0.0010357587219153308,-0.0073558400885829905
2290.86767578125,0.019140158605172725,-3.976511838137763e-05,0.0016429357345844262,-0.007010647534152778
2089.29614257813,0.019140247445029988,-4.360010970413905e-05,0.0014037063377330891,-0.0062301785324889395
1905.46069335938,0.019140354238020976,-4.780462729450319e-05,0.001609363473522276,-0.005699099812383603
1737.80078125,0.01914048260906993,-5.24141748845642e-05,0.0017576689914828303,-0.005164388838916964
1584.89318847656,0.01914063691378438,-5.74676349249952e-05,0.001685157783635479,-0.004614219444939195
1445.43981933594,0.0191408223851564,-6.300757980750595e-05,0.0017448882951381015,-0.004028231719199806
1318.25671386719,0.01914104530957075,-6.908060843469081e-05,0.0016901333853277488,-0.003646811459682591
1202.26440429688,0.0191413132376802,-7.573770910482893e-05,0.0016677440978419972,-0.003115093331709229
1096.47814941406,0.019141635236991472,-8.30346494210735e-05,0.0017825703450570739,-0.0027996234371555732
1000.0,0.019142022194180437,-9.10323931131348e-05,0.0015972422676419386,-0.002449295053094935
912.010864257813,0.01914248717650892,-9.979754330451763e-05,0.0015578559570026199,-0.0021408377645337176
831.763793945313,0.019143045863531168,-0.00010940281020119618,0.0014312648982029684,-0.0019214662005901963
758.577575683594,0.019143717061927013,-0.0001199275002400106,0.001458946313907812,-0.0016318994321445105
691.830993652344,0.019144523318562885,-0.00013145802126175656,0.0014788055677751842,-0.0013107518670418565
630.957336425781,0.019145491649001072,-0.00014408839572224954,0.0014481685353211725,-0.0010586941375769496
575.43994140625,0.01914665440115453,-0.000157920770603016,0.0013658773342085304,-0.000827070918190016
524.807434082031,0.019148050276174406,-0.00017306590796314903,0.001298886192574407,-0.000657751641644649
478.630096435547,0.019149725530879205,-0.00018964363392794047,0.0012239657534525057,-0.0005249012216494405
436.515838623047,0.01915173538784163,-0.000207783216293536,0.0010974083916344309,-0.000387947772079636
398.107177734375,0.019154145680283757,-0.0002276236315891862,0.0010619455202571584,-0.0002799735863744997
363.078063964844,0.019157034758283967,-0.0002493136700060991,0.0009760851448319674,-0.00010369274162739907
331.131134033203,0.019160495679994834,-0.0002730118123227249,0.000837778281589735,-2.9498171142324902e-05
301.995178222656,0.01916463870509486,-0.0002988857953853968,0.0008206927399239602,0.00025747449453470317
275.422882080078,0.0191695940961585,-0.00032711176271226264,0.0006053195615754008,0.00022140894481303736
251.18864440918,0.019175515215106752,-0.00035787287487687425,0.0006277325406749516,0.00022172420431812575
229.086761474609,0.019182581873484414,-0.0003913572307693035,0.0005686138289650138,0.00029495201138609646
208.929611206055,0.01919100385534559,-0.0004277549301959582,0.00044397030401029103,0.00037893386653284176
190.54606628418,0.019201024476601523,-0.0004672540925357826,0.0003318628707665236,0.00043443170227961737
173.780090332031,0.01921292397282606,-0.0005100356415691464,0.0002420358648109605,0.0004435384412449536
158.489318847656,0.01922702241842946,-0.0005562666816153927,0.0002561790138979614,0.0004644280519819073
144.543975830078,0.019243681777476325,-0.0006060923363160747,0.00011751239395052515,0.0004786039323467252
131.825668334961,0.019263306575953747,-0.0006596260084655368,9.332032793734832e-05,0.00045526932600166306
120.226440429688,0.01928634258065463,-0.0007169381591514498,1.2893845179131475e-05,0.00040783198857445027
109.647819519043,0.019313272796681026,-0.0007780439088881038,-3.2655186841375194e-05,0.00035637462429549617
100.0,0.019344610077062126,-0.0008428900260089107,-0.00016141225703667286,0.0003855215395257893
91.2010803222656,0.019380885719166387,-0.000911342183138481,-0.00027515964318691397,0.00013776254559741906
83.1763763427734,0.019422633627109536,-0.0009831736897812867,-0.0002111959665488626,0.00030472191425541333
75.8577575683594,0.01947036998230504,-0.0010580572026490675,-0.0003063002799124602,0.0002857342868402325
69.1830978393555,0.019524568879232686,-0.0011355610981388068,-0.00021691974140611303,0.00017304351108239331
63.0957336425781,0.01958563502104808,-0.0012151521883131773,-0.00032495570210882077,0.00021438651986692273
57.5439949035645,0.01965387525435687,-0.001296206203726601,-0.00035299000862832816,0.00018484733209989893
52.4807472229004,0.019729471345568978,-0.0013780269202369052,-0.00026080147442692284,7.44920560565947e-05
47.8630104064941,0.01981245683230739,-0.001459873989854636,-0.00022349922261851243,0.00018034059491316406
43.6515846252441,0.01990270090202376,-0.0015409985284253554,-0.00039234536786984103,-3.435597353875527e-05
39.810718536377,0.019999901982465054,-0.0016206844472973292,-0.00029510703452564555,1.939509569717085e-05
36.307804107666,0.02010359304858234,-0.0016982925589522997,-0.00037082222389196035,-4.156073549309975e-05
33.1131134033203,0.020213159626996036,-0.0017733037978693632,-0.00027525714906506335,-0.00012889383773356322
30.1995162963867,0.02032787022604374,-0.0018453576065544978,-0.00027248407290545937,-8.218504245779772e-05
27.5422878265381,0.02044691761120543,-0.0019142817038543512,-0.0002445181728960716,-9.09679367639513e-05
25.1188640594482,0.02056946815318595,-0.001980110071670149,-0.00022237165503964998,-0.00017924234278124916
22.9086761474609,0.020694715558671486,-0.002043086987729543,-0.00020574253878641313,-0.00013881113733674308
20.8929615020752,0.020821934755574027,-0.0021036561753971818,-0.00013957339929507317,-0.00014267337400458192
19.0546073913574,0.02095053160620555,-0.0021624354769538435,-0.0001186523394502495,-0.0001331157174955435
17.3780078887939,0.02108008444713079,-0.002220178742152812,-9.617551757371001e-05,-0.00013894496690971224
15.8489322662354,0.021210374157378926,-0.002277727715585356,-0.00010584868912907192,-0.0001100481133051558
14.4543981552124,0.021341400434580743,-0.002335957517664788,-5.877927938375757e-05,-0.00010808956418558802
13.1825675964355,0.021473383108216858,-0.0023957197764367406,-9.006117836804148e-05,-0.00011346654272094067
12.0226440429688,0.021606748517608226,-0.0024577875701672844,-2.1022219205274473e-05,-5.370360668378437e-05
10.9647817611694,0.021742102125192547,-0.002522806098727592,-5.765781412035362e-05,-4.1203500745992053e-05
10.0,0.02188018953008399,-0.002591252463755164,2.4870611259789066e-05,-3.477572172606424e-05
9.12010860443115,0.022021848827118953,-0.002663407168371494,-2.1833807711545833e-05,-2.5833650512593724e-05
8.31763744354248,0.022167957778271213,-0.00273933902587231,-5.64144745506881e-05,8.25744849209005e-06
7.58577585220337,0.022319379510287785,-0.0028189041715987913,-9.58585559891409e-06,2.013699250508552e-06
6.91830968856812,0.022476910427239,-0.0029017588793898404,-6.192289290180009e-05,3.303715776255961e-05
6.30957365036011,0.022641233752652257,-0.002987384963728068,-3.00708905018425e-05,3.679242921653201e-05
5.75439929962158,0.022812881629289405,-0.0030751257514595506,-4.377855795499597e-05,3.7120996600349416e-05
5.24807453155518,0.022992208051300405,-0.0031642299820771567,-7.100458183249489e-05,3.365793031544304e-05
4.78630113601685,0.023179374136098416,-0.00325390056232749,-9.71970482982823e-05,6.402272273951012e-05
4.36515855789185,0.023374346414934192,-0.003343344880986746,-8.433558570290767e-05,8.441253493375383e-05
3.98107171058655,0.023576907985169628,-0.00343182337687414,-6.625225369237195e-05,4.4933248003259894e-05
3.63078045845032,0.023786681572122444,-0.003518693241669087,-0.00010191569276345527,4.652738626461294e-05
3.3113112449646,0.024003162837341253,-0.003603444503076405,-6.79531630726482e-05,6.334639767549468e-05
3.01995182037354,0.024225761678751224,-0.0036857262489830376,-4.82746095101759e-05,2.7375365283562568e-05
2.75422859191895,0.02445384882335241,-0.0037653613793070186,-6.164960618438783e-05,2.5209975022481585e-05
2.51188635826111,0.024686804733045596,-0.0038423489763558896,-4.0230580799105464e-05,0.00014084410079111048
2.29086756706238,0.024924067737513968,-0.003916854121252318,-4.3684659546433524e-05,9.074845491398222e-05
2.0892961025238,0.02516517837458262,-0.003989185716579953,-1.9246219462077524e-05,0.00011850563101904743
1.90546071529388,0.025409817149608212,-0.0040597635649929145,-0.00010003762903918606,3.539124942918571e-05
1.73780083656311,0.025657833304564504,-0.004129076564532364,-0.00017888030751509604,0.000126284359175036
1.58489322662354,0.025909262692075975,-0.004197634386805503,-9.846890825025711e-06,0.00010883751979679727
1.44543981552124,0.02616433345080952,-0.004265915375897538,-0.0001093269109572817,0.00015664495830806143
1.3182567358017,0.026423458845082317,-0.004334313635459511,-0.00010323627227208296,2.2545616397289664e-05
1.20226442813873,0.02668721732733935,-0.004403088337216778,-4.084090651785069e-05,8.841128792952142e-05
1.09647822380066,0.026956320573764386,-0.004472318201052457,3.6793594437187216e-05,0.00013786917300284262
1.0,0.02723157089429184,-0.004541863853476585,-7.259975893215975e-05,7.174939066951526e-05
0.912010848522186,0.027513809998743022,-0.004611340397177162,3.5208959503207904e-06,3.445609551863769e-05
0.831763744354248,0.027803861581421074,-0.0046801020276774526,7.693939719217308e-05,5.2290234989947615e-05
0.758577585220337,0.028102470545280832,-0.004747239944349779,0.00013218073378883088,8.873634337272073e-05
0.691830992698669,0.028410241907846683,-0.004811594153235707,0.00023380384446358357,3.012280683679317e-05
0.630957365036011,0.028727582503858616,-0.0048717790735464525,0.00028808492869481644,0.0001089340554970477
0.575439929962158,0.029054648522866267,-0.004926222176801669,0.00033655138744166646,1.4824992466431174e-05
0.524807453155518,0.029391301697238005,-0.004973214234625723,0.00010861819063000613,-0.0002052561598176227
