freq,mu_Z_re,mu_Z_im,Z_re_res,Z_im_res
10000.0,0.0194455548947581,-9.279949274635139e-06,-0.0088943284178249,-0.030577641231623237
9120.1083984375,0.019445560602366713,-1.017523656665451e-05,-0.006706662746250886,-0.02823800367961705
8317.6376953125,0.019445567464286023,-1.1156891454926461e-05,-0.005055586734956576,-0.025893574227561226
7585.77587890625,0.019445575713936916,-1.2233243946933986e-05,-0.004143776431854183,-0.024206714095239532
6918.3095703125,0.019445585631929635,-1.341342691051265e-05,-0.0033867987010848637,-0.022202419636284013
6309.5732421875,0.019445597555598257,-1.470745325892036e-05,-0.0024898821598682425,-0.01953105815471022
5754.3994140625,0.019445611890460335,-1.612630053566639e-05,-0.001370250452254966,-0.018317203487596967
5248.07470703125,0.019445629123987996,-1.768200351405548e-05,-0.0009374085027553034,-0.016561988654271855
4786.30078125,0.01944564984215805,-1.9387755633754077e-05,-0.0006465990744679503,-0.015137593675495555
4365.158203125,0.019445674749338466,-2.1258020003671207e-05,0.0004056955448029642,-0.013449513004322872
3981.07177734375,0.019445704692184047,-2.3308650893819194e-05,0.00013440328198584608,-0.01211850948010172
3630.78051757813,0.01944574068834661,-2.5557026626189344e-05,0.0005703913753259092,-0.01174374637043629
3311.31127929688,0.01944578396096923,-2.802219490179426e-05,0.00040108295098043034,-0.010337095337609093
3019.95166015625,0.019445835980122863,-3.072503157900199e-05,0.0011623216741736622,-0.009711692809546401
2754.22875976563,0.019445898512583118,-3.368841408665564e-05,0.0011797552352956174,-0.008799370060850856
2511.88647460938,0.01944597368161035,-3.693741057080354e-05,0.0009308655283863515,-0.007716984248347704
2290.86767578125,0.01944606403874767,-4.049948611990295e-05,0.0012121165828646724,-0.007109104182661904
2089.29614257813,0.01944617265002039,-4.440472724831203e-05,0.0013819903983285885,-0.006083797861663413
1905.46069335938,0.019446303199423625,-4.868608590051213e-05,0.0016182000445259248,-0.005764293751379612
1737.80078125,0.01944646011309342,-5.337964416536581e-05,0.0016991603674145171,-0.005127536092410366
1584.89318847656,0.019446648708295117,-5.852490082881821e-05,0.0016900115224831175,-0.0045275582315077185
1445.43981933594,0.019446875372022356,-6.416508067264174e-05,0.0015943548018633562,-0.003953371877557141
1318.25671386719,0.01944714777507557,-7.034746716777897e-05,0.0015889256481147716,-0.003689785271613379
1202.26440429688,0.019447475128395918,-7.712375890332499e-05,0.001633159272892818,-0.003113739197662625
1096.47814941406,0.0194478684897653,-8.455044916681604e-05,0.001530097597383602,-0.002776320887271616
1000.0,0.019448341130453562,-9.268922775046731e-05,0.0017268054924788612,-0.0024069615644122674
912.010864257813,0.019448908972897017,-0.00010160740227317651,0.0015800381036181164,-0.0020942952180734767
831.763793945313,0.01944959111256473,-0.00011137833542427359,0.001549494860004129,-0.0018146219216589735
758.577575683594,0.019450410438982622,-0.00012208189172544637,0.001647350548116322,-0.0015096862875843464
691.830993652344,0.019451394373279553,-0.00013380488484020386,0.001501314038139353,-0.0013112903350111038
630.957336425781,0.019452575741892547,-0.0001466415128250739,0.0013872572766597466,-0.001165417721918674
575.43994140625,0.019453993808390208,-0.00016069376373976647,0.0013843391052499078,-0.0008910412341200665
524.807434082031,0.019455695487417202,-0.00017607176753703976,0.0013514961673393028,-0.0005888698176295397
478.630096435547,0.019457736766334145,-0.0001928940622241451,0.0011942179560619458,-0.0004939825015247451
436.515838623047,0.019460184360784536,-0.000211287732492053,0.0011194812608185355,-0.000422178235277353
398.107177734375,0.01946311762921052,-0.0002313883660146475,0.0010326424836321207,-0.00016771387069201772
363.078063964844,0.019466630767789497,-0.00025333975790418233,0.0009392533709674973,-5.0937590998382344e-05
331.131134033203,0.019470835299677268,-0.0002772932756035608,0.0008853508247798694,5.650920790663917e-05
301.995178222656,0.019475862859448675,-0.00030340677609870065,0.0009195343690721752,0.00025562920357819933
275.422882080078,0.01948186825312757,-0.00033184294511459677,0.0009200058440127709,0.0002224121483332032
251.18864440918,0.01948903274317763,-0.00036276690436352866,0.0006634439953186293,0.0002673592557402713
229.086761474609,0.019497567464735487,-0.0003963429131920624,0.0006820314127468849,0.00042590223016183764
208.929611206055,0.019507716820512926,-0.00043272997672016804,0.00047657959250082746,0.000323310296979732
190.54606628418,0.019519761625543922,-0.00047207617115196466,0.00026056026281482195,0.0003787967804077353
173.780090332031,0.01953402167932783,-0.0005145115170844522,0.0002286006398657288,0.0005648417539677477
158.489318847656,0.019550857336364094,-0.0005601392857677381,0.00025035740538629364,0.0005137204626627619
144.543975830078,0.01957066953297143,-0.0006090257207363896,7.021650786882827e-05,0.00048460903275161045
131.825668334961,0.019593897624220116,-0.0006611883110510368,-5.276000658108529e-05,0.0004294602730167633
120.226440429688,0.019621014317441635,-0.0007165829731331951,-0.00013102991325786642,0.00043012680614420496
109.647819519043,0.019652516982182282,-0.000775090777585761,-0.00017270126320481985,0.00036244419376313896
100.0,0.019688914719331128,-0.0008365051886176456,-0.00023381486226337067,0.00039763040187595433
91.2010803222656,0.019730710805439255,-0.0009005211194254845,-0.00020912903449604378,0.00013736571248391559
83.1763763427734,0.019778380529156946,-0.00096672739955524,-0.0002875436235749533,0.00026923882187415997
75.8577575683594,0.019832344990981757,-0.001034604415782295,-0.0004091781705487449,0.00020478790856840487
69.1830978393555,0.01989294211176625,-0.00110352865063724,-0.0002443977186323519,0.00011540938525316001
63.0957336425781,0.019960396803872724,-0.0011727855329207355,-0.0004357892349789762,0.00013177364386696448
57.5439949035645,0.02003479288533633,-0.0012415914048578066,-0.0002697696386247672,-3.580678693460666e-05
52.4807472229004,0.020116049724869214,-0.0013091245277225055,-0.0003379062532858877,2.221180289989442e-05
47.8630104064941,0.0202039066735261,-0.0013745639848702432,-0.00034439973201819823,0.00014446457818215685
43.6515846252441,0.020297917999215848,-0.0014371342422614198,-0.0003628847227613516,-0.00015269268082331966
39.810718536377,0.02039746027592069,-0.001496152167761093,-0.0003242919206297122,-3.524302280829292e-05
36.307804107666,0.020501753077444642,-0.001551072654815795,-0.0003717171544460572,-0.00014678815523019493
33.1131134033203,0.02060989251122861,-0.0016015287686807528,-0.0002615306736430921,-0.00014882003541275284
30.1995162963867,0.02072089579152652,-0.0016473625845632826,-0.0002778671289722784,-0.0001820027654416826
27.5422878265381,0.020833753867379953,-0.001688643594800921,-0.00020088173604794826,-0.00021286402229922096
25.1188640594482,0.020947488250478857,-0.0017256726308163546,-0.00018650457049934274,-0.0002180361219119545
22.9086761474609,0.021061207725133563,-0.0017589705385643586,-0.00015324019042043877,-0.00012789537146725848
20.8929615020752,0.02117416061676708,-0.00178925219311981,-0.00010745614551341959,-0.0002092679854822099
19.0546073913574,0.021285778709823164,-0.001817387692715566,-8.899638695093748e-05,-0.00019580549662146602
17.3780078887939,0.021395709680038524,-0.001844353592667654,-7.228894380947523e-05,-0.00010213823122155415
15.8489322662354,0.02150383591687142,-0.0018711777518790936,-3.881193662227944e-05,-0.00014727964283049364
14.4543981552124,0.021610278748774123,-0.0018988817129265425,-7.778208622977872e-05,-9.410708583704251e-05
13.1825675964355,0.02171538821688763,-0.0019284245361034407,-5.9188760007669594e-05,-0.0001791159890984406
12.0226440429688,0.02181971957453268,-0.0019606516902101238,-1.1330940642220733e-05,-5.605639617422371e-05
10.9647817611694,0.02192399854022491,-0.001996252040011443,4.0812587323111466e-05,-0.00011236039605514304
10.0,0.022029077957466458,-0.002035725235592815,3.548371334395617e-05,-0.00013701974193411522
9.12010860443115,0.022135888895957665,-0.0020793609876105876,1.7431741644660659e-06,-5.263659133718755e-05
8.31763744354248,0.022245389375860333,-0.002127230870008947,-2.9678489988166357e-05,-4.292000497934734e-05
7.58577585220337,0.022358513831620706,-0.0021791924918191396,-9.479538077793864e-06,-1.4944114734439639e-05
6.91830968856812,0.022476126188932025,-0.002234905159959553,-3.175741940917437e-05,-1.5369982386053034e-05
6.30957365036011,0.02259897904413929,-0.002293855546554393,1.5902313768790394e-05,1.8622597167406926e-05
5.75439929962158,0.022727680944876035,-0.0023553913943663634,-4.3489417954165055e-05,-3.7453156159633627e-06
5.24807453155518,0.02286267320842267,-0.0024187609504721713,-8.959841697692844e-05,-3.735809382071284e-06
4.78630113601685,0.02300421711038244,-0.0024831556185408808,-9.931433965075856e-05,3.319765149801916e-05
4.36515855789185,0.0231523916618355,-0.0025477532615125883,-5.596945719639826e-05,-7.684527348588831e-05
3.98107171058655,0.023307101596555926,-0.002611759666743799,-0.00010350925806977204,3.272356612690113e-05
3.63078045845032,0.023468094639969777,-0.00267444589383058,-9.920378725442394e-05,-2.3827806330280026e-05
3.3113112449646,0.02363498665346213,-0.0027351795466214975,-9.421847806867154e-05,-8.746951386039755e-05
3.01995182037354,0.023807292864011544,-0.0027934484253751284,-7.549667329905668e-05,-5.1593554683228553e-05
2.75422859191895,0.02398446311635521,-0.002848875496944229,-6.217400150749022e-05,7.617964932870713e-06
2.51188635826111,0.024165918933826372,-0.0029012246431190823,-1.0715914291428708e-05,-5.936970946978249e-05
2.29086756706238,0.024351090147975655,-0.002950397179799216,4.729810345525595e-05,2.832445375428429e-05
2.0892961025238,0.02453944895278094,-0.0029964196539646816,-4.985306550386176e-05,-8.053947679468156e-05
1.90546071529388,0.024730539447024035,-0.00303942389617228,-8.131327633606467e-05,2.065202390282017e-05
1.73780083656311,0.02492400103296977,-0.0030796207082302157,-0.00013985454056522975,5.436729967288421e-05
1.58489322662354,0.02511958442151365,-0.0031172688834035294,-4.639067232795058e-05,4.6982684392270387e-05
1.44543981552124,0.025317159430661013,-0.0031526414729831182,-0.00011302442701838569,2.9697496266817107e-06
1.3182567358017,0.025516714231783057,-0.003185991326262463,-8.502669472104304e-05,6.380687662463705e-05
1.20226442813873,0.025718346171015694,-0.003217517930511109,-0.0001301039681492061,-5.3224453199409143e-05
1.09647822380066,0.025922244748360794,-0.0032473374779693285,-5.693514060290533e-05,1.1169522313071376e-05
1.0,0.026128667751103556,-0.003275457883961429,5.7307721673567624e-06,-6.602087315172927e-05
0.912010848522186,0.026337911892640578,-0.003301760198909418,-8.95303152919219e-05,-1.1504179227817771e-05
0.831763744354248,0.026550279586099644,-0.0033259875043635673,2.520124473474536e-05,-5.807950118236725e-05
0.758577585220337,0.0267660436729023,-0.003347741983643255,7.677688692300094e-05,6.608354115345081e-06
0.691830992698669,0.02698541202311326,-0.0033664904317988404,-5.096241171553828e-05,1.533205926575968e-05
0.630957365036011,0.02720849392431899,-0.003381578036007314,0.00010907081383388847,3.4335363833862265e-06
0.575439929962158,0.027435270082224357,-0.0033922498399856574,7.119303571075791e-05,0.00010811441517434269
0.524807453155518,0.02766556787558821,-0.0033976789218257745,6.99714876058119e-05,0.0002042278993059257
