freq,mu_Z_re,mu_Z_im,Z_re_res,Z_im_res
10000.0,0.021101406149499444,-7.531376849018039e-06,-0.011721012808449255,-0.03622653964377481
9120.1083984375,0.0211014087190554,-8.257984604558932e-06,-0.010046991438634599,-0.03285074880668136
8317.6376953125,0.021101411808291642,-9.054692301038379e-06,-0.006819516044100558,-0.03016437255016254
7585.77587890625,0.021101415522306346,-9.92826245521957e-06,-0.0054312679992028524,-0.02575446329138972
6918.3095703125,0.02110141998744886,-1.088610984420084e-05,-0.004045036447873941,-0.0253624179134521
6309.5732421875,0.021101425355615256,-1.1936364363748295e-05,-0.0016043531239608444,-0.022515159634541548
5754.3994140625,0.021101431809411673,-1.3087939938176739e-05,0.00026271667336047466,-0.01818238670798168
5248.07470703125,0.021101439568360643,-1.4350610073617394e-05,0.001000113981922443,-0.017323528276976117
4786.30078125,0.02110144889636092,-1.57350906385763e-05,0.0003450086591964205,-0.015860530943538176
4365.158203125,0.021101460110653874,-1.725313062519674e-05,0.0006528722758187729,-0.014181423380921796
3981.07177734375,0.021101473592600655,-1.8917611587260167e-05,0.0017729222256754537,-0.01406100916748066
3630.78051757813,0.021101489800635094,-2.074265661409512e-05,0.001411754775467594,-0.011370037922586696
3311.31127929688,0.021101509285832917,-2.2743749715816476e-05,0.0009865677633538183,-0.010732237170733915
3019.95166015625,0.021101532710624454,-2.493786667665598e-05,0.0015273394267089554,-0.010165474219668756
2754.22875976563,0.021101560871286687,-2.7343618243284813e-05,0.0030830450907185884,-0.009234067971377885
2511.88647460938,0.021101594724975647,-2.9981407072572858e-05,0.002475394689761247,-0.009343636492934173
2290.86767578125,0.021101635422222105,-3.287359937341361e-05,0.002676422249190305,-0.006664344350390714
2089.29614257813,0.021101684345981742,-3.604471295089747e-05,0.0007015196970912435,-0.006656024340381298
1905.46069335938,0.02110174315858477,-3.9521622725156004e-05,0.0015604423253594707,-0.007672810479320856
1737.80078125,0.02110181385813449,-4.33337855731463e-05,0.0033319742435047907,-0.004006578398833146
1584.89318847656,0.02110189884633055,-4.7513485993040174e-05,0.003424297419490751,-0.00486045583813894
1445.43981933594,0.021102001009900898,-5.2096104461694534e-05,0.0029574195429876993,-0.004810381463009794
1318.25671386719,0.021102123818518004,-5.712041014535229e-05,0.002964456490398705,-0.004020926610917852
1202.26440429688,0.02110227144235941,-6.262888003143532e-05,0.0035019250857291073,-0.003263386895768335
1096.47814941406,0.021102448893293217,-6.866804613811048e-05,0.002891752836808016,-0.0032702358468536105
1000.0,0.021102662194443716,-7.52888731913299e-05,0.003017294216824517,-0.00236098986307843
912.010864257813,0.021102918583663914,-8.254716827079863e-05,0.0011403768246498157,-0.0017594662234420987
831.763793945313,0.021103226757763358,-9.050402426835841e-05,0.0034241929568037573,-0.0013497152422528584
758.577575683594,0.021103597165376103,-9.922629861743834e-05,0.001983481378585304,-0.0019996448437368383
691.830993652344,0.021104042358114024,-0.00010878712830950083,0.002171249068691025,-0.0008187962016824009
630.957336425781,0.02110457741130516,-0.00011926648160500217,0.0021456009190194587,0.00013979029306149785
575.43994140625,0.021105220427776634,-0.0001307517458878764,0.0028744897600663337,-0.0019630379910774765
524.807434082031,0.021105993140595636,-0.000143338350124384,0.0035983636715585347,0.000210749037552816
478.630096435547,0.021106921633408444,-0.00015713041747788127,0.0018041753523806436,-0.00023998617061281736
436.515838623047,0.021108037200404065,-0.00017224144302536157,0.0018029682008751657,0.0005018465186446384
398.107177734375,0.0211093773713,-0.00018879498570552002,0.0022969556620008984,0.00045464972749948
363.078063964844,0.021110987131080956,-0.0002069253621669259,0.0026254261178592572,-0.001345200152886026
331.131134033203,0.02111292036814457,-0.00022677832089410796,0.0011237465087867715,0.0010792098539689921
301.995178222656,0.021115241589215284,-0.0002485116695410928,0.0004960000684528856,0.0011164452896096071
275.422882080078,0.02111802794380749,-0.0002722958177776801,0.0009176971797521909,0.00031355334627601995
251.18864440918,0.021121371604827504,-0.00029831418477516375,-0.0348825230520691,-0.10881638565742016
229.086761474609,0.021125382554533726,-0.00032676340320934936,0.00031676217615862756,0.0012985473428121508
208.929611206055,0.021130191825830962,-0.00035785323146324456,0.00040845266779666184,0.0008257962935830554
190.54606628418,0.021135955246238673,-0.00039180606069974,-0.0001432382147026276,0.00188729161930266
173.780090332031,0.021142857723087563,-0.00042885587010961084,0.004324267260879762,0.00043724048025468913
158.489318847656,0.021151118092652337,-0.00046924644870625194,0.0002374370772800366,0.0012929762827796482
144.543975830078,0.02116099452745002,-0.000513228657317943,0.0002490290082602202,0.001456024288537257
131.825668334961,0.021172790452195493,-0.0005610564594131439,-0.003587513566659605,0.0006823045796739561
120.226440429688,0.02118686085336183,-0.0006129814004288765,0.0004983121692416319,0.0029682721784574234
109.647819519043,0.02120361877328142,-0.0006692451707621161,0.00020169121867402023,0.001859219018037084
100.0,0.02122354165478852,-0.0007300698602844165,0.00047123835250042004,0.0013814514564077836
91.2010803222656,0.02124717703722979,-0.0007956455081771991,0.00024718663357758963,0.0015484866600412007
83.1763763427734,0.021275146900315477,-0.0008661145943701481,-0.00032102406154132374,0.0001213100372328518
75.8577575683594,0.021308149714942732,-0.0009415532328319196,-0.00026993309986996644,0.0007279238564762805
69.1830978393555,0.021346959010164788,-0.0010219490454250043,-0.0006685660179448112,0.0009973734318559956
63.0957336425781,0.021392417027448006,-0.0011071760337098406,-0.0006136606644646936,-2.134983793344045e-05
57.5439949035645,0.021445421866547132,-0.001196967257734808,-0.002170944221843267,0.0005323414862262918
52.4807472229004,0.021506906513508738,-0.0012908867810229345,-0.0008225412774715626,0.00018620269667996557
47.8630104064941,0.021577808347192744,-0.001388303097256325,-0.0015868178637352577,0.00041140012916837513
43.6515846252441,0.021659028278982983,-0.0014883670695237771,-0.00022781963428221766,-0.0006303443545587771
39.810718536377,0.02175137960210459,-0.0015899981058420899,-0.0008179880599676094,-0.00028531017370848986
36.307804107666,0.0218555279837779,-0.001691882722322011,-0.0015942915512391007,3.057637693348902e-05
33.1131134033203,0.021971925680215207,-0.0017924895476497272,-0.0007843304829050941,-0.0005573388155497272
30.1995162963867,0.02210074482869563,-0.0018901040427686245,-0.0006821564732843698,-0.0007827911874579245
27.5422878265381,0.022241816232804263,-0.0019828846247317436,0.0022338333827294637,0.03009435333894476
25.1188640594482,0.02239458104340798,-0.0020689395661789177,-0.0012276710036539205,-0.0010759620401401178
22.9086761474609,0.02255806277751632,-0.0021464212298523584,-0.000381891175511382,-0.0010731584591921585
20.8929615020752,0.02273086598555448,-0.0022136313237402744,-0.0003936313982784191,-0.0002618936451305744
19.0546073913574,0.022911205572527352,-0.0022691284513788393,-0.004612172337729047,0.002283153475938461
17.3780078887939,0.023096967495099027,-0.0023118278104818754,1.4141208544728862e-05,-0.0012087550340227754
15.8489322662354,0.023285797825567594,-0.002341082829796393,0.0003277128846572927,-0.000610095376894493
14.4543981552124,0.023475213539527702,-0.00235673997124289,-0.0037131005854140996,0.01891386110762501
13.1825675964355,0.023662725548052467,-0.0023591607085032343,0.0009209011595484665,-0.0008889028311310342
12.0226440429688,0.023845962893819336,-0.002349208396492668,0.000783076223587538,-0.001271175973681968
10.9647817611694,0.024022786993255572,-0.002328201780958188,0.0012525833432578716,-0.0006272069894951882
10.0,0.02419138626823568,-0.002297840611309352,0.0010566853142752776,-0.00019452005554795176
9.12010860443115,0.024350344243984048,-0.0022601116197319355,0.0007445561173961487,-0.0002427723938735354
8.31763744354248,0.024498677644168104,-0.0022171846605519973,0.001092606055771106,-0.00042520570714579733
7.58577585220337,0.02463584465483268,-0.002171308876228138,0.0010327089349372806,-0.0004251379549770381
6.91830968856812,0.02476172672947311,-0.0021247175533295228,0.0003607548995819103,-0.0015244395832502227
6.30957365036011,0.0248765896800636,-0.0020795481261361554,0.0008858822080969019,-0.0003173815068353554
5.75439929962158,0.02498103106164642,-0.002037781091831039,0.0014979521348447225,-0.00033097833996213917
5.24807453155518,0.025075921017880212,-0.0020011988676568795,0.001148455936665311,4.958531600922052e-05
4.78630113601685,0.025162342984421486,-0.0019713632724815988,-0.0006571690997050142,0.001767701519689501
4.36515855789185,0.025241539233547272,-0.0019496086031325255,0.0010779298629579707,0.0003095750719181744
3.98107171058655,0.025314864537665564,-0.0019370463094604473,0.0008223995780441626,0.0013498662621783527
3.63078045845032,0.0253837495270553,-0.0019345769919716623,0.0008738911870303998,0.0003117998335248379
3.3113112449646,0.025449673839945945,-0.0019429057213426926,0.0007845621640874441,0.00031922954777760743
3.01995182037354,0.02551414802582757,-0.00196255732350927,0.0007244235268403683,0.0004550021791370302
2.75422859191895,0.025578702404062074,-0.001993889105063069,0.0010734038193624743,-0.00032890704416126885
2.51188635826111,0.02564488065563357,-0.0020370993977960033,0.0010637724133602706,0.00034615949442719663
2.29086756706238,0.02571423580245852,-0.002092231144894335,-0.0004425771038067787,0.0009210579229998648
2.0892961025238,0.025788326315849746,-0.0021591705287121077,0.0005695731717047445,0.0005111198855317924
1.90546071529388,0.025868710363839892,-0.00223764127860471,0.0004297962883460932,0.0009092702270049901
1.73780083656311,0.02595693659176495,-0.0023271958212276508,0.00011741224815514997,-0.00014721344773675066
1.58489322662354,0.02605453031165185,-0.002427204806590127,-0.0006781510074656515,0.00019319721846867326
1.44543981552124,0.026162974509842334,-0.0025368467679396456,0.00025614348376503185,0.0003906118443086546
1.3182567358017,0.02628368563655687,-0.0026550997434986083,0.0008777329296238701,0.00029591737176649186
1.20226442813873,0.02641798467267938,-0.002780736604157668,0.0012465818308729781,-0.00029712095243096797
1.09647822380066,0.026567064442521302,-0.002912325612151564,0.000924188860541502,-0.00047104043408626416
1.0,0.026731954517665565,-0.0030482374038576132,0.0001434102681309654,0.0002789516095042868
0.912010848522186,0.026913485318458927,-0.0031866591870781513,7.764326039632827e-05,4.887930303844887e-05
0.831763744354248,0.027112253155501847,-0.0033256165054212318,1.0110583098847659e-05,-8.092101892043192e-05
0.758577585220337,0.02732858797098328,-0.0034630024901622074,-8.202540193861727e-05,-0.00020274343928630744
0.691830992698669,0.02756252545825087,-0.0035966141212630254,9.419243744457004e-05,-0.00018540467767902543
0.630957365036011,0.027813785077989858,-0.003724194672920421,2.619095331505769e-05,-0.0001792768771133207
0.575439929962158,0.02808175527743085,-0.0038434812301156255,0.00019761094144564798,-0.0005530489576367256
0.524807453155518,0.02836548697239466,-0.003952255931584311,0.0003827565539509595,-0.00040592834622991134
