freq,mu_Z_re,mu_Z_im,Z_re_res,Z_im_res
10000.0,0.01938095409919413,-4.721092157785915e-06,-0.012082814234002467,-0.03035266067283669
9120.1083984375,0.0193809556156677,-5.176570357465099e-06,-0.0100411971717793,-0.027010187786163466
8317.6376953125,0.019380957438813094,-5.67599092756565e-06,-0.007386343003048107,-0.023787851025212164
7585.77587890625,0.019380959630639228,-6.2235929254946745e-06,-0.006824110686152272,-0.022124609474110993
6918.3095703125,0.019380962265689184,-6.824024250687514e-06,-0.005413158075850216,-0.020302170180013387
6309.5732421875,0.019380965433571987,-7.482381050131548e-06,-0.004708855249430512,-0.01767413145441253
5754.3994140625,0.019380969242005226,-8.204250906746222e-06,-0.003794085919113274,-0.012014211385821146
5248.07470703125,0.019380973820471277,-8.995760184970645e-06,-0.003684863279676924,-0.01486022130022687
4786.30078125,0.01938097932461118,-9.863625919129276e-06,-0.0018219090151467172,-0.01402212491974763
4365.158203125,0.019380985941503986,-1.0815212680986677e-05,-0.0018804099450364133,-0.010664273748352186
3981.07177734375,0.019380993896011067,-1.1858594897581243e-05,-0.000563441089507434,-0.011199191277209081
3630.78051757813,0.0193810034583991,-1.3002625150622458e-05,0.00047976710309440007,-0.009121302945954722
3311.31127929688,0.019381014953500534,-1.4257008977934132e-05,-0.0007893346742326654,-0.009499083596118434
3019.95166015625,0.019381028771720436,-1.5632386843499984e-05,0.0005585525039058341,-0.0078557013976972
2754.22875976563,0.019381045382265264,-1.714042387859513e-05,0.000540752913598265,-0.007317673778160895
2511.88647460938,0.019381065349037895,-1.879390818867211e-05,0.002005748878176495,-0.006394729768166872
2290.86767578125,0.01938108934974602,-2.0606858429628693e-05,0.0005697274855368216,-0.006411930495646829
2089.29614257813,0.019381118198857843,-2.2594641555818345e-05,0.0013859394993644414,-0.005814186587591418
1905.46069335938,0.01938115287520859,-2.477410161417306e-05,0.00111680891313529,-0.006402132091163773
1737.80078125,0.01938119455515109,-2.716370058138002e-05,0.0019201386654253902,-0.003983170074791481
1584.89318847656,0.01938124465243454,-2.9783672225628666e-05,0.001617209040089839,-0.0032934834943534287
1445.43981933594,0.019381304866057103,-3.26561901200594e-05,0.0010221857935006039,-0.00426842255251886
1318.25671386719,0.019381377237824092,-3.580555087189495e-05,0.0013913673786197928,-0.002314384251369595
1202.26440429688,0.0193814642214198,-3.925837385177616e-05,0.0035385105245728,0.0009242830141941239
1096.47814941406,0.019381568765342232,-4.304381852831022e-05,0.0005455249902606325,-0.00243685552684451
1000.0,0.01938169441247446,-4.719382062085069e-05,0.0019885058614061597,-0.0018642198797640505
912.010864257813,0.019381845419494042,-5.174334818945396e-05,0.0015653018403924412,-0.0023593136547736537
831.763793945313,0.01938202690014289,-5.6730678720648634e-05,0.0012161051077548904,-0.0015803889627067486
758.577575683594,0.019382244996889356,-6.219769803618636e-05,0.0018110881523926564,-0.0009157761998827864
691.830993652344,0.019382507086597264,-6.819022162401242e-05,0.0014798292078597626,-0.0013982860305770124
630.957336425781,0.019382822026716626,-7.475833859487834e-05,-3.611978401047225e-05,-0.0011845975228045784
575.43994140625,0.019383200449714245,-8.195677765429115e-05,0.003939680760571544,-0.004084596801481791
524.807434082031,0.019383655114851208,-8.984529401596686e-05,0.0007212173182585095,-0.0014457144074835667
478.630096435547,0.01938420132790736,-9.848907449955767e-05,0.0012752112845056604,-0.00031721285870035766
436.515838623047,0.019384857441252717,-0.00010795915710336087,0.0005437603098812152,-0.0002768687668867609
398.107177734375,0.019385645448482817,-0.00011833285851015639,0.00038594035736401813,-0.00043377332793155635
363.078063964844,0.019386591689907032,-0.0001296942005687078,0.000772891866289132,-0.0005290885688558078
331.131134033203,0.019387727687278793,-0.0001421343230976739,0.0010050815438423927,-9.924263299759639e-05
301.995178222656,0.019389091128133064,-0.00015575186542016913,0.0006299280315859648,8.761216751983087e-05
275.422882080078,0.019390727021765815,-0.0001706532926971204,0.0004779366786004137,0.0005470016479750797
251.18864440918,0.01939268904999833,-0.000186953135435957,0.01373966952116233,0.005517409741277243
229.086761474609,0.01939504113589442,-0.0002047741009090967,0.00065914620255152,0.00015887290554290328
208.929611206055,0.01939785925166496,-0.00022424700270587156,-0.002227862575484442,0.0009124617691040284
190.54606628418,0.01940123348254515,-0.0002455104406147416,0.00020703098494365135,0.0005087896568544584
173.780090332031,0.01940527035475381,-0.00026871014572428975,0.0006658680605949076,0.00021073323139231026
158.489318847656,0.019410095421457368,-0.00029399788683266367,0.0030628529021978664,0.0011869428425469362
144.543975830078,0.01941585607873899,-0.00032152981392290735,0.00105489298748479,0.0007497951072900926
131.825668334961,0.019422724551313855,-0.00035146409418710246,-0.0015172216233077448,0.010171575753425298
120.226440429688,0.019430900943630505,-0.0003839576805679968,0.0004165666375096043,0.0004029759599157032
109.647819519043,0.019440616192722224,-0.000419162044282433,0.00022398931016912385,0.00033960007784936694
100.0,0.019452134683990242,-0.0004572177089732061,0.0002874402108428431,0.0004505239526758939
91.2010803222656,0.019465756201217085,-0.0004982474542175141,0.0003729337537978841,7.204850642478591e-05
83.1763763427734,0.01948181678297177,-0.0005423481214197145,-0.0004020226305519285,-0.00020065003064111445
75.8577575683594,0.01950068795723218,-0.0005895810644159511,-0.00015482468860841814,0.00041118394816114885
69.1830978393555,0.019522773743129926,-0.0006399614524204679,0.00010339607343792453,-0.00030099315541956795
63.0957336425781,0.019548504770337524,-0.0006934468597468018,0.0003679275220026257,5.717061363939824e-05
57.5439949035645,0.01957832889953488,-0.0007499258537988542,4.378388026587965e-05,0.0004771351775873458
52.4807472229004,0.01961269787611169,-0.0008092076059938974,0.001754499963537888,8.998288460580262e-05
47.8630104064941,0.019652049831207843,-0.0008710138465707618,-2.073698574675542e-05,-0.0006451306801486617
43.6515846252441,0.01969678788698221,-0.0009349747116189696,-7.630369896691191e-06,0.00022206832445443052
39.810718536377,0.01974725569860245,-0.0010006301032908936,0.00015541012660764963,-0.00027153002308399356
36.307804107666,0.019803711427254043,-0.0010674380331941614,-0.00013621595700325645,7.811550910683863e-05
33.1131134033203,0.01986630228625072,-0.0011347909870996712,-0.0001598637057708789,-2.495634308757118e-05
30.1995162963867,0.019935042313018007,-0.0012020406307288356,-1.8894025406692577e-05,0.0005592483334606643
27.5422878265381,0.020009796258179093,-0.0012685302228736216,0.001426468726364493,0.010288297240335979
25.1188640594482,0.02009027234526593,-0.0013336330315274006,0.00120997957201913,3.355409594349933e-05
22.9086761474609,0.020176026095348475,-0.001396794022354261,-0.0004466166154564258,9.946929168423886e-05
20.8929615020752,0.020266476449129663,-0.0014575712890227237,0.0005435919282413618,0.00029818666681147624
19.0546073913574,0.020360934175031008,-0.0015156732752639461,0.0010858518997596094,-0.0005124475920293462
17.3780078887939,0.02045864118091649,-0.001570987901554582,0.0006709980761248902,0.0002731775959048182
15.8489322662354,0.020558818058619255,-0.0016236002708601713,-0.00012633502339384414,-0.0003031905659291714
14.4543981552124,0.02066071616223032,-0.0016737966269773877,0.00016766139974771707,-0.00022447569598978774
13.1825675964355,0.02076366990368922,-0.0017220535427061477,-1.8877167886881957e-05,-0.0035987135832858475
12.0226440429688,0.020867144813218226,-0.0017690127528817057,0.00012080756334312617,-0.0003941776044280056
10.9647817611694,0.020970777272069488,-0.0018154434305167702,6.377197691208661e-05,0.0005619481294863297
10.0,0.0210744026071505,-0.00186219487666765,0.00031429295904199933,-0.0005072381100772502
9.12010860443115,0.021178069341483807,-0.0019101434220865716,0.0001941125872762066,-0.0007496808023498716
8.31763744354248,0.021282038666358395,-0.0019601377637257656,8.70423540977952e-05,-1.1655057514265658e-05
7.58577585220337,0.02138676950547662,-0.002012946953985688,0.0001641836932656203,7.147264295451206e-05
6.91830968856812,0.021492890733923548,-0.002069214869690065,0.0001900174652000458,-0.000703543818955265
6.30957365036011,0.02160116309575681,-0.0021294242779602637,0.0001808612262452075,5.178441453073616e-05
5.75439929962158,0.021712434057401694,-0.0021938726848847218,0.00014767474334149294,0.0001447884288691783
5.24807453155518,0.021827589208675283,-0.0022626611040712937,-0.000173267488884115,0.00036123757159390625
4.78630113601685,0.021947503876076697,-0.002335695817608446,0.00013576526580909645,8.772310101605408e-05
4.36515855789185,0.022072998373194673,-0.0024127022087184194,-0.0011516683414736287,0.0010104111671836806
3.98107171058655,0.02220479982605692,-0.0024932488966714255,-6.655578800917814e-05,-0.0008441066537034254
3.63078045845032,0.02234351283832009,-0.0025767797501166255,7.057025058678987e-05,0.00014565238828157445
3.3113112449646,0.022489600467653404,-0.00266265092462448,-0.00014495977464189583,-0.00030582622669788
3.01995182037354,0.0226433761377329,-0.002750169879808367,6.069056284370086e-05,0.000662735269353433
2.75422859191895,0.022805006274089656,-0.002838633368234508,7.819294284325609e-05,0.00012329442382289207
2.51188635826111,0.022974522682768353,-0.0029273616409002078,0.0001408438113751527,0.0009216602167040921
2.29086756706238,0.023151843036935255,-0.003015726541920069,-0.0001239681882406439,-0.00022095834632076877
2.0892961025238,0.023336797333324298,-0.0031031717333912063,0.0001582534378412985,0.00022676258608999352
1.90546071529388,0.023529157852282108,-0.0031892239501625586,-0.00012710982049509226,-0.0004905114335865585
1.73780083656311,0.02372867001215466,-0.003273494885114551,-3.84511240338406e-05,-2.465431466475111e-05
1.58489322662354,0.023935081549799602,-0.00335567400181197,3.958233511600767e-06,0.00051603417521803
1.44543981552124,0.024148167670547907,-0.003435513216025134,9.912625730006813e-06,3.4700169273666186e-05
1.3182567358017,0.02436775017141956,-0.0035128049481179414,-0.00014591355264523959,8.458076757525846e-05
1.20226442813873,0.02459370901995268,-0.0035873554848174062,8.345393651098057e-05,8.703733644979368e-05
1.09647822380066,0.024825985434255696,-0.0036589558928603184,-1.6289872326803734e-05,0.00047590446254668116
1.0,0.025064576118550924,-0.0037273528718237874,0.00015909008618412296,4.2237414714212714e-05
0.912010848522186,0.025309518926065647,-0.003792221929442576,0.00013673772684884636,3.2771805736723884e-05
0.831763744354248,0.025560870809844226,-0.0038531451057823452,5.1811380675524654e-05,3.630220515705475e-05
0.758577585220337,0.025818679449133977,-0.003909595181304149,-1.2092324919624198e-05,-4.92838314503489e-05
0.691830992698669,0.026082950376433753,-0.003960927899611968,0.00021145000354705346,-3.686030177576811e-05
0.630957365036011,0.02635361175471935,-0.004006383238990701,0.00020787413651144823,-0.00015618791494230108
0.575439929962158,0.026630479150989345,-0.004045096212562922,0.00024778513012204545,-3.604170450272146e-05
0.524807453155518,0.02691322271179367,-0.004076117091575526,0.00032019507538487077,-0.00010905731538862588
