freq,mu_Z_re,mu_Z_im,Z_re_res,Z_im_res
10000.0,0.019059757443035372,-1.1195843670143892e-05,-0.006771219221984627,-0.023943066080662944
9120.1083984375,0.019059760846847667,-1.2275989386713677e-05,-0.005759566671496234,-0.020363417680594614
8317.6376953125,0.019059764939033483,-1.3460342740830092e-05,-0.005234808874643317,-0.01864034955666043
7585.77587890625,0.01905976985878854,-1.4758956590658417e-05,-0.0045402161281594584,-0.017326125231543556
6918.3095703125,0.019059775773446693,-1.6182853389569465e-05,-0.0025594845376800054,-0.016406800790239172
6309.5732421875,0.01905978288416455,-1.7744118642511927e-05,-0.0015640928977291475,-0.015184683354866212
5754.3994140625,0.019059791432753527,-1.945600335169862e-05,-0.000770401937827174,-0.013493084092183598
5248.07470703125,0.019059801709890526,-2.1333036310000092e-05,-0.0012436115620134726,-0.0121802679945891
4786.30078125,0.019059814064984904,-2.3391147180461483e-05,-3.6102236027096835e-05,-0.012212528896554362
4365.158203125,0.019059828918036075,-2.5647801402188595e-05,-0.0004837499302067262,-0.011248410788419788
3981.07177734375,0.019059846773882356,-2.8122148020653832e-05,0.0010008948297695573,-0.008929608321292753
3630.78051757813,0.01905986823932346,-3.083518169099622e-05,-0.0009333773623306403,-0.009030488342262995
3311.31127929688,0.019059894043696506,-3.380992016677386e-05,0.0007965428714877057,-0.008077350561832173
3019.95166015625,0.019059925063601393,-3.707159875644087e-05,0.0009976892760904937,-0.006871388131815241
2754.22875976563,0.019059962352615433,-4.064788330735156e-05,0.0001611381227789345,-0.005235212698917952
2511.88647460938,0.019060007177000415,-4.4569103446624476e-05,0.0005582858544639149,-0.0059281109929353246
2290.86767578125,0.019060061058619533,-4.8868507943288945e-05,0.0013733363958387326,-0.005422710125199689
2089.29614257813,0.019060125826508297,-5.358254421391062e-05,0.000132799400598297,-0.0038463560107711106
1905.46069335938,0.019060203678862683,-5.875116411578851e-05,0.0006707514300509816,-0.0038727545944226885
1737.80078125,0.019060297257513133,-6.441815836414746e-05,0.0008502978303137343,-0.004172640359830647
1584.89318847656,0.019060409737439214,-7.06315220113015e-05,0.0012616041280938128,-0.003246682713996902
1445.43981933594,0.019060544934274226,-7.744385365784126e-05,0.0006432871186748262,-0.0037703569556438413
1318.25671386719,0.01906070743348912,-8.491279113744592e-05,0.0012963942870171177,-0.0025904380392626457
1202.26440429688,0.01906090274549287,-9.310148652823467e-05,0.001152085588343569,-0.0026282961107435346
1096.47814941406,0.019061137491845046,-0.00010207912342853644,0.0009781890902747468,-0.0024333292377949367
1000.0,0.01906141962876481,-0.00011192147946125289,0.0012177130954520096,-0.001508271110711153
912.010864257813,0.019061758715247304,-0.00012271153688945974,0.0015745140347234038,-0.00262269495003436
831.763793945313,0.019062166234635324,-0.0001345401440504308,0.0013260088322391249,-0.0016368732365536307
758.577575683594,0.019062655980018706,-0.00014750673003630546,0.0010005077368298067,-0.0013745050135640054
691.830993652344,0.019063244515910172,-0.0001617200743326819,0.0005650603565120725,-0.001973164484455582
630.957336425781,0.019063951730875005,-0.00017729913248397714,0.0012347179503717047,-0.0009018650687363771
575.43994140625,0.019064801498447314,-0.00019437391738825801,0.0012181873760566155,-7.293354274665802e-05
524.807434082031,0.019065822466739917,-0.00021308643430575095,0.0016356790359109176,-0.000777787765619351
478.630096435547,0.01906704900060026,-0.00023359166501688613,0.0006212778130563583,-0.0006809473414591861
436.515838623047,0.019068522304044218,-0.00025605859320881435,0.0009333304313282192,-0.0004120872696376143
398.107177734375,0.019070291755010883,-0.0002806712588738362,0.001161489499022783,-0.00043227370835143615
363.078063964844,0.01907241648906147,-0.00030762982349416887,0.0009662502157059688,-0.00022281562267609587
331.131134033203,0.01907496727334726,-0.00033715161986465293,0.0006777086787151596,-0.00022444758211785293
301.995178222656,0.01907802871676513,-0.0003694721503262639,0.0007345130226237319,-0.0004092282774064455
275.422882080078,0.019081701866286733,-0.0004048459844674547,0.000449023551243332,-0.00016505740075485468
251.18864440918,0.019086107242148705,-0.0004435474907923136,0.0003227550566610067,-2.6551930178135997e-06
229.086761474609,0.01909138836515342,-0.0004858713167385371,0.0006977488900462188,0.0008092811527995628
208.929611206055,0.01909771582622888,-0.0005321325066786282,7.021448154808166e-05,0.0001099659797447717
190.54606628418,0.019105291939815833,-0.0005826661181572487,0.00029067417188583314,0.00021027757973115136
173.780090332031,0.019114356006198763,-0.0006378261628329212,0.00011564370494446252,0.00024467782119737887
158.489318847656,0.019125190180192667,-0.0006979836606341965,0.0005045855310065669,0.00041137111942130336
144.543975830078,0.019138125901598094,-0.0007635235567810798,0.0006890615574303947,0.00031056646115602013
131.825668334961,0.01915355078223764,-0.0008348402143403659,0.0005568122053486411,0.00013141167164363416
120.226440429688,0.019171915761302453,-0.0009123311655357596,0.0003660375244126518,0.00020432855954914035
109.647819519043,0.01919374223279538,-0.0009963887924357689,0.0004119927011686786,0.00037346960100983107
100.0,0.019219628716731153,-0.0010873896241130252,0.00012042112174045355,7.307916563577483e-05
91.2010803222656,0.019250256492950896,-0.0011856809959976007,0.00022638730631109605,0.0007090357594893993
83.1763763427734,0.019286393453819342,-0.0012915649334893956,1.625277612884307e-05,0.00031224250560680437
75.8577575683594,0.01932889528183214,-0.0014052793122114834,-0.00023704462142716196,0.0001804688508404166
69.1830978393555,0.01937870294616718,-0.0015269766161030793,0.0005249156133939788,-0.00026552580015727937
63.0957336425781,0.01943683548120087,-0.001656700962122597,-0.00010305905493673134,5.847216780100308e-05
57.5439949035645,0.01950437709616881,-0.0017943644608329726,0.00019642285930381032,3.897033716032737e-05
52.4807472229004,0.019582457909709573,-0.0019397243954743018,0.0009999294526639724,9.379772427129817e-05
47.8630104064941,0.019672228022705806,-0.002092363061190895,0.00032760389078780733,0.001493418375222605
43.6515846252441,0.019774825228231045,-0.0022516723327390166,-0.0003821710964273563,-0.0006129250466875165
39.810718536377,0.01989133736054467,-0.0024168450451333614,-0.00015718409855793036,0.0004582301647524387
36.307804107666,0.020022761019331467,-0.002586875020548105,-0.0007210244066891344,0.00010136081555539491
33.1131134033203,0.02016995905629656,-0.002760567040283406,-4.310661264394014e-05,5.649748341349367e-05
30.1995162963867,0.020333619659605853,-0.0029365572808987424,-0.00024943066590704666,-3.298197041524259e-05
27.5422878265381,0.02051422002477903,-0.0031133437983231274,-0.00013580729500987238,5.2474952535172537e-05
25.1188640594482,0.020711997402653674,-0.003289325682601261,-0.00012438197638032708,-0.00040660198607146095
22.9086761474609,0.020926929781312196,-0.003462848658401562,-0.00035949446809840566,3.6604996111137995e-05
20.8929615020752,0.021158727654481232,-0.0036322542979541944,-5.393770966496958e-05,-0.00015889187819999448
19.0546073913574,0.021406837370626958,-0.003795929724347405,-0.00012229326701874293,-3.624079376150476e-05
17.3780078887939,0.0216704555769601,-0.0039523547421757635,-0.0002804691920838022,9.830567058273683e-05
15.8489322662354,0.021948553399901167,-0.004100143710007976,8.267328308086616e-05,-4.786093332447526e-05
14.4543981552124,0.02223990833636655,-0.0042380800943656455,-0.00013251440349685076,-3.194888195234575e-05
13.1825675964355,0.022543141433006227,-0.0043651424146526575,-0.00027206744908717106,-0.00035741643824515733
12.0226440429688,0.022856757215412367,-0.004480521099037705,8.279661014866727e-05,-0.00022821025676210416
10.9647817611694,0.02317918397807387,-0.0045836265201767735,-0.0001168797878095297,0.00012079067499432602
10.0,0.023508812401590286,-0.004674089094871685,0.0002678959706400863,-0.000145171722644985
9.12010860443115,0.023844030959766078,-0.004751752761017312,2.6167644422179365e-05,-0.00016746081114911264
8.31763744354248,0.024183257137886868,-0.004816663371089738,9.06145474832698e-05,-8.893563753733721e-05
7.58577585220337,0.024524964034390088,-0.004869053571523077,0.00010353291017968849,-2.9945245982076693e-05
6.91830968856812,0.024867702401911787,-0.0049093255986883905,0.00010517252210338543,-5.737945711759007e-05
6.30957365036011,0.02521011855833806,-0.004938033158689478,0.00012970593207155962,6.411063411852248e-05
5.75439929962158,0.02555096883940548,-0.004955863218161465,0.00017767575251908044,1.2376707640235178e-05
5.24807453155518,0.025889131366130948,-0.00496361816783821,1.794391762934694e-05,0.00015307597334108993
4.78630113601685,0.026223615871789847,-0.004962198474459675,-6.058124777851004e-06,-0.0002595778005350744
4.36515855789185,0.02655357219619889,-0.004952585648733363,-3.6197673843909456e-05,-0.00011238721011876292
3.98107171058655,0.026878297839806095,-0.004935825151833835,-0.00016477280433410332,-7.163025576173519e-05
3.63078045845032,0.0271972447105616,-0.004913008758410592,6.294942733599956e-06,6.744918824750767e-05
3.3113112449646,0.02751002492819145,-0.004885255889991606,3.574261877844695e-05,-6.326806733980648e-05
3.01995182037354,0.02781641530535671,-0.0048536935260904135,-4.9795483131689217e-05,-0.00033677205428611374
2.75422859191895,0.028116359930801277,-0.004819434471979026,0.00017055086450567733,0.00011355908532507345
2.51188635826111,0.02840997015632821,-0.0047835539934658056,-0.0001363352169827907,-0.00022559565505620577
2.29086756706238,0.028697521249858637,-0.004747065091738599,0.00012109317919423851,0.00014453443675290032
2.0892961025238,0.028979445025201386,-0.004710892959514456,-2.5063604239913828e-05,-0.0001195807000788562
1.90546071529388,0.02925631789194538,-0.004675849406760305,-3.011769781621071e-06,6.393150355279466e-05
1.73780083656311,0.02952884397519632,-0.0046426082459009015,-0.00028554276513058016,-0.00010503376468190117
1.58489322662354,0.029797833218469377,-0.004611682764953508,-0.00029710327158952166,-0.00016090568504350828
1.44543981552124,0.03006417468287341,-0.004583406476492023,7.177122034420988e-05,-0.0004737658707443231
1.3182567358017,0.0303288055691791,-0.004557918308111551,-3.4021105694004294e-06,-0.00010389696601285133
1.20226442813873,0.030592676792004028,-0.0045351532891166925,-0.00010597838117847383,0.00013331718298070783
1.09647822380066,0.030856716205674317,-0.004514839603298586,-0.0002359275321186828,-0.00013876856371138578
1.0,0.03112179079858509,-0.0044965026206096985,-9.320637377061014e-05,-0.00010649713266109879
0.912010848522186,0.031388669322557065,-0.0044794762168254044,0.00012364522678336848,-0.00017045714298150483
0.831763744354248,0.03165798689457164,-0.004462921352236759,-2.0928129232059e-05,-5.3051219432859176e-05
0.758577585220337,0.03193021309578348,-0.0044458515322729425,5.000946128298073e-05,0.00023186045373235764
0.691830992698669,0.032205624997877116,-0.004427164436847891,-0.0001480518576869802,-0.00027406412881709075
0.630957365036011,0.03248428637515005,-0.00440567869694794,-0.00041647171248494763,0.00010385133324295956
0.575439929962158,0.03276603412329312,-0.004380174537206255,0.0001778949469244187,8.318797031584522e-05
0.524807453155518,0.033050472616237114,-0.004349436802389247,-5.2572459894685564e-05,0.0005198086560049527
