freq,mu_Z_re,mu_Z_im,Z_re_res,Z_im_res
10000.0,0.018483222495654792,-4.984031105120191e-05,-0.007538889501353507,-0.018993377337695003
9120.1083984375,0.01848330007580128,-5.4647813070693184e-05,-0.0061286852351108215,-0.01715699177466719
8317.6376953125,0.018483393340866246,-5.991881530262711e-05,-0.004737458676536355,-0.019978414604472926
7585.77587890625,0.01848350546035825,-6.569793475232888e-05,-0.0017575669410461528,-0.01486497895819503
6918.3095703125,0.018483640243508827,-7.203406007331035e-05,-0.003087120513222172,-0.01478545086742681
6309.5732421875,0.018483802268136177,-7.898075509773208e-05,-0.0007988814619892225,-0.011229312922842332
5754.3994140625,0.018483997035146135,-8.659669387622008e-05,-0.002067891237020166,-0.01007322547215502
5248.07470703125,0.01848423115415555,-9.494613902177846e-05,-0.000509433378744352,-0.009110355414911179
4786.30078125,0.018484512565919577,-0.00010409945581980773,-2.013869743662175e-05,-0.009550467077241607
4365.158203125,0.0184848508090854,-0.00011413367148718602,0.0019112764150976992,-0.007289587610030986
3981.07177734375,0.01848525733972609,-0.00012513307660506014,0.00031167635048448897,-0.00816260522037426
3630.78051757813,0.01848574591400898,-0.00013718987397574281,0.0003959224891928806,-0.005818724637401243
3311.31127929688,0.018486333045919942,-0.000150404871328322,0.0002548815345368438,-0.006755518727822722
3019.95166015625,0.01848703855429593,-0.00016488822014424972,0.0017748740479797305,-0.00567165098921745
2754.22875976563,0.018487886216299418,-0.0001807602006262367,0.0020961767693924195,-0.004656783572888936
2511.88647460938,0.01848890454534294,-0.00019815203607552028,0.001307416791355643,-0.0027773479266511203
2290.86767578125,0.01849012771839268,-0.0002172067496726892,0.0015385462551749801,-0.003115708913261689
2089.29614257813,0.018491596674999243,-0.00023808002466530945,0.0041473105014171435,-0.00664422798896401
1905.46069335938,0.01849336042187895,-0.00026094108425916946,0.00035628727756224776,-0.0032013804705523694
1737.80078125,0.01849547757032142,-0.0002859735299731123,0.0017876083237193183,-0.0026616346926326123
1584.89318847656,0.01849801814639528,-0.000313376132009653,0.001564055443644078,-0.002779749510420553
1445.43981933594,0.018501065709125797,-0.00034336351371308256,0.005238752849828996,-0.004143005949919383
1318.25671386719,0.018504719817260696,-0.0003761666758934397,0.0014999579723872954,-0.0019326764323765399
1202.26440429688,0.01850909887794369,-0.00041203327043353105,0.0016359515393148914,-0.000987440620403631
1096.47814941406,0.018514343408384086,-0.00045122752883045264,0.0008583449399850868,-0.0017661526751195527
1000.0,0.018520619731966892,-0.000494029726117656,0.002500442799751191,-0.002200062157802056
912.010864257813,0.018528124097636708,-0.0005407349964864619,0.0012255495077882067,-0.0005842589891310848
831.763793945313,0.01853708719383796,-0.0005916513348871394,0.000622728667369659,-0.0011615383867115392
758.577575683594,0.018547778963959115,-0.0006470965413390241,0.0002531148641466141,-0.004111295212620324
691.830993652344,0.01856051356904234,-0.0007073938656228277,0.0005072166156026431,-0.0003693865479997277
630.957336425781,0.018575654244901145,-0.0007728660807797953,0.000945850155235746,0.001398013545866805
575.43994140625,0.018593617664999222,-0.000843827710071425,0.0002731931827728226,-0.0009793954478146249
524.807434082031,0.018614877292131776,-0.0009205752272977029,-0.00016440982260762516,0.001476201579265397
478.630096435547,0.01863996500490627,-0.0010033751091668747,0.0005620755475612728,0.00027141946379742534
436.515838623047,0.01866947011121648,-0.0010924498401239855,0.0009157889432562794,-0.00016238198984718552
398.107177734375,0.018704034700163866,-0.0011879622528296438,-5.266225420563417e-05,0.0006483452104064562
363.078063964844,0.018744344258124865,-0.001289999094520384,0.0004669152138781635,0.0013628322810785162
331.131134033203,0.018791112510158896,-0.0013985551734210526,-0.000123445483253104,0.0003160517123771474
301.995178222656,0.01884505977596143,-0.0015135200999789166,0.00024824669326643095,0.0006644324559605835
275.422882080078,0.018906884902805787,-0.0016346703372448598,-0.0009082340805821112,-0.00035922756376865973
251.18864440918,0.018977231699646453,-0.0017616695272260102,-3.824588238245802e-06,-0.0003076948937484102
229.086761474609,0.01905665250634389,-0.0018940803003734616,-0.0003654315867500091,0.0006947461641156386
208.929611206055,0.019145572804300487,-0.0020313898537531816,-0.00024134827366621356,-0.0006508920312151816
190.54606628418,0.0192442626661315,-0.0021730503611236663,-0.014690121918295402,0.014058685807141634
173.780090332031,0.0193528214281257,-0.0023185326227397386,-9.991435354389858e-05,0.0010230567331014615
158.489318847656,0.019471182067242566,-0.0024673885697701833,-0.0008669844378557355,0.001702001035751917
144.543975830078,0.01959913993066588,-0.002619314986990017,0.0069631219450238795,-0.0005046739725035167
131.825668334961,0.019736407430981484,-0.0027742085614683087,-0.0005204434374820148,0.0003127017887798911
120.226440429688,0.019882691856193534,-0.002932201446222786,-0.0007463676671504646,0.0015692623991494141
109.647819519043,0.020037788781167243,-0.0030936677918147683,-0.0011952036294925576,0.0006328118055749319
100.0,0.020201679844027605,-0.003259194972421531,0.000625676069027005,0.0004529662388753691
91.2010803222656,0.020374621148288863,-0.0034295181511403176,-0.0004349771187895368,0.0001954661448983824
83.1763763427734,0.020557208966435064,-0.0036054221790897184,-0.0014223651476491343,-0.0005455131985861185
75.8577575683594,0.020750411309511368,-0.0037876197683121985,-0.000868575192778432,0.00017502414188720183
69.1830978393555,0.02095555815839103,-0.003976618292492653,-0.0005029596016473716,0.0008755876880764471
63.0957336425781,0.021174287474684476,-0.004172589330889951,0.016928669582091375,-0.004709650288757551
57.5439949035645,0.021408449044017435,-0.0043752549997159666,-0.0009303995170310657,0.0002620259450188331
52.4807472229004,0.02165997200024511,-0.004583803990480547,-0.0006704276024064905,-8.473550677034775e-05
47.8630104064941,0.021930705621298792,-0.0047968478079347225,8.163773959539086e-05,-0.006052534319220322
43.6515846252441,0.02222224544180036,-0.005012425201401757,-0.0011054050605237425,8.756846336954293e-05
39.810718536377,0.022535759220296683,-0.005228058956347338,-0.0008922468773777184,-0.00015341682337963788
36.307804107666,0.022871828358101445,-0.005440865535113923,-0.001391173620295956,0.00047636508586627706
33.1131134033203,0.023230321034693985,-0.005647712867056585,0.0003628835826160852,0.0003578276230938142
30.1995162963867,0.023610311819623555,-0.005845416847517455,-0.0008101972952379438,-0.0003051241374516546
27.5422878265381,0.024010059728702578,-0.006030961926832271,-0.0007539658551607223,-0.00021875655259147135
25.1188640594482,0.024427051728199787,-0.0062017275166775295,-0.0011037317313444123,-0.0005436103937294292
22.9086761474609,0.02485811258764041,-0.006355699636989043,-0.0006831016847394893,-0.000297206007891143
20.8929615020752,0.02529957503233557,-0.006491647639237311,-0.0003515576555907299,0.0015963953203334885
19.0546073913574,0.025747497737872712,-0.0066092483829808535,-0.0007660377915023886,-0.0005534723531556533
17.3780078887939,0.026197913459128575,-0.006709145244058518,-0.0007184153584774249,-0.0005376430711116183
15.8489322662354,0.026647086516478093,-0.006792935642597006,0.002795924693801393,0.0012560513734847937
14.4543981552124,0.02709175813649426,-0.006863087764437915,-0.0006155615701841401,-0.0002989968047102153
13.1825675964355,0.027529359862304446,-0.006922793824258103,-0.00025793437650135226,-0.00030333713445340315
12.0226440429688,0.02795817899869513,-0.006975772549014214,-0.00014711160792276953,-0.00048149446080221394
10.9647817611694,0.02837746515388856,-0.007026037375077383,-0.0003143426078998403,3.534724320491695e-05
10.0,0.02878747266958369,-0.007077648382521309,-4.539320935591229e-05,-0.000561498183644509
9.12010860443115,0.029189439271919672,-0.007134465836326951,-0.00016295372939832686,-0.0003457836437629506
8.31763744354248,0.029585506027925666,-0.007199921200684042,-6.499774159123353e-05,-0.0003863265949104423
7.58577585220337,0.029978587256547853,-0.007276818552285362,-0.0003274409456282476,-0.0002631851707100624
6.91830968856812,0.030372201214362862,-0.007367175732593479,-0.00017333707697223671,-0.00013678214405057898
6.30957365036011,0.03077027331443867,-0.00747211110518704,6.801392289246949e-05,-4.412159995573987e-05
5.75439929962158,0.031176923574241438,-0.007591778599639552,0.00010374634090303675,-0.00017046993689725197
5.24807453155518,0.03159624928596046,-0.007725351204387103,-0.00019931575295894371,0.0008023719366273968
4.78630113601685,0.03203211289392211,-0.00787105105506439,-0.00017433676375648577,-0.00010539238961598894
4.36515855789185,0.03248794397242846,-0.00802622277665202,-0.00014482418171583855,5.414235961367919e-05
3.98107171058655,0.032966563115015446,-0.008187445485739358,-0.00018534286867095268,0.00022044158563164218
3.63078045845032,0.03347003448255988,-0.008350677816463169,-9.354215613872202e-05,-0.00014724678386516914
3.3113112449646,0.03399955262161462,-0.008511429344808334,-0.00023728455685407407,0.00010465302547286656
3.01995182037354,0.03455536789962427,-0.008664950934514692,-0.0001306945853553343,-7.387923197479246e-05
2.75422859191895,0.03513675345540276,-0.008806435775005447,-7.702275512340429e-06,9.303874150545267e-05
2.51188635826111,0.03574201494423933,-0.008931222456244947,-1.800775559357426e-05,0.00015964350596235286
2.29086756706238,0.03636854260785813,-0.009034991195688166,-0.0002638126947141703,-7.634230543136604e-05
2.0892961025238,0.037012903390593946,-0.009113944566216758,-0.00022626444869475182,-0.0009994175865915573
1.90546071529388,0.037670969038465923,-0.009164964586240738,-7.148924543527724e-05,-0.00018851998422813807
1.73780083656311,0.03833807443453609,-0.009185738997553967,-8.666704223811439e-05,0.0010226209219344334
1.58489322662354,0.0390091989346475,-0.009174850850107597,0.0005467351683111007,0.00014596238106250221
1.44543981552124,0.03967916224668798,-0.009131827134245523,-0.00011575217773142354,-1.0477121525923061e-05
1.3182567358017,0.04034282554061964,-0.009057144157594031,-0.0007532023998920584,0.0003942283913437681
1.20226442813873,0.04099528805217251,-0.008952189445482577,0.00013520882329450673,0.0009399305805694227
1.09647822380066,0.04163206953038073,-0.00881918223898206,0.00020659926761483483,5.361547370153971e-05
1.0,0.04224926951032133,-0.008661056835565086,7.952349882573567e-05,-7.305942884398668e-05
0.912010848522186,0.042843695573040866,-0.008481315098082146,4.664047760666312e-05,6.552437009895405e-05
0.831763744354248,0.043412954449875765,-0.008283856186719755,-2.244403936103173e-05,2.2991698531244983e-05
0.758577585220337,0.043955501930009286,-0.008072792813857355,-8.459685634481379e-05,2.188346604543867e-06
0.691830992698669,0.04447064992341502,-0.007852264039295585,0.00011617016348342002,-0.0001007442475136856
0.630957365036011,0.04495853152176075,-0.007626254653590797,-0.00015534121493165215,8.455144051920313e-05
0.575439929962158,0.04542002732096438,-0.007398430614536791,0.00041144246397738227,-8.949021137339124e-05
0.524807453155518,0.045856658415154086,-0.007171998765979027,0.0004375391166959869,-0.00027833603015922723
