freq,mu_Z_re,mu_Z_im,Z_re_res,Z_im_res
10000.0,0.02071383676350694,-7.623361397269969e-06,-0.0073055262970866605,-0.018543269040036673
9120.1083984375,0.020713842170565062,-8.358817477004472e-06,-0.00419112045851474,-0.016713830839772008
8317.6376953125,0.020713848670911476,-9.165218854100306e-06,-0.004135528901625024,-0.0145551190514208
7585.77587890625,0.020713856485526205,-1.0049406994249414e-05,-0.0025932360022857953,-0.01471214878242105
6918.3095703125,0.020713865880020558,-1.1018882406983473e-05,-0.0023494603744664416,-0.012226781281543983
6309.5732421875,0.020713877173638002,-1.2081867924407745e-05,-0.0015606132722142986,-0.012812972820273109
5754.3994140625,0.02071389075006515,-1.3247377968371889e-05,-0.0004990856758210482,-0.00923931343833257
5248.07470703125,0.020713907070416433,-1.452529440111844e-05,-0.0003077719733533685,-0.010400949433543118
4786.30078125,0.02071392668882636,-1.592644950538998e-05,0.0011333463946941597,-0.00881890570273779
4365.158203125,0.020713950271172565,-1.7462716777565273e-05,-0.00028821011407843475,-0.008096194313247365
3981.07177734375,0.02071397861755583,-1.914711020658649e-05,-6.333754294169519e-06,-0.007720168729347687
3630.78051757813,0.02071401268928882,-2.09938927903464e-05,0.0009079796889388224,-0.007336550877185047
3311.31127929688,0.020714053641296245,-2.3018695048006185e-05,0.0013959461257227433,-0.007845993280044707
3019.95166015625,0.020714102861008537,-2.5238644374797042e-05,0.0002174960342263381,-0.005653672188563497
2754.22875976563,0.02071416201505075,-2.7672506066408165e-05,2.3132287591751122e-05,-0.004890933285596208
2511.88647460938,0.020714233105285022,-3.0340836973420954e-05,4.352856169452177e-05,-0.005475470075042422
2290.86767578125,0.02071431853608104,-3.32661526149924e-05,0.0017018971665284412,-0.0038240207446610924
2089.29614257813,0.020714421195039148,-3.6473108645953414e-05,0.001228010651716547,-0.0034528865499462535
1905.46069335938,0.020714544549858584,-3.9988697483712405e-05,0.0006292619260906823,-0.0034452402377273122
1737.80078125,0.020714692764500768,-4.384246082143309e-05,0.0010631959816018687,-0.0028267006705058333
1584.89318847656,0.020714870838482106,-4.8066718543982124e-05,0.001057679949362008,-0.002707561008672282
1445.43981933594,0.020715084773701306,-5.269681435811295e-05,0.0013781477783142045,-0.0024272641386537132
1318.25671386719,0.020715341774200903,-5.777137804617274e-05,0.000741829035257803,-0.002245488618349873
1202.26440429688,0.020715650484989814,-6.333260363538641e-05,0.000911562086175613,-0.0018063441294674863
1096.47814941406,0.020716021277292596,-6.942654224945412e-05,0.0010957051741917953,-0.002104705369201354
1000.0,0.02071646658875578,-7.610340711587726e-05,0.0010002671013080791,-0.0014617600582252773
912.010864257813,0.020717001328465094,-8.341788724500878e-05,0.0008242286688056946,-0.0009980015683962087
831.763793945313,0.02071764335820435,-9.142946400336483e-05,0.0013953933198189473,-0.0010639937961904647
758.577575683594,0.020718414062806514,-0.00010020272275075616,0.0008803044503416131,-0.0010386209276468561
691.830993652344,0.020719339024207303,-0.00010980764858214479,0.0009656426272604025,-0.0009025226485707447
630.957336425781,0.02072044881515944,-0.00012031989106473678,0.0005028159403129388,-0.0006283037357919368
575.43994140625,0.0207217799297459,-0.0001318209775965051,0.0006802210382111026,-0.0005761212757098051
524.807434082031,0.020723375868436637,-0.0001443984486408648,0.0009477170225351376,-0.00034348657692446485
478.630096435547,0.0207252883950277,-0.00015814588002862376,0.0004668170252844009,-0.00037620420514602375
436.515838623047,0.02072757898070215,-0.00017316274731981053,0.0010008331964194497,-2.726074869841054e-05
398.107177734375,0.02073032044609496,-0.00018955407569591398,0.0004968793018669607,-0.00020101682122912237
363.078063964844,0.02073359880425533,-0.00020742980490133953,0.00036295335568983095,0.00010563983738726045
331.131134033203,0.02073751529467963,-0.00022690378375447514,0.0007088310064163293,0.00017488259925402483
301.995178222656,0.020742188579245025,-0.000248092292780684,0.00019251685480632663,0.000558542312615816
275.422882080078,0.02074775704298703,-0.00027111197832311717,0.0005551786080428278,-0.0005067800126158171
251.18864440918,0.020754381104872616,-0.00029607707077745134,0.0001605535145263147,-4.8789361278751364e-05
229.086761474609,0.020762245393616947,-0.00032309575558633387,0.00018659349463684763,1.1305597443166148e-05
208.929611206055,0.020771560580935922,-0.00035226557502716953,0.0005029396577744226,-0.00022358774713906952
190.54606628418,0.020782564591125062,-0.0003836677692982063,0.00027443916673996344,0.0001713632322695937
173.780090332031,0.020795522826477883,-0.0004173605259406546,0.00037782696144278427,2.4147309463453965e-06
158.489318847656,0.020810726970628232,-0.00045337120428426707,-4.938437025216874e-05,0.0003087635279285329
144.543975830078,0.020828491873282805,-0.0004916877455465249,-0.0002289127044492953,0.00019970308361427509
131.825668334961,0.02084915000194355,-0.0005322496711052183,-0.0002873294503088486,0.0004420190978087817
120.226440429688,0.020873042993324823,-0.0005749393010653448,-0.00012082675836697782,0.0002188020164005552
109.647819519043,0.020900509982054997,-0.0006195740756282104,2.4540080374096246e-05,-2.338827873411039e-05
100.0,0.020931872641103293,-0.0006659010882155399,8.520959820039128e-05,0.00030284336622416006
91.2010803222656,0.020967417252044533,-0.0007135950950021876,0.00019185323713283298,0.0012289748770137124
83.1763763427734,0.02100737460542061,-0.0007622612817128019,2.505884158950783e-05,0.00025099660829549803
75.8577575683594,0.021051899065134133,-0.0008114438920892211,-2.95410856036675e-05,0.000548977409707779
69.1830978393555,0.0211010486283233,-0.000860641415604925,-0.0007685623667308995,0.000975035658663475
63.0957336425781,0.021154768170397638,-0.0009093284022306291,-0.00011550135763366276,0.000273592013655071
57.5439949035645,0.021212878178190515,-0.0009569831756893732,-0.000263683025408485,0.00048334071356612683
52.4807472229004,0.0212750710702622,-0.0010031198613033934,-0.0011234454654968015,0.0013044709343774065
47.8630104064941,0.021340916661167032,-0.0010473223683667534,-0.0011707183145047671,-0.00026168949448145335
43.6515846252441,0.021409877484504913,-0.001089277414327507,0.0005795964056894143,-5.620470522160704e-05
39.810718536377,0.021481333661391714,-0.0011288034620813288,-0.0007122751441454855,-6.840190693062874e-05
36.307804107666,0.02155461592701679,-0.00116587262346055,0.00027922598747018995,-0.00042019139255045003
33.1131134033203,0.021629044477422178,-0.0012006231492397816,-0.00026492991618402156,0.00035899966936431835
30.1995162963867,0.021703970606975053,-0.001233361003863809,7.73565727991525e-05,-0.0001789256175414092
27.5422878265381,0.021778817773830707,-0.00126455008481774,0.00011246606804110604,-4.7481446165239995e-05
25.1188640594482,0.021853118786864096,-0.0012947917441765164,0.00014638307159409517,0.0001577768250440835
22.9086761474609,0.021926546231204765,-0.0013247952541709479,0.000135358184868567,1.691146973515213e-05
20.8929615020752,0.021998933955264234,-0.0013553416185220156,-0.00024312970118506652,-0.0001555398168182156
19.0546073913574,0.02207028832550568,-0.001387243586837791,-9.307484809832275e-05,-3.2770293078891125e-05
17.3780078887939,0.0221407888853183,-0.001421304868399884,5.862400170469906e-05,-0.00031862743837368407
15.8489322662354,0.022210778926527418,-0.0014582813799233335,0.00015497978500121634,-3.192721287173343e-05
14.4543981552124,0.022280747203719888,-0.0014988469694692836,0.00012286952008038962,-4.725163233918351e-05
13.1825675964355,0.022351302547607477,-0.0015435655110905859,0.00019009072915077835,-0.00012094117453498592
12.0226440429688,0.02242314344786629,-0.0015928706483534579,0.00015850266956318748,-3.0121845527657795e-05
10.9647817611694,0.022497024797714513,-0.001647053848389576,2.64089935191128e-05,0.00023104904368882414
10.0,0.02257372395636701,-0.001706260862465743,6.483079435491007e-05,0.00024614597141385704
9.12010860443115,0.022654008134476,-0.0017704961977976989,5.4162009827000285e-05,0.00014422373677750117
8.31763744354248,0.022738604877082177,-0.0018396347972739926,0.00020569476851587526,0.00010080978021130733
7.58577585220337,0.02282817713570804,-0.0019134397933368514,9.805388403143905e-05,2.0528949041148745e-05
6.91830968856812,0.02292330409934487,-0.0019915849418771173,1.278739025557113e-05,-9.455350054621736e-05
6.30957365036011,0.023024468600254193,-0.0020736801514608365,0.00010306845555799193,-1.1252572966936707e-05
5.75439929962158,0.02313205152934248,-0.002159298400392419,-0.00018755234593691855,4.505086411008127e-05
5.24807453155518,0.02324633329460202,-0.002248002293004609,2.6643567772519777e-05,-2.067753341700911e-05
4.78630113601685,0.023367501949145025,-0.002339368549783394,-0.00014865383021667525,-3.0132805605093908e-05
4.36515855789185,0.023495667221962207,-0.002433008864529572,5.0735267816806595e-05,-6.003456749787209e-05
3.98107171058655,0.023630879328874404,-0.0025285857905178043,-0.0001395405518733947,5.7868129712395754e-05
3.63078045845032,0.023773151147623336,-0.0026258226304714544,6.41911062195348e-05,-1.2854189372554607e-05
3.3113112449646,0.02392248213111752,-0.002724506682165879,3.4896282547620255e-05,-9.2675233640779e-05
3.01995182037354,0.024078882222339004,-0.0028244856122018065,-5.009312434549676e-05,4.603170500379339e-05
2.75422859191895,0.024242394031126827,-0.0029256571639617425,-6.666557387557254e-05,7.512377609405737e-05
2.51188635826111,0.02441311163698652,-0.003027952827404179,-4.801245535398027e-05,9.682998817142109e-05
2.29086756706238,0.024591194585192367,-0.0031313164781766748,-0.00018396402872783435,2.924030013502516e-05
2.0892961025238,0.024776875931134076,-0.0032356793108965433,1.749019633757662e-05,4.943906780225651e-05
1.90546071529388,0.024970463540701444,-0.0033409326278672023,-3.460322663345616e-05,7.753507820209768e-05
1.73780083656311,0.02517233424958805,-0.0034469001875012985,-5.305549922365177e-05,-3.309421657919859e-05
1.58489322662354,0.025382920897871405,-0.0035533118628561797,0.0002691836872400072,0.00019808643417052038
1.44543981552124,0.02560269266389922,-0.003659780307074457,-8.548803604527949e-05,-0.00012235569987205722
1.3182567358017,0.02583212950180401,-0.0037657821810243948,-6.967610766058993e-05,-0.00013989077679799457
1.20226442813873,0.02607169181960584,-0.0038706452715471878,-3.20021722936617e-05,5.414642959081185e-05
1.09647822380066,0.026321786805396527,-0.003973542541602329,0.00013019458890482782,-2.301048148582903e-05
1.0,0.02658273300464717,-0.004073493811846988,0.00014302341576186844,0.00011423632913701211
0.912010848522186,0.026854724866619713,-0.004169375405896001,6.246125446861261e-05,-3.7568857211201304e-05
0.831763744354248,0.027137799008696405,-0.004259937709811362,0.00015033018490580655,2.047811945963835e-05
0.758577585220337,0.02743180389631768,-0.004343830222114138,-6.094467710471979e-05,-1.4089686646337994e-05
0.691830992698669,0.027736374508929615,-0.004419633321650501,4.890128631631491e-05,-0.00013456460479670078
0.630957365036011,0.02805091336677694,-0.004485895667198723,-8.75118344006616e-05,-1.4255098972222255e-05
0.575439929962158,0.02837457904122806,-0.004541175880562462,2.427264079857966e-06,5.00495256853823e-06
0.524807453155518,0.028706282974445906,-0.004584086959654825,3.669843193300493e-05,0.00013339343160907562
