freq,mu_Z_re,mu_Z_im,Z_re_res,Z_im_res
10000.0,0.023709835287326,-4.822339863910309e-06,-0.0242771862185067,-0.04594657006487381
9120.1083984375,0.023709836020533975,-5.287589427251871e-06,-0.017368690506155526,-0.03927656030833365
8317.6376953125,0.023709836902027732,-5.797725084651555e-06,-0.013333283810014172,-0.032841128539207856
7585.77587890625,0.023709837961794593,-6.35707725924697e-06,-0.009546201061604809,-0.03205672824730314
6918.3095703125,0.023709839235883934,-6.970394132665671e-06,-0.008742501933234968,-0.029093945774910965
6309.5732421875,0.023709840767631947,-7.642881941388791e-06,-0.007528277418961154,-0.025593851210546092
5754.3994140625,0.023709842609133853,-8.380249149784542e-06,-0.004246598435673547,-0.021748943462974984
5248.07470703125,0.023709844823013155,-9.188754893328394e-06,-0.0034917033957139465,-0.02056590686593153
4786.30078125,0.02370984748454813,-1.0075262080563693e-05,-0.0022698204174446714,-0.016837422019134865
4365.158203125,0.02370985068422728,-1.1047295620213685e-05,-0.0014938969905955203,-0.015873303584148613
3981.07177734375,0.02370985453082082,-1.2113106252767577e-05,-0.0003078538452291786,-0.01615779693126877
3630.78051757813,0.02370985915507166,-1.3281740527789355e-05,0.0003811543955930599,-0.013892057501059188
3311.31127929688,0.023709864714132015,-1.4563117525782047e-05,0.0013272458547217147,-0.011933563303551881
3019.95166015625,0.023709871396894937,-1.5968112957692103e-05,0.0015557599817471388,-0.011208342044365592
2754.22875976563,0.023709879430404306,-1.750865136231609e-05,0.0024440672122151043,-0.008094196926103416
2511.88647460938,0.023709889087557712,-1.9197807167118476e-05,0.0018529999588727114,-0.006984458759878218
2290.86767578125,0.023709900696370145,-2.1049915462183457e-05,0.002175744642111843,-0.007733514695077583
2089.29614257813,0.023709914651105442,-2.308069340549798e-05,0.003034799363801542,-0.008475568802874898
1905.46069335938,0.023709931425668924,-2.5307373297599128e-05,0.0019217366500875223,-0.006576954466444599
1737.80078125,0.023709951589694404,-2.7748848373142793e-05,0.0014779965084700045,-0.005311041696989943
1584.89318847656,0.023709975827908947,-3.0425832571826085e-05,0.002481939915991247,-0.006222170767339226
1445.43981933594,0.023710004963380042,-3.336103552668862e-05,0.0022242385674535424,-0.003592433537484089
1318.25671386719,0.023710039985504004,-3.657935426525389e-05,0.0029506549063586032,-0.004617179075786354
1202.26440429688,0.023710082083619202,-4.0108083092153346e-05,0.002998678743518002,-0.0035953328258324533
1096.47814941406,0.023710132687411335,-4.3977143369592825e-05,0.003019294812402734,-0.0038313028385265928
1000.0,0.023710193515490134,-4.8219334975947846e-05,0.0021153860098825326,-0.002465679418937348
912.010864257813,0.023710266633737452,-5.28706114160728e-05,0.0033967354733828517,-0.0029386520727889727
831.763793945313,0.023710354525452337,-5.797038061087317e-05,0.002032618332510637,-0.0015991524301609732
758.577575683594,0.02371046017559401,-6.356183363338643e-05,0.002054863382896111,-0.0017595202654434865
691.830993652344,0.023710587171996766,-6.96923036505264e-05,0.018458279891098765,-0.06972001450251833
630.957336425781,0.02371073982693842,-7.641365764703452e-05,0.0021053320077865194,-0.0010356824287589346
575.43994140625,0.02371092332313041,-8.378272342438816e-05,0.002081448266005311,-0.0010676577354495882
524.807434082031,0.023711143888996197,-9.186175449417342e-05,0.002286265500352897,-0.0008545485281630735
478.630096435547,0.023711409009058895,-0.00010071893546772044,0.0020096744960144963,-0.0011274516661469204
436.515838623047,0.02371172767638904,-0.00011042893049926078,0.0018105262196038419,-0.00012448889458647048
398.107177734375,0.023712110695402768,-0.00012107347711307642,0.0012718355180431698,-0.0004933060844459765
363.078063964844,0.023712571044880316,-0.00013274202741951253,0.002056687404829418,-0.00047758426321001257
331.131134033203,0.02371312431294656,-0.0001455324382999903,0.00193665488857956,-0.0003825360473723903
301.995178222656,0.023713789217896335,-0.00015955171098296932,0.0011736576340864342,-1.0550751046469332e-05
275.422882080078,0.023714588231326477,-0.00017491677974437834,0.0015676591758741754,0.0016663766353102218
251.18864440918,0.023715548322886488,-0.0001917553471690156,0.0009386931670608868,0.0008381628559612844
229.086761474609,0.023716701849370397,-0.00021020676177223142,0.0007441441556504981,0.0022681678721657686
208.929611206055,0.02371808761454801,-0.00023042292995357886,0.0012924416521905083,0.0006332519235091211
190.54606628418,0.023719752130302956,-0.00025256925021225186,0.0018649864170880576,0.0005678200582887481
173.780090332031,0.023721751114168705,-0.0002768255520031887,0.0009872916245847047,-0.00013999086631248867
158.489318847656,0.023724151263025225,-0.0003033870140549353,0.0006932219956187272,0.0006197589558089647
144.543975830078,0.0237270323473115,-0.00033246502701265117,0.001094342200746102,0.0004775336901463488
131.825668334961,0.023730489674297216,-0.00036428795284687137,-0.0005339335023489857,0.0003122133566522286
120.226440429688,0.023734636972163787,-0.0003991017178496274,0.0010797757603870882,0.0006273441654765725
109.647819519043,0.02373960974764403,-0.0004371701556338801,0.0012021529222684298,0.0005092399611056199
100.0,0.023745569167910385,-0.0004787749923802698,0.000905317021785583,0.0007512334421239303
91.2010803222656,0.023752706510044963,-0.0005242153367190589,0.0001916330429095614,0.0004140604340307412
83.1763763427734,0.023761248206584658,-0.0005738065018940422,0.000622080629556359,0.0008015313279192578
75.8577575683594,0.023771461490173146,-0.0006278779485866648,0.00044117348231774434,0.001206918793018135
69.1830978393555,0.02378366059978852,-0.0006867700932934214,0.00104539013822922,0.0019641904880836787
63.0957336425781,0.023798213452034356,-0.0007508296852236151,6.568349891225567e-05,0.0007428388477066849
57.5439949035645,0.023815548597785813,-0.0008204034169977781,0.0009409492751091125,0.00021222528407062187
52.4807472229004,0.023836162172955956,-0.0008958294102065106,0.00011394382337995626,0.00026561959655208934
47.8630104064941,0.023860624409922888,-0.000977426218052352,0.0006295986247151879,0.0003848205924062481
43.6515846252441,0.02388958510585214,-0.00106547903130827,0.0003630301786222423,0.00102309053902443
39.810718536377,0.023923777251471077,-0.0011602228765939028,0.0002818947871813769,0.00023240158077279718
36.307804107666,0.023964017825764617,-0.0012618227787790934,4.4260370177216096e-05,0.0005729542886363066
33.1131134033203,0.024011204591594365,-0.0013703511427079651,-0.0002358326552289354,0.00047232982656753475
30.1995162963867,0.02406630761826095,-0.0014857629945465778,-0.0010380884269470501,0.0006745659114828222
27.5422878265381,0.024130354273944755,-0.0016078702105138671,0.00010590871038995697,0.00045201904830293295
25.1188640594482,0.02420440661635802,-0.0017363164055633198,0.00027282695200842033,0.0009521285124581801
22.9086761474609,0.024289530526108945,-0.0018705547019940041,0.002617969001836945,0.0007420325953411957
20.8929615020752,0.024386756586707286,-0.002009831046216059,3.804871705838722e-05,0.00029616485955574106
19.0546073913574,0.024497033604695472,-0.002153175982496386,-0.0003553167494991273,0.00037528750781091373
17.3780078887939,0.02462117670660971,-0.0022994077127833383,-4.196429068089105e-05,-0.0021350315921182385
15.8489322662354,0.02475981302041427,-0.002447148793015049,-0.00042881183844193163,0.00013515561948395077
14.4543981552124,0.024913328878712424,-0.0025948579162830164,-0.00015089549856207515,0.00028672002064938354
13.1825675964355,0.025081823094518934,-0.002740876968207234,-0.00022442035493056706,0.00042047632373636576
12.0226440429688,0.02526507101957696,-0.002883492038752449,-0.00010641157622443692,-9.881099795884876e-05
10.9647817611694,0.025462503706514497,-0.0030210055283797143,-0.00021417143434320288,0.0003694645256208857
10.0,0.025673205576780683,-0.0031518151021519016,0.0005123266800673848,0.0005969109975775982
9.12010860443115,0.025895932622165076,-0.0032744942199838638,-0.00029847032585682276,-0.00011008456018096399
8.31763744354248,0.026129151507223624,-0.0033878684415832626,-0.00025417581299447614,3.789105458403734e-05
7.58577585220337,0.026371098180285373,-0.0034910817412598513,-0.0004267217023459259,0.00012680238430064867
6.91830968856812,0.026619852946993365,-0.003583647655761947,-0.00027709318518973416,-6.818433336094713e-05
6.30957365036011,0.026873427577512935,-0.003665481155810399,-0.00010498320291686333,0.00019013842374320097
5.75439929962158,0.027129859043790977,-0.003736908540590653,-8.883109824452465e-05,0.00031938963337334704
5.24807453155518,0.027387303974653058,-0.0037986542641677166,3.0029308224457235e-05,1.4204803525583176e-05
4.78630113601685,0.02764412790227797,-0.003851805241289071,4.808261681467016e-05,0.00011057789858942915
4.36515855789185,0.02789898380695051,-0.003897754721243956,-0.00014689400734239216,4.500964293894377e-05
3.98107171058655,0.028150875289719456,-0.003938129130226236,5.4462049882755825e-05,3.5818242061263356e-05
3.63078045845032,0.028399200811513814,-0.003974702293050871,-7.612101780518632e-05,0.00020206897519762894
3.3113112449646,0.028643776731897143,-0.004009302096516152,0.00027152623455594174,0.0004087697285410476
3.01995182037354,0.02888483824989746,-0.004043714938779901,-0.00011839074232624161,0.0001472738998926984
2.75422859191895,0.029123018695349723,-0.004079593228148196,-6.383358097547878e-05,0.00021328369717120432
2.51188635826111,0.029359308852061478,-0.004118370793111386,-0.00018136777152132078,-5.6564777441085734e-05
2.29086756706238,0.029594999045829122,-0.004161190390328582,-0.00010573095013687722,5.252877276131808e-05
2.0892961025238,0.02983160754799409,-0.004208846619559897,-0.0001027819687171097,0.00011270619349320297
1.90546071529388,0.030070799399268933,-0.004261746543823989,-0.00018089544390406664,0.00012975651082461088
1.73780083656311,0.03031430003741008,-0.0043198892414867684,-0.0002562014242150183,7.647624832393153e-05
1.58489322662354,0.03056380812278662,-0.004382864458369828,-0.00013222258338058124,6.174782407571307e-06
1.44543981552124,0.03082091172167085,-0.004449869537604119,0.00364794579275865,0.000874206857877681
1.3182567358017,0.03108701156332605,-0.00451974294371023,-0.00023560552046184707,-7.822972944993012e-05
1.20226442813873,0.031363254479436616,-0.004591011994205864,-2.149672123938351e-05,8.128947330213621e-05
1.09647822380066,0.03165047941425613,-0.004661951903211434,-0.00022758962890336715,0.00018679793928326645
1.0,0.03194917761374592,-0.004730652927227788,-5.755178045158127e-05,-4.471177495318779e-05
0.912010848522186,0.03225946781375477,-0.0047950922900284,-3.130751511982999e-05,-0.0002026861922289
0.831763744354248,0.03258108649693083,-0.004853207629405759,-0.00011816691317007022,-2.1858152233859666e-05
0.758577585220337,0.0329133926142324,-0.004902968932914984,8.700598348038158e-07,-3.949814014468384e-05
0.691830992698669,0.03325538559918054,-0.004942446279527002,0.0001406170344794358,-0.00021928388923540213
0.630957365036011,0.03360573505930301,-0.00496987114200159,-3.0190442281988195e-05,-0.0002213390591160897
0.575439929962158,0.03396282021811402,-0.004983689495008791,1.1489288119420626e-05,-0.00010926588309969135
0.524807453155518,0.03432477699999453,-0.00498260548078037,-2.5558597997368815e-05,-0.00012235240750536978
