freq,mu_Z_re,mu_Z_im,Z_re_res,Z_im_res
10000.0,0.02035908419274241,-4.104000148308617e-06,-0.02426480111099329,-0.04253375030737831
9120.1083984375,0.020359085426436066,-4.499943656157858e-06,-0.018359804972304737,-0.03701216334263726
8317.6376953125,0.02035908690962344,-4.93408612232266e-06,-0.013280999741224962,-0.03276339726022702
7585.77587890625,0.02035908869275602,-5.410112612636073e-06,-0.009388600450067178,-0.029928815610878835
6918.3095703125,0.0203590908364857,-5.932063625674011e-06,-0.0082815947665369,-0.027754397601650573
6309.5732421875,0.020359093413725993,-6.50436935410744e-06,-0.005711762144192507,-0.024033123639798006
5754.3994140625,0.02035909651212961,-7.1318872443773025e-06,-0.0033544810265990904,-0.021230326784419176
5248.07470703125,0.020359100237065827,-7.819943163488108e-06,-0.002501046821897973,-0.019587897323105386
4786.30078125,0.02035910471519918,-8.574376528006988e-06,-0.0010076777712396193,-0.017615762228791507
4365.158203125,0.020359110098790097,-9.401589762765742e-06,-0.0005495659890662023,-0.015788133144509366
3981.07177734375,0.020359116570863565,-1.0308602504885496e-05,0.0011654616909359643,-0.013654568956844986
3630.78051757813,0.020359124351420572,-1.1303111006920502e-05,0.000654501203575273,-0.01297976507156102
3311.31127929688,0.020359133704903765,-1.2393553232712796e-05,0.0013240197294980653,-0.011678055372511913
3019.95166015625,0.020359144949168115,-1.3589180157651179e-05,0.0011681126736106141,-0.01028975497101355
2754.22875976563,0.020359158466265025,-1.4900133891007523e-05,0.0021908208231185243,-0.009419836939258408
2511.88647460938,0.02035917471539877,-1.6337533211571416e-05,0.0017610056270351698,-0.008450125616705271
2290.86767578125,0.020359194248506397,-1.7913567254181693e-05,0.002577707513758496,-0.007063488984832382
2089.29614257813,0.020359217728971056,-1.964159802791582e-05,0.0027368083405480553,-0.007105876696568616
1905.46069335938,0.02035924595413203,-2.1536272617509176e-05,0.0024554169606923297,-0.006066773921849609
1737.80078125,0.020359279882309008,-2.36136459036828e-05,0.0025234597885580093,-0.005702132786832583
1584.89318847656,0.020359320665323335,-2.5891314734806807e-05,0.002648633072697734,-0.004915324121256407
1445.43981933594,0.020359369687508927,-2.8388564495530418e-05,0.0024355712754243267,-0.00466813332310143
1318.25671386719,0.020359428612659897,-3.112652911959224e-05,0.0027184579653247963,-0.004010822955660192
1202.26440429688,0.02035949944036123,-3.412836558200929e-05,0.002830935702491929,-0.002805471470123309
1096.47814941406,0.020359584573643848,-3.741944406370626e-05,0.0027274968810254464,-0.0029565911480430064
1000.0,0.02035968690023909,-4.1027554829181986e-05,0.0026442029963541884,-0.0028629628955912823
912.010864257813,0.02035980989004269,-4.498313295544684e-05,0.0025035006996501873,-0.0022437137283652466
831.763793945313,0.020359957712116412,-4.931950195747205e-05,0.0029166044018890114,-0.001918251078567072
758.577575683594,0.020360135374932465,-5.407313727730577e-05,0.0014161978795816654,-0.002921421629422806
691.830993652344,0.020360348894504766,-5.9283950378441995e-05,0.0022000355266611656,-0.001372314320889542
630.957336425781,0.02036060549578396,-6.499559397430514e-05,0.0025714353497954603,-0.001162816176773905
575.43994140625,0.020360913853728915,-7.125578845481757e-05,0.002329117413246814,-0.0009290486413668176
524.807434082031,0.02036128438160509,-7.811666888596008e-05,0.002307057968235892,-0.0006039526868000601
478.630096435547,0.020361729575412005,-8.563515135268534e-05,0.0018844573331043037,-0.0005391554847470853
436.515838623047,0.020362264424809935,-9.387331591193511e-05,0.0021393158885331352,-0.00026930496313343514
398.107177734375,0.02036290690265862,-0.00010289880233258335,0.0011805396523353225,-0.0003887715553435834
363.078063964844,0.0203636785470519,-0.00011278521207833364,0.0019358092420373,-6.392583611278493e-05
331.131134033203,0.02036460515175577,-0.00012361250766801813,0.00410405200038667,0.0006512926943108818
301.995178222656,0.02036571758298189,-0.0001354673968466493,0.0017050660630872905,0.0005549440884192507
275.422882080078,0.020367052742326745,-0.00014844368415240107,0.0017097185934429465,9.041775338529891e-05
251.18864440918,0.020368654697306483,-0.00016264256628863318,0.0015044309637620816,0.00042433140260456683
229.086761474609,0.020370576001966102,-0.00017817284027876073,0.0013683731037022022,0.0004606022797448392
208.929611206055,0.02037287922995926,-0.0001951509838152063,0.0013625775505864586,0.0003513931661683937
190.54606628418,0.020375638740549828,-0.00021370105521630265,0.001341411384235127,0.00033398763200389735
173.780090332031,0.020378942693513955,-0.00023395434669946761,0.0010904307467165565,0.0006481907288936324
158.489318847656,0.020382895320332935,-0.0002560487080419819,0.001155675574816134,0.0006233967544456182
144.543975830078,0.020387619445129464,-0.0002801274396481107,0.0012322978023729635,0.00046788302902108934
131.825668334961,0.020393259227251905,-0.0003063376345964042,0.0009046675264596064,0.0006655267504681959
120.226440429688,0.020399983066083458,-0.0003348278302594869,0.0007457761344924589,0.0006147761408343131
109.647819519043,0.020407986565888915,-0.0003657448160034658,0.0008941075945506152,0.00039853597445953416
100.0,0.020417495401357233,-0.00039922943619063783,0.0036171420978055313,0.000981953723346962
91.2010803222656,0.020428767852585353,-0.0004354112354239297,0.0008293729798007528,0.0006337801421859704
83.1763763427734,0.02044209669331203,-0.0004744018240419759,0.0006349740455497306,0.000645261532761324
75.8577575683594,0.02045781002348438,-0.000516286906668104,0.0006351491898871804,0.0006529109367418959
69.1830978393555,0.020476270545113796,-0.0005611170230748782,0.0006538406795150963,0.0006991719679591217
63.0957336425781,0.02049787270799974,-0.0006088972101245799,0.00040853138045173973,0.0006281413128341201
57.5439949035645,0.020523037123180057,-0.0006595760077202922,0.0004616354728704565,0.0006003703730215077
52.4807472229004,0.020552201684527018,-0.0007130344906007606,0.00047811914604151823,0.0007261931155690395
47.8630104064941,0.020585808989614315,-0.0007690762927945582,0.00013597690781961408,0.0008001294858563418
43.6515846252441,0.02062428992616304,-0.0008274198538452768,0.0003723266385711396,0.00048225356444562325
39.810718536377,0.02066804370864541,-0.0008876943042728872,0.0007236478386751094,0.0008417096674215129
36.307804107666,0.020717415180036093,-0.0009494404456101165,0.00021398920936249385,0.00030901954430268344
33.1131134033203,0.02077267078742872,-0.001012118108737127,-0.004291369187975982,0.004525033715945773
30.1995162963867,0.02083397520183518,-0.0010751207498712785,1.1781728257682228e-05,0.0003113892255471216
27.5422878265381,0.020901370970464926,-0.0011377974717754927,0.00013557094142552586,0.0002482864235650074
25.1188640594482,0.020974763748346337,-0.0011994817970188516,0.0004289737763986355,-0.00010774356553875167
22.9086761474609,0.021053915475798952,-0.001259525582680408,-0.0009348750064836486,-0.00010613484449870808
20.8929615020752,0.021138447321338818,-0.0013173355987535851,-3.994909735188096e-05,0.0008342535434050151
19.0546073913574,0.02122785333141887,-0.0013724096484890064,0.0005946196202953682,-4.1602076258306486e-05
17.3780078887939,0.02132152463339388,-0.0014243688115449958,-0.00039909896410882106,0.00019549998384240427
15.8489322662354,0.02141878286698562,-0.0014729825105969836,0.00035886744359231795,0.0002863788486937163
14.4543981552124,0.021518920447717256,-0.0015181836366112164,0.00017824665833525433,0.00016136826747848365
13.1825675964355,0.021621244434556066,-0.001560071853110553,0.00019916187628176568,-0.00015465730999595305
12.0226440429688,0.02172512029535526,-0.0015989043173936898,-0.00036211284570933713,-9.549310259508986e-05
10.9647817611694,0.02183001178516887,-0.001635074266463303,0.0020672536195709725,-0.000228416291296303
10.0,0.02193551347479288,-0.0016690790680899737,0.00015885592326587983,7.892888693962637e-05
9.12010860443115,0.022041373128314952,-0.0017014803145182647,8.964369656655133e-05,9.276571086513528e-05
8.31763744354248,0.02214750204918238,-0.0017328592362386673,-0.0002431056952729195,0.0005309850098060326
7.58577585220337,0.022253972577386937,-0.001763771094882809,-1.2184394067662335e-05,0.0001063361600618911
6.91830968856812,0.022361003025637847,-0.0017947022491926127,4.930996821994604e-05,0.00010417449140448726
6.30957365036011,0.022468931379645066,-0.0018260333096859031,6.665602597496698e-05,9.446175617449683e-05
5.75439929962158,0.022578179978842518,-0.0018580112401492175,0.00013528592240311804,0.00011218024603058254
5.24807453155518,0.022689214072244,-0.0018907324998965005,9.667224304499983e-06,2.4534353860699524e-05
4.78630113601685,0.02280249757263887,-0.0019241384158049787,5.706896577106768e-05,0.00010136571506512123
4.36515855789185,0.022918449491559297,-0.001958023009970263,4.3017566500897636e-05,5.783843979283686e-05
3.98107171058655,0.023037404432087412,-0.001992052554383999,-4.909322471189498e-06,7.719599410700977e-06
3.63078045845032,0.023159580164929718,-0.002025795251548763,0.0001238843885864177,6.948049693737083e-06
3.3113112449646,0.02328505475110106,-0.002058758700647396,0.00010623890942625808,-8.871669174079612e-05
3.01995182037354,0.02341375494678897,-0.0020904322536213354,0.00012948917528076906,-9.43318390770353e-05
2.75422859191895,0.023545456786428134,-0.0021203310227205334,0.0003377773955208323,-0.00010157874768583356
2.51188635826111,0.02367979834794669,-0.0021480381908905804,8.585664450789024e-05,-1.192274604480334e-06
2.29086756706238,0.023816303819425563,-0.0021732424022148627,0.00012662215531636378,-3.5251966629562884e-05
2.0892961025238,0.023954417169109142,-0.0021957673583785876,0.0001782547533662436,8.108792969481254e-05
1.90546071529388,0.02409354302462898,-0.0022155912966191705,7.119852480258135e-05,-0.00010628745897717055
1.73780083656311,0.02423309183907091,-0.002232854732017807,0.00017125367414531217,-8.444885573068682e-07
1.58489322662354,0.02437252609611213,-0.002247855668149121,-0.0019430847597056676,0.002818389660485779
1.44543981552124,0.024511404204972054,-0.0022610323529690976,0.0001579279637410544,6.836836412502274e-06
1.3182567358017,0.024649418864939522,-0.0022729345300281107,0.00023351793417722075,-7.897929111961091e-05
1.20226442813873,0.024786427027865515,-0.002284184936763646,0.00018914357511621432,-4.08465511668463e-05
1.09647822380066,0.02492246913149309,-0.0022954334931081445,0.0001623979432816905,-5.7874662578744334e-05
1.0,0.02505777597679567,-0.0023073071420842426,0.00012433722867436978,4.3052780190657326e-05
0.912010848522186,0.025192762431416202,-0.0023203586319891505,0.00020844366839850234,2.7801040703249406e-05
0.831763744354248,0.025328008002579946,-0.002335017635565061,0.00016013487333134402,-2.031735618026123e-05
0.758577585220337,0.02546422517952744,-0.002351547487752112,0.00020751691517654006,-2.338820018021187e-05
0.691830992698669,0.02560221724273757,-0.0023700105013490735,0.00023623317541677027,-5.2862706238173286e-05
0.630957365036011,0.025742827924451386,-0.0023902443085910057,0.0003328165137381871,-0.00010684834207610582
0.575439929962158,0.025886885842403846,-0.0024118510159954285,0.00029923210116334503,-0.00016790377826542873
0.524807453155518,0.02603514698526942,-0.00243420018968915,0.00047479217133601995,-0.00015033856188695002
