freq,mu_Z_re,mu_Z_im,Z_re_res,Z_im_res
10000.0,0.029697274250069145,-3.5765791128404636e-06,-0.015008653121909656,-0.02992503188790784
9120.1083984375,0.02969727537754795,-3.921634186565435e-06,-0.013685313396417851,-0.026842697358359164
8317.6376953125,0.029697276732825552,-4.29997741652626e-06,-0.012071192183590651,-0.024002024033660425
7585.77587890625,0.029697278361876224,-4.714819727002899e-06,-0.007013688016574177,-0.018736780154643105
6918.3095703125,0.029697280319931497,-5.169681626359895e-06,-0.0060116835510707,-0.01862754943163976
6309.5732421875,0.029697282673335806,-5.668423021163258e-06,-0.0034783720360032945,-0.015199583417618564
5754.3994140625,0.029697285501771496,-6.215275884184181e-06,-0.005110672207064106,-0.013340073266685484
5248.07470703125,0.029697288900925795,-6.814880063623113e-06,-0.0022981081601837067,-0.012064244990935424
4786.30078125,0.029697292985687285,-7.472322520364413e-06,-0.000838613567581116,-0.012190299430128664
4365.158203125,0.02969729789397613,-8.193180324627222e-06,0.00033067055842772933,-0.012365286574127226
3981.07177734375,0.02969730379133427,-8.983567767424738e-06,0.0005558199629088698,-0.012517824799232724
3630.78051757813,0.029697310876426214,-9.850187996932072e-06,6.73539455504149e-05,-0.010070449261764633
3311.31127929688,0.02969731938763373,-1.0800389557752469e-05,0.002002250298101832,-0.010573660796492952
3019.95166015625,0.029697329610963715,-1.1842228365612942e-05,0.002417665779968114,-0.010186195835364512
2754.22875976563,0.02969734188953907,-1.2984535553226901e-05,0.0016905442331221696,-0.006869483775355526
2511.88647460938,0.02969735663499184,-1.4236991822234362e-05,-0.0006806497636859601,-0.007782921989976835
2290.86767578125,0.029697374341158832,-1.5610208811951177e-05,0.0017678652825641322,-0.006714932000341551
2089.29614257813,0.029697395600537826,-1.7115818194813907e-05,0.0019776762651010256,-0.005263814674548514
1905.46069335938,0.029697421124101706,-1.8766569154592033e-05,0.0010932172889720065,-0.004025731189357292
1737.80078125,0.02969745176511111,-2.0576435009926634e-05,0.0003999155260831083,-0.004805328584144727
1584.89318847656,0.02969748854781165,-2.2560729697026836e-05,0.002050913424739953,-0.0038365823207941268
1445.43981933594,0.029697532701889462,-2.4736234971370772e-05,0.0006633223328985603,-0.002142075523787171
1318.25671386719,0.029697585703979165,-2.7121339086125288e-05,0.002022644357929867,-0.002830604618508025
1202.26440429688,0.029697649327486083,-2.97361879440457e-05,0.0020254162674837838,-0.0038855629867704457
1096.47814941406,0.02969772570242331,-3.260284950320285e-05,0.0019930416386311108,-0.0019159262702736028
1000.0,0.029697817387253647,-3.574549233470934e-05,0.0027247635742729467,-0.0023341678829297092
912.010864257813,0.029697927454993864,-3.919057915473274e-05,0.0019392695227123634,-0.0024778259116645324
831.763793945313,0.02969805959648748,-4.296707611692633e-05,0.0040641675520624795,-0.0011125217859462265
758.577575683594,0.02969821824403192,-4.71066784517737e-05,7.989841417321147e-06,-0.0030584758248583736
691.830993652344,0.029698408719386366,-5.164405288476024e-05,0.0007531154418842639,-0.0008849482443585603
630.957336425781,0.02969863741077775,-5.6617096959124286e-05,4.076315440524822e-05,-0.0023639638861254245
575.43994140625,0.029698911984369344,-6.20672146789855e-05,-0.0020633713110236526,0.005423929854948014
524.807434082031,0.02969924163663212,-6.803960768518631e-05,-0.0023865086153762836,-0.003012361212130686
478.630096435547,0.029699637395054376,-7.458357966699047e-05,0.0016804103075566748,-0.00022088428621369047
436.515838623047,0.0297001124758694,-8.175285124132472e-05,0.001335347949383,-0.0007539782841774247
398.107177734375,0.029700682708634636,-8.960588008197749e-05,0.0039340175926821375,-0.0011377340006830776
363.078063964844,0.02970136703883659,-9.820617941497313e-05,0.0007229000512266881,-0.001685450046521673
331.131134033203,0.029702188120978804,-0.0001076226252106635,0.003870557667511404,0.0006482997197681366
301.995178222656,0.02970317301568285,-0.0001179297386015446,0.0022467497479607516,0.0010254293748830554
275.422882080078,0.02970435400504998,-0.00012920792527388122,0.002205438213538479,0.00016689194286341875
251.18864440918,0.029705769540691176,-0.00014154364795201376,0.006708129467391775,1.3146921663886228e-05
229.086761474609,0.02970746533798132,-0.00015502950111328292,0.00138393418716342,0.00017972508510641708
208.929611206055,0.029709495627436494,-0.00016976414784157767,0.0072709918256137936,-0.0020232311130996775
190.54606628418,0.029711924569346012,-0.00018585206901279412,-0.010205384267829385,-0.000745664073224994
173.780090332031,0.02971482782939165,-0.0002034030629447589,0.0008333655385085494,-0.0002855751816541815
158.489318847656,0.02971829430010941,-0.0002225314214214005,8.84454026523103e-05,-0.0298497018351539
144.543975830078,0.029722427933969984,-0.00024335469553900203,-0.0024453867380233134,0.001177863460344198
131.825668334961,0.029727349626644563,-0.0002659919536529994,0.010397509309276062,0.0286148985051693
120.226440429688,0.02973319905326914,-0.00029056142879572576,0.0014575211189801415,-0.00037156868124303287
109.647819519043,0.0297401363138543,-0.0003171774554358701,-0.0005746705349100982,-0.00010088795927017008
100.0,0.029748343187151107,-0.0003459466125737754,0.0007641206260301063,0.0010054193234149246
91.2010803222656,0.02975802372799977,-0.00037696302929610267,0.00149171303616627,-0.0008987572818593026
83.1763763427734,0.02976940387837213,-0.0004103028788407974,0.0010523759012631279,0.0005187261975193026
75.8577575683594,0.029782729705568486,-0.000446018192631864,0.002024915551539587,2.2316776268436014e-05
69.1830978393555,0.02979826385073436,-0.00048413027344168904,0.0013495107918239588,0.00017678803032361102
63.0957336425781,0.029816279792082307,-0.0005246231763698281,0.0005331008218646058,0.0002715276472195719
57.5439949035645,0.02983705361988579,-0.000567437938241508,0.0001699723085406904,0.0006716663746029921
52.4807472229004,0.029860853220367082,-0.0006124684512449308,0.0011514900280471807,0.006044596906767969
47.8630104064941,0.02988792507318958,-0.0006595600371894082,0.00010995863346557888,0.0003798073647829918
43.6515846252441,0.029918479292470997,-0.0007085118375577484,0.0014725909818000954,0.0007275084100804516
39.810718536377,0.029952674032278234,-0.000759084016871477,0.0005630337159111334,7.267534328172294e-05
36.307804107666,0.029990600869702528,-0.000811010440283458,0.0005697314447633273,0.00018576536846064194
33.1131134033203,0.030032273161669506,-0.0008640169112521499,-2.6470270494693277e-05,0.0007260103297841501
30.1995162963867,0.030077619530648,-0.0009178442828920377,0.0006808545965850017,0.0004355487930956622
27.5422878265381,0.030126484466207623,-0.0009722748862608553,0.0010524041777974225,-0.00016107930317815528
25.1188640594482,0.030178637487745068,-0.0010271599031557066,-0.00028169968917393304,0.0014173460212031936
22.9086761474609,0.030233791431567823,-0.0010824447190278968,0.001188060602328924,0.00036954223924480327
20.8929615020752,0.030291629303648884,-0.0011381890763179497,0.00035679275210178524,0.0006795662084011502
19.0546073913574,0.030351837970829156,-0.0011945790926089594,-0.00020867785015094356,2.6596795012940504e-05
17.3780078887939,0.030414145936703475,-0.00125192890977019,-0.0010967361428978264,0.00227127160775011
15.8489322662354,0.03047836176080725,-0.0013106707960404127,0.0015101281456472507,-0.0005130365502127128
14.4543981552124,0.03054440943670874,-0.0013713337635180363,0.0010587367243826418,0.0017142634218999635
13.1825675964355,0.030612357277817227,-0.0014345119842714262,-0.0032967251349024715,-0.013765663387758125
12.0226440429688,0.030682437495018724,-0.0015008253102081924,-0.0013308744871360738,0.00042920463617110763
10.9647817611694,0.030755054561971227,-0.0015708748923680428,0.000500237925528127,0.00020791979301055716
10.0,0.030830781475796612,-0.0016451972193747256,0.0013374197642945125,-6.109062877592561e-05
9.12010860443115,0.030910343998919468,-0.0017242198726329142,0.0004757709297046678,0.000679941157793686
8.31763744354248,0.03099459379558895,-0.0018082220274629982,-0.0020728300547089504,-0.0010531764062727982
7.58577585220337,0.03108447203242788,-0.0018973023042467103,0.0010716949572563833,0.0012289100914808899
6.91830968856812,0.031180965501139475,-0.0019913560866757054,-9.79493253442515e-06,-0.002474546669275105
6.30957365036011,0.03128505769767118,-0.0020900639126266857,-0.0005037124117439201,0.0006503429842923143
5.75439929962158,0.03139767759342626,-0.0021928920064344225,0.0021579448213143587,-0.00042398086546362244
5.24807453155518,0.03151964907826629,-0.0022991054271049535,0.00011867051305019388,7.725958259024654e-05
4.78630113601685,0.031651644211149764,-0.0024077936228657773,0.0007781704774861634,-0.0014801887133452773
4.36515855789185,0.03179414342735172,-0.0025179073984596574,2.4603266457319528e-05,0.00035833685408794263
3.98107171058655,0.031947405649408164,-0.0026283054549917063,-0.0012617766726171348,9.548664719609369e-05
3.63078045845032,0.03211145078203821,-0.0027378078292862327,0.0008995064850821112,0.0034782991070492677
3.3113112449646,0.032286056328804574,-0.0028452528439955656,-0.0016755489518331251,-0.0054335109688834655
3.01995182037354,0.0324707688881223,-0.002949553694974488,0.0008342662943666007,-0.0016840981919577877
2.75422859191895,0.032664930155925746,-0.0030497506271207927,0.002031743234448446,0.004925554803470306
2.51188635826111,0.032867715897313,-0.0031450548400109553,-0.006253476051339302,-0.0002037828513359553
2.29086756706238,0.03307818527772317,-0.0032348808089578754,-0.0015237452511560334,-0.0011530731061781753
2.0892961025238,0.0332953370809087,-0.003318864561617633,0.00017596405739869758,0.00033214018866386695
1.90546071529388,0.03351816877477359,-0.003396866524946249,0.004298980978657694,-0.0012808010525818488
1.73780083656311,0.03374573416590565,-0.0034689587438071403,-0.0046722198319447475,0.0006802383913134596
1.58489322662354,0.03397719551991214,-0.0035353974567901357,0.0006468928344129446,0.0007017570419061646
1.44543981552124,0.03421186648745578,-0.0035965830890354548,0.00144473456282658,-0.0012821580154714547
1.3182567358017,0.03444924290961045,-0.0036530106038011587,-0.00012649137788995485,-0.0002865498129435589
1.20226442813873,0.03468901950109558,-0.0037052137751628824,-0.002840385705346317,7.894169795011775e-05
1.09647822380066,0.03493109144174921,-0.003753707285127003,0.0018329264959084102,0.0010739993237941971
1.0,0.03517554095709294,-0.0037989305902776296,-0.0010084980098012605,-0.00017506690812682957
0.912010848522186,0.035422609961981925,-0.0038411972796901063,-0.0005924312105224719,0.0009832259514942938
0.831763744354248,0.035672660711408115,-0.0038806531848596133,0.0007488688260321175,-0.0018859998127656132
0.758577585220337,0.035926127102717996,-0.003917245858687971,0.0018606532779784982,0.002720537396740029
0.691830992698669,0.0361834597740106,-0.003950707272781494,-0.0023373904671736,0.0008551607530876059
0.630957365036011,0.03644506843050962,-0.003980550741513425,0.000497980278339416,0.0003085766791205754
0.575439929962158,0.03671126490659842,-0.004006082228427038,0.00034080496258862003,-0.0008665514542211378
0.524807453155518,0.036982210348752126,-0.004026425368068062,0.0010907258795768288,-0.00048430316979936223
