freq,mu_Z_re,mu_Z_im,Z_re_res,Z_im_res
10000.0,0.018118523782479686,-8.022833535087852e-06,-0.008992315480125013,-0.03037735861904329
9120.1083984375,0.0181185289005468,-8.796836463606042e-06,-0.007865389557676503,-0.028004835854498505
8317.6376953125,0.018118535053550367,-9.645505682828673e-06,-0.006029919836104732,-0.02651503941311063
7585.77587890625,0.018118542450705433,-1.0576042290981774e-05,-0.002668229100069166,-0.02310654329037318
6918.3095703125,0.018118551343495184,-1.1596341339316748e-05,-0.0032540314199383177,-0.020373202372995617
6309.5732421875,0.0181185620342004,-1.2715058521458639e-05,-0.0035772157396566986,-0.01916560222406786
5754.3994140625,0.018118574886147105,-1.3941683244418552e-05,0.000336646704498806,-0.01881660313196152
5248.07470703125,0.01811859033601621,-1.5286618620708396e-05,-0.00025943644745009264,-0.01760530833318881
4786.30078125,0.01811860890863056,-1.6761269079024806e-05,-5.331432642823736e-05,-0.014049706305967125
4365.158203125,0.018118631234714872,-1.8378136232238583e-05,-0.00040155635183102695,-0.012424834420457238
3981.07177734375,0.018118658072226155,-2.0150923787651194e-05,-0.002132556432015747,-0.01210316725975185
3630.78051757813,0.018118690331970524,-2.2094652290962403e-05,-1.8561626280475668e-05,-0.011870442845161562
3311.31127929688,0.018118729108367884,-2.4225784591445272e-05,0.00044374656060788484,-0.010424256546548645
3019.95166015625,0.018118775716395898,-2.656236290949453e-05,0.002046310609550999,-0.009610167816281495
2754.22875976563,0.018118831735956995,-2.9124158516620018e-05,0.0013630887837293958,-0.00858585427244012
2511.88647460938,0.018118899065153342,-3.1932834983134926e-05,0.000497793528334841,-0.006786031760722635
2290.86767578125,0.01811897998426509,-3.5012126135322615e-05,0.0017953278658206888,-0.006956069715487422
2089.29614257813,0.018119077232565572,-3.8388029741723426e-05,0.0011553550482651734,-0.005677156460540923
1905.46069335938,0.01811919410054777,-4.208901799179779e-05,0.0018162992996463706,-0.004834430514787198
1737.80078125,0.01811933454060594,-4.614626576916756e-05,0.00206464838171044,-0.005181121337765568
1584.89318847656,0.018119503299852128,-5.059389764952937e-05,0.001829788576026628,-0.004844848796674429
1445.43981933594,0.018119706079367123,-5.546925435249314e-05,0.0015237277895245246,-0.004078601168789293
1318.25671386719,0.01811994972509633,-6.081317913273378e-05,0.0014198980001856286,-0.0034606665409032335
1202.26440429688,0.018120242456454223,-6.667032429768477e-05,0.0015147087969960248,-0.003118808116408085
1096.47814941406,0.01812059413985364,-7.308947724435634e-05,0.0016424858976995388,-0.002935529899421656
1000.0,0.01812101661568234,-8.012390502109167e-05,0.002054243752413438,-0.0026521688680381916
912.010864257813,0.018121524088617592,-8.783171491718357e-05,0.0015254787435495937,-0.0014969193942659836
831.763793945313,0.018122133592962313,-9.627622766836304e-05,0.0008959796082964148,-0.0025952908325050632
758.577575683594,0.018122865546361888,-0.00010552635745701241,0.0018170370793503879,-0.0010693477825596124
691.830993652344,0.018123744407339555,-0.00011565699050029816,0.0011848997116522542,-0.0010007976651545982
630.957336425781,0.01812479945414075,-0.00012674935078512377,0.0010646201907874506,-0.001452431505641724
575.43994140625,0.018126065704431628,-0.00013889133704234361,0.0012882806839610295,-0.0010865952936686438
524.807434082031,0.018127584997213862,-0.0001521778092367488,0.0008574036691556611,-0.0007007922893037488
478.630096435547,0.018129407259705865,-0.00016671079573091918,0.000993828120711665,-0.0008678075777260191
436.515838623047,0.01813159198250371,-0.0001825995834867507,0.0012049662389954086,-0.0001826240420037402
398.107177734375,0.018134209925251173,-0.0001999606420894303,0.0002564635518361724,-0.0001566214878720381
363.078063964844,0.01813734507183604,-0.00021891731912740596,0.0009292419813113385,0.00022460241425309406
331.131134033203,0.018141096847347195,-0.00023959922821705572,0.0011218883266962965,0.00010315990090854429
301.995178222656,0.0181455825973886,-0.0002621412326541821,0.002387613948120402,0.0003213056430260179
275.422882080078,0.018150940312000454,-0.0002866819077468882,0.0013919712583743554,0.0008747407891490118
251.18864440918,0.01815733154874056,-0.0003133613437926922,0.0005550275520583604,0.0005915977006265078
229.086761474609,0.018164944470914286,-0.0003423181338040579,0.0008927775631269869,0.00017365541087544217
208.929611206055,0.018173996864360206,-0.000373685377246307,4.962695996130542e-05,0.0006222765719828931
190.54606628418,0.01818473892801593,-0.00040758552949379367,0.0003639112650711297,0.0003394267942060063
173.780090332031,0.018197455549767056,-0.00044412394435145895,0.0010301537012362555,0.00015685862946314107
158.489318847656,0.018212467683606574,-0.0004833810047118005,0.0002357980889610735,0.00048724507057459947
144.543975830078,0.01823013234272081,-0.000525402822839413,4.214193060471036e-05,0.0004863536587632869
131.825668334961,0.018250840629496973,-0.00057019062828301,0.00040725144282857326,0.00030084324512599
120.226440429688,0.01827501316175006,-0.0006176891572832836,7.17099438621617e-05,0.00015412609101601643
109.647819519043,0.0183030922469895,-0.0006677746062978803,0.00013220091734339814,0.0007519870774939197
100.0,0.018335530244825714,-0.0007202430067068045,-0.000574579751969985,-0.00015726910414610442
91.2010803222656,0.018372773762340776,-0.0007748001777133665,-0.0002098999810264228,0.0015916907172151334
83.1763763427734,0.018415243679083006,-0.0008310546762599005,-0.00027299547811689487,0.00026005433040569945
75.8577575683594,0.018463311486867185,-0.0008885153138129173,-0.00023771472928211385,-4.0576610439917215e-05
69.1830978393555,0.018517273023782973,-0.0009465947821862696,-0.0005639283805501279,0.0004137346679218305
63.0957336425781,0.018577321307122405,-0.0010046206638632256,-0.000320290340721896,3.374405294227431e-05
57.5439949035645,0.018643520723503105,-0.0010618545722447486,-0.0002379231644458954,-0.00025600123007304867
52.4807472229004,0.018715785196424074,-0.0011175193982881052,-0.0005080482602114259,-0.00034911168466630514
47.8630104064941,0.018793863016630837,-0.001170833714313147,-0.0007646821853859627,-0.0004536298830130471
43.6515846252441,0.018877330730056166,-0.001221051430636361,-0.00033091052403513496,0.0002520125216531391
39.810718536377,0.018965597820199066,-0.0012675039699847092,-0.0002529643506641345,-0.00024651179524010926
36.307804107666,0.01905792297333138,-0.0013096416602730824,-0.0002080416539345202,-2.7465540997782334e-05
33.1131134033203,0.01915344158996641,-0.001347070854514449,-0.00054241222451629,-0.000164486064001549
30.1995162963867,0.019251203069895726,-0.001379583507486138,-0.00027429694452857367,-0.00025675551657423803
27.5422878265381,0.01935021540382575,-0.0014071765475156912,-0.00018794128438754873,-0.00013462867384739122
25.1188640594482,0.019449493887964023,-0.0014300592901892225,-0.00028813719457077697,-1.828008859972247e-05
22.9086761474609,0.019548110416208898,-0.0014486482254131093,-0.00021989482077440156,-0.00015248212766780928
20.8929615020752,0.019645239831761273,-0.00146354962091451,9.389747853647337e-05,-0.0002483882144795101
19.0546073913574,0.01974020019752352,-0.001475531396902128,6.842022961021932e-06,-9.090176176182788e-05
17.3780078887939,0.019832484509166484,-0.001485486520529696,-5.119471687431432e-05,-0.0001936779646956961
15.8489322662354,0.01992178221487598,-0.0014943906869569262,-0.00019357654011651834,-7.980727309532618e-05
14.4543981552124,0.020007989818465143,-0.0015032572598003763,2.9088447105342363e-05,-0.00011094374775827637
13.1825675964355,0.020091210715058115,-0.0015130923608514982,-7.708814036578443e-05,0.00022230688350160176
12.0226440429688,0.020171745157720397,-0.0015248526702149638,0.00020530301976379867,9.47236898840363e-05
10.9647817611694,0.020250071817243736,-0.0015394079979699775,-4.81954852276506e-06,-0.00015377951936847742
10.0,0.020326822749977408,-0.0015575100943776427,-1.418615161869266e-05,4.780096501525734e-05
9.12010860443115,0.020402753731420285,-0.0015797685593442789,0.00014171749930648458,7.17094406409212e-05
8.31763744354248,0.020478711876444355,-0.0016066341538285493,-0.00032358854693934416,6.768313531525078e-05
7.58577585220337,0.020555602294341946,-0.0016383893547380112,8.94590289753465e-05,-0.00021603475248311113
6.91830968856812,0.0206343552709638,-0.0016751456491108671,-9.65741782367989e-05,8.284550184193282e-05
6.30957365036011,0.020715895179413798,-0.001716846834686868,-0.00021437269101240095,-5.6492515658368e-05
5.75439929962158,0.02080111203297105,-0.0017632774670622302,0.00010829975410425047,-5.483931275233021e-05
5.24807453155518,0.020890836334039646,-0.0018140755424951296,0.00013163006882854766,-0.0003432856471022297
4.78630113601685,0.020985817650409133,-0.0018687485071301633,-7.589522555316586e-05,0.00015021005585483683
4.36515855789185,0.02108670716526847,-0.0019266917147792524,0.00017511603775366771,-7.816262181175237e-05
3.98107171058655,0.021194044293200792,-0.0019872085040259584,1.6536356246293904e-05,5.911138487864169e-05
3.63078045845032,0.021308247323290157,-0.002049531123533295,0.00012343036677005606,-5.6582071750895056e-05
3.3113112449646,0.021429607936131956,-0.0021128418007012473,-0.00019397184909584336,-7.248586873374744e-05
3.01995182037354,0.021558289341435347,-0.0021762933247822394,-0.0005279621856356526,7.059060585616053e-05
2.75422859191895,0.02169432769744215,-0.0022390286021725684,-0.0001872899082440531,-0.0002441768583701684
2.51188635826111,0.021837636405547933,-0.0023001987389540393,0.00017586866947063087,8.160589306886084e-05
2.29086756706238,0.02198801282651498,-0.0023589793108792826,8.71671349532803e-05,-0.00014366954382678257
2.0892961025238,0.02214514694106892,-0.0024145845890662927,-0.00019505576300307692,-2.7401802005592828e-05
1.90546071529388,0.022308631477996086,-0.002466279595671666,6.653243128888764e-05,0.000339950619684034
1.73780083656311,0.02247797305539663,-0.002513389959945828,-0.00041431394561717086,0.0002575841080252718
1.58489322662354,0.022652603921717557,-0.002555309627904008,-2.834549801934358e-05,-2.1224441705707843e-05
1.44543981552124,0.022831893937023645,-0.002591506542416848,-0.00034920737024925555,-0.0003482137916261479
1.3182567358017,0.023015162495811214,-0.002621526456663228,0.00038765236540581546,0.00015259548161007186
1.20226442813873,0.02320169015402737,-0.0026449950680282313,0.0002742680775636719,-0.0003974478028860311
1.09647822380066,0.023390729780235604,-0.0026616186711145417,0.00041346331957850535,-5.041601761714186e-05
1.0,0.023581517099695217,-0.002671183523447862,-9.012857143398181e-05,0.00039633971759513815
0.912010848522186,0.023773280539101136,-0.0026735541077932082,-0.0003580212513746642,-8.114903631120836e-05
0.831763744354248,0.02396525030825582,-0.002668670459391152,-0.0001794401755526795,0.000286742498426148
0.758577585220337,0.024156666674530224,-0.002656544711985219,-0.00019096831151277707,0.0002344691524425813
0.691830992698669,0.024346787399408914,-0.0026372570058696863,0.000569853848574213,-1.804109513186495e-06
0.630957365036011,0.024534894316520825,-0.0026109508940063107,-0.00013899600592597386,-0.0005705889084421105
0.575439929962158,0.024720299040989234,-0.002577828380103526,3.669316144403259e-05,-0.00015290328004522596
0.524807453155518,0.02490234781313317,-0.0025381447228214967,-0.00018497150134662993,0.0003109051433779035
