freq,mu_Z_re,mu_Z_im,Z_re_res,Z_im_res
10000.0,0.021341060656659284,-5.863794683658106e-06,-0.019234436195738613,-0.03858451564013886
9120.1083984375,0.021341061956907072,-6.429517845471657e-06,-0.01243915893909853,-0.03686091270504407
8317.6376953125,0.021341063519955725,-7.049819350005043e-06,-0.015982128242014774,-0.031139166733145505
7585.77587890625,0.02134106539887525,-7.729964330345845e-06,-0.008794871636208547,-0.025891968967392546
6918.3095703125,0.02134106765743521,-8.47572573299952e-06,-0.008503072976505491,-0.024214955737077
6309.5732421875,0.021341070372255206,-9.293433281981508e-06,-0.006384480905143895,-0.02022308180854038
5754.3994140625,0.02134107363538548,-1.0190027136417695e-05,-0.002215652417971621,-0.01958365874208892
5248.07470703125,0.021341077557402954,-1.1173116726322931e-05,-0.0050607793567596475,-0.018709830048245824
4786.30078125,0.021341082271125543,-1.2251045242162405e-05,-0.004167280528757356,-0.016176319177881062
4365.158203125,0.02134108793606738,-1.3432960318141723e-05,-0.00403425406048322,-0.013316383148835742
3981.07177734375,0.021341094743783817,-1.4728891530851299e-05,-0.0024586543474837824,-0.013799686009863251
3630.78051757813,0.021341102924283397,-1.61498353344888e-05,-0.001700719091955804,-0.010777108141825888
3311.31127929688,0.021341112753722864,-1.77078481733973e-05,-0.004025327661659535,-0.009764654242616896
3019.95166015625,0.021341124563643794,-1.941614854170068e-05,0.0003914274416659952,-0.0158261469851716
2754.22875976563,0.021341138752066325,-2.1289228849373383e-05,-0.0002442530823118759,-0.008489805399827874
2511.88647460938,0.021341155796817335,-2.334297801491384e-05,-0.005759191185661764,-0.0014861879933544138
2290.86767578125,0.021341176271557512,-2.5594815873478233e-05,0.0024929526598450116,-0.007373843550943678
2089.29614257813,0.02134120086505295,-2.8063840387014432e-05,-0.0002261791907322494,-0.008326568006692014
1905.46069335938,0.021341230404372826,-3.077098899240932e-05,0.0003048904806334275,-0.005225285513184009
1737.80078125,0.021341265882794325,-3.373921525362535e-05,0.000981691996995826,-0.005497107008962625
1584.89318847656,0.0213413084934084,-3.6993682374690556e-05,-0.001178330268469599,-0.004984949402501291
1445.43981933594,0.02134135966953061,-4.056197495905642e-05,0.0003756922280433103,-0.0038805593168153565
1318.25671386719,0.021341421133350004,-4.447433071987577e-05,-0.003283623182703397,-0.001924202147860376
1202.26440429688,0.02134149495440979,-4.876389387484135e-05,-0.0008019323281620097,-0.0033853567041032414
1096.47814941406,0.021341583619911317,-5.3466992158944214e-05,0.0008275405718871191,-0.0037099549040985444
1000.0,0.02134169011920818,-5.8623439343774954e-05,-0.00029555030554401923,-0.0025371058738697747
912.010864257813,0.021341818045287047,-6.427686547255542e-05,-0.0021352184606505537,-0.0032419897697618556
831.763793945313,0.02134197171666614,-7.047507682790257e-05,7.843192555894232e-05,-0.0033480474143659025
758.577575683594,0.021342156323733874,-7.727044813358415e-05,-0.0006023385942549274,-0.003454364381656284
691.830993652344,0.021342378104428194,-8.472034918524404e-05,0.0006005857087172939,-0.001310163789674644
630.957336425781,0.021342644555064547,-9.288760814554748e-05,0.0007097274936164466,-0.0014027775589350474
575.43994140625,0.021342964683273482,-0.00010184101363055152,-5.020962228471926e-05,-0.0021722062544279517
524.807434082031,0.021343349311350984,-0.00011165585753051982,0.00027319306492728374,-0.0008873632192845197
478.630096435547,0.02134381143990398,-0.00012241452003081203,-0.0001802080994522219,-0.000357059234540812
436.515838623047,0.021344366683527332,-0.0001342070976670065,-0.0001043330739294683,-0.0012079087540905066
398.107177734375,0.02134503379245683,-0.00014713207467420157,-0.001143703686395471,-0.0008450757476776015
363.078063964844,0.021345835276585158,-0.00016129703578490742,-0.0008142123886532432,5.1303695389492564e-05
331.131134033203,0.02134679815125193,-0.00017681941793050887,-0.0014922432755258702,-0.0009855492080816089
301.995178222656,0.0213479548273941,-0.00019382729455833143,-0.001004273113761299,0.00020086165373206857
275.422882080078,0.021349344172538018,-0.00021246018425927736,-0.0004557056789987815,-0.0008223213472160774
251.18864440918,0.021351012773098515,-0.00023286986977399935,-0.001058102213559585,-0.00030030077466580696
229.086761474609,0.021353016432874884,-0.0002552212075878815,-0.0009229846181934148,0.00030309462690821854
208.929611206055,0.021355421947341878,-0.0002796929010850794,-0.001428887514370921,5.658297145642063e-05
190.54606628418,0.021358309197807658,-0.00030647819976922027,-0.001280490424847243,9.884758737267973e-05
173.780090332031,0.021361773613381766,-0.0003357854734327687,-0.0010646416214224325,-6.290391363806869e-05
158.489318847656,0.021365929051468294,-0.00036783859352166205,-0.0031029324688221054,0.00036881375606583793
144.543975830078,0.02137091114835194,-0.0004028770338833573,-0.002187573242026057,-0.0006304463889306572
131.825668334961,0.021376881188176343,-0.000441155576020537,0.0008476985603792439,-0.002911499415397637
120.226440429688,0.021384030530290168,-0.0004829434734776358,-0.0010219868774847332,0.0011013606739222641
109.647819519043,0.02139258561808221,-0.0005285228927173817,0.0005793570556079097,0.005882009738262618
100.0,0.02140281356390444,-0.0005781864057808497,-0.0011420062977460614,0.0024672859106630507
91.2010803222656,0.021415028260444828,-0.0006322332652144765,-0.0007982090996749708,0.0011547225998855234
83.1763763427734,0.02142959690219619,-0.000690964144036744,-0.0009351703661039101,0.000494408444187956
75.8577575683594,0.02144694670855073,-0.0007546739849511784,0.14603210583149473,0.014837451259487421
69.1830978393555,0.02146757151523628,-0.0008236425777736361,-0.0019899165298601224,6.098936192436386e-05
63.0957336425781,0.021492037739478803,-0.0008981224865406349,-0.0014041868933803957,0.00011718163557946498
57.5439949035645,0.021520989027160858,-0.0009783239974785758,-0.001255629572730843,-7.369004284557578e-05
52.4807472229004,0.021555148668153556,-0.0010643968833872566,-0.0017086205561325438,8.687206913884351e-05
47.8630104064941,0.02159531863381255,-0.0011564089984477278,-0.0016386538560212507,-0.00027173753574802773
43.6515846252441,0.02164237388136754,-0.0012543220557205542,-0.0022976472907983575,-0.0008853135125179543
39.810718536377,0.021697250447551712,-0.0013579654219555517,-0.001378708266337389,-0.0006097858600314517
36.307804107666,0.021760925869694747,-0.0014670093682194352,-0.0006573477431621524,-0.00030310783987593523
33.1131134033203,0.021834390733496724,-0.0015809399219992696,-0.0012667621186808753,0.0013003618777897303
30.1995162963867,0.021918610699397573,-0.0016990381700745676,-0.0009785825089392262,0.0034196341002532328
27.5422878265381,0.022014479276422645,-0.0018203674474043664,-0.0016085364551504562,-0.0007038939868344665
25.1188640594482,0.022122762861557444,-0.0019437721308538584,0.011477017539449144,-0.007209592902309558
22.9086761474609,0.022244041050493053,-0.0020678915627062294,-0.001164766763628148,5.5044974783070855e-05
20.8929615020752,0.02237864675126598,-0.002191191811537989,-0.0009820023725219222,-0.000464947118847389
19.0546073913574,0.022526611917949732,-0.0023120164865623035,-0.0012411443802346663,-0.0006154960015784035
17.3780078887939,0.02268762545139607,-0.002428655740566718,-0.001427754448344129,-0.0007903566535043178
15.8489322662354,0.02286100971430601,-0.0025394301665660384,-0.0013946590301387903,-0.0008667213879239384
14.4543981552124,0.023045721045631178,-0.002642783873695796,-0.0020066196555912214,-0.00023015223162249588
13.1825675964355,0.023240377629891167,-0.0027373790440679067,-0.0009081182379572332,-0.0014461561737181068
12.0226440429688,0.023443315325116607,-0.002822183105977788,-6.494656410269486e-05,8.742531214411212e-05
10.9647817611694,0.02365266892648894,-0.002896539581246179,-0.0014497154619578616,-0.0014198349725971788
10.0,0.023866473318178368,-0.002960214751889244,0.0012371713231393681,-0.001110285648261444
9.12010860443115,0.024082776480873223,-0.0030134144315648614,-0.0009319853544634757,-0.0009209246916849615
8.31763744354248,0.024299754745463344,-0.0030567680280909368,-0.0007528448634348574,-0.0020748446025208368
7.58577585220337,0.02451582020642802,-0.003091280360920445,-0.0007064067709202787,-0.0008631495416445449
6.91830968856812,0.024729710888498124,-0.0031182549004626046,-0.0005089725587436762,-0.0008847426665199048
6.30957365036011,0.02494055594553473,-0.0031391948568896583,-0.0005662012542295702,-0.0021852469644771584
5.75439929962158,0.025147910633324878,-0.003155690530836888,-0.0004910738829381235,-0.0007996243951472878
5.24807453155518,0.025351758688644935,-0.0031693024011285437,-0.00015108509366076536,-0.0006849491419227438
4.78630113601685,0.02555248273653825,-0.003181449487067465,-0.00029019134001895264,-0.000567936687923765
4.36515855789185,0.025750806103907908,-0.003193311676777129,-0.0002490100306640937,-0.0006088440347679289
3.98107171058655,0.025947711686501305,-0.0032057531109418932,-0.00011122480510729338,-0.000574541690420793
3.63078045845032,0.026144345118450086,-0.0032192715852097193,-0.0010400481384526157,-0.0006249295956031195
3.3113112449646,0.02634191034391653,-0.0032339765271607226,-0.00013973670050367037,-0.0003297569742862225
3.01995182037354,0.026541565782481753,-0.00324959567109308,-0.0001773170613702489,-0.0005216412554886799
2.75422859191895,0.026744328684637143,-0.00326550830243408,-0.00025257071154395627,0.00037220857018352036
2.51188635826111,0.026950994108135094,-0.0032808010565973916,6.673817735369444e-05,5.89710560701083e-05
2.29086756706238,0.027162073367807578,-0.003294340851106712,-0.00016006436052592304,0.001129110758802788
2.0892961025238,0.027377754989343667,-0.003304858669988511,0.00029781328447436514,0.001112744699813689
1.90546071529388,0.02759788930339163,-0.003311037627026719,2.7425586407833075e-05,-0.00023342490287161892
1.73780083656311,0.027821996007857695,-0.003311598965395923,-0.0021246553018709063,-0.0004868675614342231
1.58489322662354,0.0280492924368944,-0.0033053803454612682,-0.0022699735843573,-0.00022436084332816842
1.44543981552124,0.02827873900696915,-0.0032914018193898604,-0.00015115290716014723,0.0006747354817868392
1.3182567358017,0.02850909742942305,-0.003268916180629722,2.0075845031448936e-05,0.0007571223915623783
1.20226442813873,0.02873899681078742,-0.0032374417759808774,-0.00031965332520658,0.0002775873172697228
1.09647822380066,0.02896700270014356,-0.0031967772641402037,-0.0004996710316603412,-0.0003389105671269036
1.0,0.029191684443342462,-0.003146999084862649,0.0002576024269936618,-0.0009078139322873493
0.912010848522186,0.02941167680481047,-0.003088443489373689,0.00033513037422266967,-0.00012485561482708908
0.831763744354248,0.029625732635245323,-0.0030216758125342835,0.00010924432157042446,-2.7483514032583447e-05
0.758577585220337,0.029832764312037158,-0.0029474502121612962,0.0002194240385376585,2.0071568940503628e-05
0.691830992698669,0.030031872671196783,-0.0028666633574088987,0.0001188495569923835,0.00017063567212010147
0.630957365036011,0.030222363107737127,-0.0027803055342004246,-3.402373856677479e-05,0.00024884302581687544
0.575439929962158,0.030403749381735165,-0.0026894123892876837,-0.00011287320630323436,0.0002149454649892162
0.524807453155518,0.030575746382783164,-0.002595020103800687,-8.141836970023547e-05,0.0004447415754463128
