freq,mu_Z_re,mu_Z_im,Z_re_res,Z_im_res
10000.0,0.01791165223820248,-3.3812643565447887e-06,-0.007227927311229322,-0.023426345181611945
9120.1083984375,0.01791165322423734,-3.7074767613099416e-06,-0.005512992661587859,-0.02119263715377091
8317.6376953125,0.017911654409499694,-4.065159713537436e-06,-0.0041618622126860065,-0.01941119407490424
7585.77587890625,0.0179116558341954,-4.4573488691852815e-06,-0.0034075993986155996,-0.018247865179465188
6918.3095703125,0.017911657546624594,-4.887372588578836e-06,-0.002628278131619005,-0.01598449589345398
6309.5732421875,0.017911659604803804,-5.3588801272219684e-06,-0.0020987204695779964,-0.015034894508982422
5754.3994140625,0.01791166207841067,-5.875872533372829e-06,-0.0010504157180485328,-0.014117785887877973
5248.07470703125,0.017911665051114953,-6.442736511392192e-06,-0.0007717796574707482,-0.012159645404343793
4786.30078125,0.01791166862337176,-7.064281533270731e-06,-0.0006446375152629399,-0.01153528430921847
4365.158203125,0.017911672915768163,-7.745780507877657e-06,-0.0004365310562138361,-0.010718250617842076
3981.07177734375,0.01791167807303305,-8.493014348726092e-06,0.0010676196636998474,-0.010330919460130926
3630.78051757813,0.017911684268841488,-9.312320811235633e-06,0.00015147639227838794,-0.009004083488447136
3311.31127929688,0.017911691711573044,-1.021064800302535e-05,-4.1430323095857646e-05,-0.008455339446487825
3019.95166015625,0.01791170065121535,-1.119561301419544e-05,0.0003872012050617525,-0.007150437867211795
2754.22875976563,0.017911711387646717,-1.2275566149877281e-05,0.0010309942591315187,-0.006332747441519377
2511.88647460938,0.01791172428057697,-1.3459661296113307e-05,0.0007472014986088689,-0.005709057395598313
2290.86767578125,0.01791173976149181,-1.4757932986459894e-05,0.0007418767758808099,-0.00566279954266106
2089.29614257813,0.017911758348004896,-1.6181380790883776e-05,0.000806989222424094,-0.003840720397723084
1905.46069335938,0.01791178066112657,-1.774206169248465e-05,0.0009439811465944692,-0.004329214239197885
1737.80078125,0.017911807446024573,-1.9453191162190337e-05,0.000996508447668673,-0.0040449283131966905
1584.89318847656,0.017911839597021133,-2.1329253682244802e-05,0.0010774874315605323,-0.003743371564665145
1445.43981933594,0.017911878187628988,-2.3386123517869387e-05,0.0012919239294254883,-0.0029881972902662695
1318.25671386719,0.017911924506702596,-2.5641196577579363e-05,0.0012021758511449945,-0.002798104915006779
1202.26440429688,0.017911980101856042,-2.811353425427543e-05,0.0012202823404396414,-0.0027521147183600754
1096.47814941406,0.01791204683161229,-3.082402015452218e-05,0.0011805033651634891,-0.0025381162200343223
1000.0,0.017912126928015523,-3.37955306457864e-05,0.0011399032915075241,-0.0021077263399200863
912.010864257813,0.01791222307172081,-3.705312015457622e-05,0.0009111921050813099,-0.0017899349190477762
831.763793945313,0.01791233848206441,-4.062422212068975e-05,0.0010743541585628083,-0.00144910165235249
758.577575683594,0.017912477024977624,-4.453886643767511e-05,0.0011713427986554253,-0.001417756540409875
691.830993652344,0.017912643342259754,-4.882991408858751e-05,0.0009402654459508553,-0.0010352469710811875
630.957336425781,0.01791284300631817,-5.35333094678261e-05,0.0010917286599331708,-0.001023944598485426
575.43994140625,0.017913082705257842,-5.868835055942433e-05,0.0012072642309650418,-0.0008118969961788243
524.807434082031,0.017913370464072712,-6.433797670488013e-05,0.0008107154407363121,-0.0006930663380394801
478.630096435547,0.017913715908689065,-7.052907304246821e-05,0.000839663664264266,-0.0005504799627546682
436.515838623047,0.017914130580739814,-7.731278984478282e-05,0.0008469086560772138,-0.00040254995784388286
398.107177734375,0.01791462831219629,-8.474487374461107e-05,0.0008158196510930915,-0.00023287276242311107
363.078063964844,0.017915225670352173,-9.288600627227546e-05,0.0008982802635576735,-0.0004051428658876754
331.131134033203,0.017915942485100023,-0.00010180214306004383,0.0007802497247517241,-0.00014134616506183552
301.995178222656,0.017916802471885592,-0.00011156484428699297,0.0005741661101673935,-0.00019368456882563586
275.422882080078,0.01791783396507299,-0.00012225158336871573,0.0005546489020684907,-0.0003250981366617157
251.18864440918,0.017919070777548236,-0.00013394601640357343,0.0006984190466532356,-4.8354117579950826e-05
229.086761474609,0.01792055320296439,-0.00014673818922028112,0.0004202457920089893,8.25701633525189e-05
208.929611206055,0.01792232917671071,-0.00016072465178415248,0.00013198183898791016,0.0001441588105926475
190.54606628418,0.017924455609992902,-0.00017600844121013647,0.0003244855076827008,0.00017373648033996352
173.780090332031,0.017926999907627448,-0.00019269888449972988,0.00018309762670074697,0.0002002197068877701
158.489318847656,0.0179300416733975,-0.00021091116056277316,0.00034545702001999995,0.00015340025723472686
144.543975830078,0.0179336745959436,-0.00023076554836415006,0.00018567263304340026,0.00036788086097974996
131.825668334961,0.01793800849185684,-0.0002523862750591021,0.0001541096316407392,0.0004327563109485979
120.226440429688,0.0179431714595442,-0.0002758998662282069,0.00033563156734749827,0.00039035893221829306
109.647819519043,0.017949312066077507,-0.00030143289196536607,0.00024597447121070537,0.00023053384783443395
100.0,0.017956601448716043,-0.00032910900088086424,9.329802578814106e-05,0.00023607231080463576
91.2010803222656,0.017965235163330383,-0.00035904514394709405,0.00044730899190838225,-0.00018652385066739405
83.1763763427734,0.01797543455539699,-0.0003913469170063937,6.787840901369135e-05,0.00029555406422980627
75.8577575683594,0.01798744736983574,-0.000426103000645145,7.17775411824377e-05,0.000178253580234355
69.1830978393555,0.018001547262004428,-0.000463378754939306,0.00023757684223992687,6.331960947119394e-05
63.0957336425781,0.018018031835848138,-0.0005032091377706365,4.745309084063648e-05,5.613313061806355e-05
57.5439949035645,0.01803721883216095,-0.0005455912572509697,-4.6170434764986057e-07,0.0002452351951793304
52.4807472229004,0.01805944013842101,-0.0005904770328977216,0.0003499539519166116,7.038189905347837e-05
47.8630104064941,0.018085033407371047,-0.0006377666074950232,-0.00024218414171455274,0.0005722763664852768
43.6515846252441,0.018114331264767643,-0.0006873032943012719,-0.00017191181632515706,4.9086131281828017e-05
39.810718536377,0.018147648353812947,-0.0007388709260940816,-0.00012132800674655511,0.00024227659135601844
36.307804107666,0.018185266784432344,-0.0007921944568236175,-0.00023206553697305635,-2.7895563778017546e-05
33.1131134033203,0.01822742089032542,-0.000846944524144763,1.9179800146918585e-05,-4.392554581356307e-05
30.1995162963867,0.018274282491000788,-0.0009027464010078119,-0.0001791404428161114,-2.9748659327311837e-05
27.5422878265381,0.018325948049464632,-0.0009591933614587914,-0.0001744452070804696,8.041897835070868e-05
25.1188640594482,0.01838242915688312,-0.0010158640027682969,-9.831505598268189e-05,2.085599837040302e-05
22.9086761474609,0.01844364763236809,-0.001072342567946037,-0.00021960786544511154,1.1459048968463087e-05
20.8929615020752,0.018509436198058248,-0.001128240876164871,-0.00013986995023235194,-0.00013698350292137102
19.0546073913574,0.018579545210490985,-0.0011832201644563162,-0.00014468956421771415,-8.628224262681623e-05
17.3780078887939,0.018653655358951398,-0.0012370110245070057,-8.808082957950311e-05,-0.00014962858870840577
15.8489322662354,0.018731395657200205,-0.0012894297051274932,-6.518052981439523e-05,-0.0001409178166681933
14.4543981552124,0.018812365534103904,-0.0013403893333568972,-6.158306976459388e-05,-2.589422526659709e-05
13.1825675964355,0.0188961594363966,-0.0013899050459640861,-0.00012223729879470152,-0.00012242671031538607
12.0226440429688,0.018982392135873258,-0.0014380925586762387,-2.0499941095843827e-05,-9.63592920768387e-05
10.9647817611694,0.019070722900509745,-0.0014851602652564135,-0.00016355254483235368,-0.00015078305001261345
10.0,0.019160876834441815,-0.0015313954873715694,-4.300210470998406e-05,-8.643931604526939e-05
9.12010860443115,0.01925266198569988,-0.001577145935411514,-1.9369276817119557e-05,-8.603504710181392e-05
8.31763744354248,0.019345981218447134,-0.0016227977531903,-7.678460277136742e-05,-9.63524863997001e-05
7.58577585220337,0.019440838298710034,-0.001668751687895493,-9.09792730026393e-06,-2.512962665789293e-05
6.91830968856812,0.01953733809950666,-0.001715398949905132,7.833398011462822e-06,-8.906980264823195e-05
6.30957365036011,0.019635681250208602,-0.0017630982214813672,8.983556281920088e-05,-2.8369296551267143e-05
5.75439929962158,0.019736153902853607,-0.0018121550627397023,3.8867714251208246e-05,2.042012527859777e-05
5.24807453155518,0.019839113543838258,-0.0018628046815011186,2.7449767202158276e-05,2.527616781108151e-05
4.78630113601685,0.01994497193348837,-0.0019151987129622148,-7.215381141231075e-06,-2.0002326349314844e-05
4.36515855789185,0.02005417630995305,-0.0019693963290937284,-6.688213919605127e-05,1.1729582603971396e-05
3.98107171058655,0.020167189957708057,-0.0020253596930750843,-9.90896205008418e-05,-5.148366195948436e-05
3.63078045845032,0.02028447313127582,-0.0020829535132627242,1.0955314017020712e-05,3.5326877014775927e-05
3.3113112449646,0.020406465161747874,-0.002141948247368514,-1.705705731402593e-05,2.281189147088601e-05
3.01995182037354,0.020533568378932863,-0.00220202636927903,-0.00010321739649023567,-1.910431539429991e-06
2.75422859191895,0.02066613427619046,-0.0022627910366889463,-8.755110879834008e-05,-3.5446486496646095e-05
2.51188635826111,0.020804452146525473,-0.0023237764843722338,-9.517748718126245e-06,-6.748549723833378e-05
2.29086756706238,0.02094874024193247,-0.002384459504328898,-7.155671913662912e-05,8.654115029400195e-05
2.0892961025238,0.021099139363598866,-0.002444271449153228,-4.142673211093503e-05,-1.906415835482801e-05
1.90546071529388,0.021255708684289155,-0.0025026102954035147,-0.00010592172566684446,-1.1736614022214622e-05
1.73780083656311,0.021418423537511697,-0.0025588524155008476,2.0344887275598744e-05,-1.5558311684747608e-05
1.58489322662354,0.021587174878913196,-0.002612363819161261,-1.7065061730103803e-05,3.389148773823899e-05
1.44543981552124,0.021761770128445365,-0.002662510726590189,-7.970933692003426e-05,5.930487626361119e-05
1.3182567358017,0.021941935130493112,-0.002708669421795941,2.662599934761048e-05,0.00010997439215685917
1.20226442813873,0.022127317014637514,-0.0027502353957785546,-7.044773992985476e-06,-0.00013201592517335468
1.09647822380066,0.022317487794462583,-0.002786631831235952,5.890061289448231e-05,4.9294768564548015e-05
1.0,0.02251194859733059,-0.00281731749619694,-5.711172829200861e-05,-0.00016681116740563991
0.912010848522186,0.02271013446868973,-0.0028417941134613366,5.3876273051027546e-05,7.408280407966358e-05
0.831763744354248,0.02291141973496303,-0.0028596132550802902,-3.8128703228369754e-05,-4.117472511290174e-06
0.758577585220337,0.023115123936751997,-0.002870382783901524,0.00010440436921469592,3.6127902896762078e-06
0.691830992698669,0.02332051835821079,-0.002873772833169679,7.164470718308905e-05,9.575105863692066e-05
0.630957365036011,0.023526833179270765,-0.002869521282711535,6.186661390016404e-05,-0.0001272238009661351
0.575439929962158,0.023733265267358358,-0.0028574386624434615,-3.1818285126418433e-06,-2.1560258586161493e-05
0.524807453155518,0.023938986606850947,-0.0028374123917411734,-0.00024756868933165435,8.529461273142644e-05
