freq,mu_Z_re,mu_Z_im,Z_re_res,Z_im_res
10000.0,0.025420937505894903,-3.063541028220405e-06,-0.030004654260939397,-0.04589492962894172
9120.1083984375,0.025420937894817006,-3.359105364628076e-06,-0.019481867344145195,-0.04087566473700223
8317.6376953125,0.025420938362382253,-3.683185033202306e-06,-0.014642059127785344,-0.035880482559852
7585.77587890625,0.02542093892449248,-4.038531085320301e-06,-0.013128171368895922,-0.03382673891236432
6918.3095703125,0.02542093960026394,-4.428159971224673e-06,-0.009058082425798059,-0.030356491637010524
6309.5732421875,0.025420940412676705,-4.85537914179535e-06,-0.005314392106139296,-0.029566341474331796
5754.3994140625,0.025420941389354874,-5.323815115969474e-06,-0.004651626595106928,-0.02349766753888997
5248.07470703125,0.025420942563504124,-5.837444257118221e-06,-0.003991859745293678,-0.02175384378809872
4786.30078125,0.02542094397503852,-6.4006265085368006e-06,-0.0005563769940662815,-0.018537723105756534
4365.158203125,0.025420945671934245,-7.018142392289321e-06,0.00033918076528944435,-0.01763192161267009
3981.07177734375,0.025420947711856733,-7.695233565269525e-06,0.0007228001616314331,-0.01707117137883277
3630.78051757813,0.0254209501641153,-8.437647289938016e-06,-0.002482001299941701,-0.01237573740518784
3311.31127929688,0.02542095311201321,-9.251685185988303e-06,0.0014438168726038092,-0.013324706741912887
3019.95166015625,0.025420956655670176,-1.0144256674337217e-05,0.001078250228692075,-0.012216784351193036
2754.22875976563,0.025420960915417675,-1.112293757453336e-05,0.0028233574155282735,-0.010316072183921535
2511.88647460938,0.025420966035875826,-1.2196034336158055e-05,0.0037597086645694278,-0.011214709274613958
2290.86767578125,0.025420972190861594,-1.3372654455961702e-05,0.0025467286334083933,-0.009531257467705062
2089.29614257813,0.025420979589278612,-1.4662783665000246e-05,0.0026593217552256104,-0.0073035904616838
1905.46069335938,0.025420988482217285,-1.6077370533432315e-05,0.004268592727164684,-0.006871361700037133
1737.80078125,0.025420999171462975,-1.7628419192472144e-05,0.003614166768518376,-0.006439177664907572
1584.89318847656,0.02542101201977245,-1.932909097193863e-05,0.00366044399704445,-0.0055729066519033385
1445.43981933594,0.02542102746316338,-2.1193815741073267e-05,-0.020099922645603216,0.05937790806743193
1318.25671386719,0.025421046025772304,-2.3238413925388072e-05,0.0018647390675738049,-0.005204137002076088
1202.26440429688,0.025421068337655884,-2.5480230134531454e-05,-0.006017420175575414,-0.011642328639310431
1096.47814941406,0.025421095156197795,-2.7938279551884075e-05,0.002823813893919197,-0.002123431534734984
1000.0,0.02542112739187158,-3.0633408198447906e-05,0.004046577675160579,-0.003223991134757448
912.010864257813,0.02542116613914873,-3.35884683797617e-05,0.0028567121349802292,-0.002604580338395562
831.763793945313,0.02542121271371506,-3.6828510676902154e-05,0.003082976962920661,-0.0031322083084186023
758.577575683594,0.02542126869712478,-4.038099398704002e-05,0.003521521966201077,-0.00614309195628254
691.830993652344,0.025421335990489197,-4.427601514816032e-05,0.004099191795051797,-0.00033650641261096035
630.957336425781,0.025421416878971065,-4.854655987672909e-05,0.002565764382752366,-0.0023000295942192293
575.43994140625,0.025421514109256315,-5.3228776721486525e-05,0.003277721748235315,-0.0018729939719719865
524.807434082031,0.025421630982603367,-5.836227600022722e-05,0.0032185245494501663,-0.0009281754183445271
478.630096435547,0.025421771466581148,-6.399045560826128e-05,0.003715369164792849,-0.0015587666803257613
436.515838623047,0.025421940329214566,-7.016085565863557e-05,0.0017710519756283655,-0.0007446877612995355
398.107177734375,0.025422143299987026,-7.692554391401519e-05,0.0021800738916895254,-0.0001645891188731666
363.078063964844,0.025422387263012023,-8.43415339213171e-05,0.0038776569722415236,-0.0005320245411448171
331.131134033203,0.025422680488704368,-9.247123757256717e-05,0.002826628572224269,-0.0007588474990787672
301.995178222656,0.02542303291148438,-0.0001013829535367235,0.0026696377713132796,4.885521528276502e-06
275.422882080078,0.025423456462474483,-0.0001111513927106811,0.002458153771610884,-0.00011952458928944034
251.18864440918,0.025423965467764282,-0.00012185824082724328,0.0027142698454393835,3.671703531845672e-05
229.086761474609,0.02542457712478358,-0.00013359275791067463,-0.0047490691613464205,-0.0018264574525431747
208.929611206055,0.025425312071463285,-0.00014645241235183165,0.002561566382071185,-0.00028543052239603163
190.54606628418,0.025426195065442983,-0.00016054354617633042,0.0022931742174071845,0.0003936536888565696
173.780090332031,0.025427255793329433,-0.0001759820650116704,0.002405149875994831,0.0001837662505200296
158.489318847656,0.025428529833103248,-0.0001928941430412236,0.002253428105856048,0.0008440242298058763
144.543975830078,0.025430059796123606,-0.00021141692895634815,0.002628951137809806,0.0003233789359944519
131.825668334961,0.025431896678576007,-0.00023169923302744937,0.0027262243697734057,0.00041205124502035066
120.226440429688,0.025434101455460118,-0.00025390216752820054,0.0032538012495141183,0.0115922620739049
109.647819519043,0.02543674695306255,-0.00027819970314093125,0.002075976757339948,0.0006483489119570688
100.0,0.025439920037854735,-0.00030477909191892454,0.0008227137325893356,0.0010262508335763755
91.2010803222656,0.025443724159820554,-0.00033384109154930154,0.0017394263192253533,0.0014974763453319984
83.1763763427734,0.025448282285742797,-0.0003655999071331039,0.0018142601839828965,0.0005787873187666961
75.8577575683594,0.025453740251133863,-0.00040028274394490043,0.0018156352312068622,0.0007033964399255995
69.1830978393555,0.02546027054653022,-0.00043812883834866726,0.001669341080044219,0.0007119282306772327
63.0957336425781,0.02546807653240364,-0.00047938780494902726,0.0017168959134022423,0.0008216393309744727
57.5439949035645,0.025477397043314167,-0.0005243171060717383,0.0018799647428657668,0.0006265637177713618
52.4807472229004,0.025488511293915554,-0.0005731784203924407,0.0014215266404426531,0.00033347219686055923
47.8630104064941,0.025501743932646374,-0.0006262326629789571,0.0011503166010795735,0.0007700605068398428
43.6515846252441,0.02551747000054347,-0.0006837333968319725,0.001655605418839367,0.0007592515138498274
39.810718536377,0.025536119441640664,-0.000745918386046147,0.0014567090823772652,0.0009755010079700529
36.307804107666,0.025558180681510896,-0.0008129990874744945,0.001180421135469397,0.0007609232579402056
33.1131134033203,0.025584202647682075,-0.0008851479728943604,0.0012866690908630747,0.0006796938610025396
30.1995162963867,0.02561479446516982,-0.0009624837328469796,0.0013630354128932182,0.0007732781452336203
27.5422878265381,0.02565062195214594,-0.001045054651468604,0.0010460741833146388,0.0008932147057282959
25.1188640594482,0.02569239999198856,-0.0011328207541860355,0.0009637274130576585,0.0009055656633667646
22.9086761474609,0.02574087992247533,-0.0012256357124336256,-0.0011741245544295703,0.005495347245197674
20.8929615020752,0.025796831290529464,-0.001323229896923421,0.0008901848302347651,0.000947244900191279
19.0546073913574,0.025861017715826596,-0.0014251963511291202,0.0009507595865874963,0.0008452335096713797
17.3780078887939,0.02593416718604782,-0.0015309817215539976,0.0006154458767436213,0.0005586306972316026
15.8489322662354,0.026016937841118127,-0.0016398842417457361,0.0006708226096041256,0.000664449020399764
14.4543981552124,0.02610988111095585,-0.0017510606401297385,0.0006526181180969495,0.0004330079111572614
13.1825675964355,0.02621340482871454,-0.0018635432841549648,0.0006033229772321423,0.000692644747876035
12.0226440429688,0.026327739500575133,-0.0019762679984021867,0.0005869074101973321,9.194821555421305e-05
10.9647817611694,0.02645291113483193,-0.002088111889435718,0.0006459607295918289,0.000771236774624482
10.0,0.026588723831046174,-0.0021979393198358413,0.00033844152854737436,-0.00010428938485864108
9.12010860443115,0.026734754670712086,-0.0023046530847541788,0.0004975649009671852,0.00040847071734142126
8.31763744354248,0.026890362409580225,-0.0024072470335264,0.0005635123529319254,0.0003782132914315001
7.58577585220337,0.02705471017358678,-0.0025048559902569557,-0.005576221412440317,0.0010343136826196442
6.91830968856812,0.02722680099752058,-0.0025967989233069535,0.00043280512538067945,0.0003172344411975464
6.30957365036011,0.027405523803894546,-0.0026826118852385224,0.0004427666932988461,0.0003575132426431775
5.75439929962158,0.027589706468173072,-0.002762068195917269,0.0005056892957172703,0.00029243399137943117
5.24807453155518,0.027778172058573903,-0.002835184539414985,0.0013609539098656045,8.802863887691489e-05
4.78630113601685,0.027969794226883206,-0.0029022129122864386,0.0004496740829928042,0.00036374117613316133
4.36515855789185,0.0281635480268511,-0.0029636195511051518,0.0003983447595152026,0.0002043903689405483
3.98107171058655,0.028358553084347374,-0.0030200529352174587,0.00045508380493887446,0.00027160356078574123
3.63078045845032,0.02855410691595602,-0.0030723036359111967,0.0005019110093169195,0.0002906553820659031
3.3113112449646,0.02874970717522507,-0.003121259113363996,0.0004554065147340698,0.00026055848825710373
3.01995182037354,0.02894506257131718,-0.003167856568467269,0.0004182460542025805,0.00018806793727313073
2.75422859191895,0.029140093056418084,-0.0032130366754928637,0.0004110957215801847,0.00028960396487023605
2.51188635826111,0.02933492054136859,-0.0032577005328604655,0.0004556896993742898,0.00012113520670733449
2.29086756706238,0.029529851835575167,-0.003302671551373387,0.00037946456333646725,0.0002620119362654128
2.0892961025238,0.0297253557073541,-0.0033486633439756223,0.0002784241514869022,0.0003305602474860778
1.90546071529388,0.029922035946008098,-0.003396254060825176,0.00030008466398369696,0.0002943630981837239
1.73780083656311,0.030120602115845486,-0.0034458670907344387,0.0002794659285304847,0.0002817885342362614
1.58489322662354,0.030321839379925834,-0.0034977576663966733,0.0002927771982146332,0.00025306926423052665
1.44543981552124,0.030526578396144376,-0.0035520046795518446,0.00022753138798757566,0.0001851688293008553
1.3182567358017,0.030735665907910395,-0.0036085069420427386,0.00016879660432629617,0.00014718684752876125
1.20226442813873,0.03094993631568094,-0.0036669831842103063,0.0001697904172196403,0.00020572988987779383
1.09647822380066,0.03117018426224176,-0.0037269752506516526,0.00023342157169765898,9.274510327944747e-05
1.0,0.03139713811636233,-0.0037878541742417484,0.00010631638527183046,4.08697406794516e-05
0.912010848522186,0.03163143420555606,-0.003848829057669229,0.00010318854787366022,-2.2724487489128933e-05
0.831763744354248,0.03187359172223594,-0.0039089589128572765,0.00020275312779934052,-0.0001750319944996766
0.758577585220337,0.032123988390486184,-0.003967167774333391,0.00012196031264538609,-8.822578203569135e-05
0.691830992698669,0.03238283720600811,-0.004022263486512145,0.00022676464903561427,-0.0001590012410806448
0.630957365036011,0.03265016481514475,-0.004072960547942763,0.0002743932628204507,-0.0002045711389073628
0.575439929962158,0.03292579234607168,-0.004117907277557611,0.00028869540460058074,-0.000256712102580511
0.524807453155518,0.03320931971138617,-0.004155717353518266,0.00030346542662287174,-0.00036754578463286556
