freq,mu_Z_re,mu_Z_im,Z_re_res,Z_im_res
10000.0,0.025636412692533358,-1.258885696071549e-06,-0.026498853671087442,-0.04583906356079827
9120.1083984375,0.025636412821803217,-1.3803386401438145e-06,-0.021317745871748787,-0.03929168929097165
8317.6376953125,0.025636412977095888,-1.5135085019637232e-06,-0.016708973021391613,-0.03773026272410487
7585.77587890625,0.02563641316362544,-1.6595255140189062e-06,-0.013193528138912457,-0.03104998907256162
6918.3095703125,0.025636413387640375,-1.819628895391833e-06,-0.013379576362983328,-0.03137841616910799
6309.5732421875,0.025636413656624814,-1.995177351477329e-06,-0.0052245933930549875,-0.03371266117819448
5754.3994140625,0.025636413979537417,-2.1876605848486135e-06,-0.002161558803908885,-0.02336526567364735
5248.07470703125,0.02563641436709476,-2.39871191147062e-06,-0.001910101321205341,-0.02314529344188337
4786.30078125,0.025636414832107383,-2.630122090662616e-06,-0.0018383908805925178,-0.018918749012137765
4365.158203125,0.02563641538987755,-2.8838544861502745e-06,-0.002179183604615949,-0.01958034235534825
3981.07177734375,0.025636416058670813,-3.162061687918239e-06,-0.0005333906601554875,-0.01621118303191322
3630.78051757813,0.02563641686027428,-3.4671037341645506e-06,-0.0009988909583769183,-0.014019360555603665
3311.31127929688,0.025636417820659847,-3.8015680922696098e-06,-0.00028539446035265315,-0.010702577328921669
3019.95166015625,0.025636418970771804,-4.168291565731975e-06,0.0014231477552137037,-0.012826641713258532
2754.22875976563,0.025636420347468238,-4.5703843253428655e-06,0.00017646396972353928,-0.009893582586945842
2511.88647460938,0.025636421994645067,-5.011256264371468e-06,0.00042558695502946733,-0.008270544740782872
2290.86767578125,0.0256364239645916,-5.494645909677146e-06,0.0015257900846916,-0.008646407007352676
2089.29614257813,0.025636426319617756,-6.024652134721039e-06,0.002249597718257456,-0.008517682478737122
1905.46069335938,0.02563642913403434,-6.605768941428866e-06,0.0014341065466634412,-0.006847070427976628
1737.80078125,0.025636432496533103,-7.24292361167235e-06,0.0026159247287366044,-0.006536992294722973
1584.89318847656,0.02563643651310185,-7.94151853897292e-06,0.00242349887493825,-0.006316528786533773
1445.43981933594,0.025636441310512986,-8.707477091852003e-06,0.0017821111284374858,-0.004592433648495952
1318.25671386719,0.02563644704059707,-9.547293882594011e-06,0.0025547159893904714,-0.003458208943482194
1202.26440429688,0.025636453885365125,-1.0468089852951982e-05,0.002904538769055026,-0.004227149790052752
1096.47814941406,0.02563646206318651,-1.1477672624163002e-05,0.0026499512946537088,-0.0026878277371997633
1000.0,0.025636471836244807,-1.2584602620926508e-05,-0.0007345974162461938,-0.006142633607771727
912.010864257813,0.02563648351946199,-1.379826548363809e-05,0.0009265417001517902,-0.002449462446149838
831.763793945313,0.02563649749126318,-1.5128951387409654e-05,0.002717643582485982,-0.0028353231845962097
758.577575683594,0.025636514206456032,-1.658794188840837e-05,-0.0039032050175200686,-0.0032058096648935083
691.830993652344,0.025636534211715134,-1.818760502895649e-05,0.008459880021890034,-0.0029587373530472563
630.957336425781,0.02563655816416679,-1.9941499438194907e-05,0.0031994755605929924,-0.002063674872722495
575.43994140625,0.025636586853705907,-2.1864488262565032e-05,0.0017411909340253086,-0.0016705931075921652
524.807434082031,0.025636621229797468,-2.3972863810225016e-05,0.0021740984548626677,-0.001482829723054625
478.630096435547,0.02563666243367005,-2.6284483873106555e-05,0.002437251324580149,-0.0016077989709161065
436.515838623047,0.02563671183698543,-2.881892071119576e-05,0.0016900801371849301,-0.0006016526771616958
398.107177734375,0.025636771088288355,-3.159762379147617e-05,0.0020322849506597546,-0.0008540021397209761
363.078063964844,0.02563684216879636,-3.464409736540224e-05,0.002480551294911159,-0.0004013772157914023
331.131134033203,0.025636927459401406,-3.798409410469558e-05,0.0020368036367123046,-0.0005822038375650956
301.995178222656,0.02563702982112217,-4.16458259820633e-05,0.0024638112281207686,-0.0005355784577800633
275.422882080078,0.02563715269168362,-4.5660193588428796e-05,0.0016826252390955213,4.41651847932184e-05
251.18864440918,0.025637300201423546,-5.0061035060144675e-05,0.0022058221331910446,-0.0003130574788402447
229.086761474609,0.025637477312345846,-5.488539573071568e-05,-0.0016593787333771537,0.0015076748142736844
208.929611206055,0.02563768998487178,-6.017381945364069e-05,0.0021271146903771784,4.243020687045931e-05
190.54606628418,0.025637945377703284,-6.597066231903042e-05,0.0021900052516418828,-0.00011894331902281732
173.780090332031,0.025638252087233908,-7.23244291982412e-05,0.0017422191429123067,0.0002531222572763588
158.489318847656,0.025638620434107126,-7.928813286676008e-05,0.0020903079488891266,0.00011402506785843992
144.543975830078,0.02563906280591743,-8.69196749268821e-05,0.0014248174269463308,0.0005339965780288179
131.825668334961,0.025639594066596844,-9.528224652475387e-05,0.001113599631644143,8.675864776284614e-05
120.226440429688,0.025640232044851975,-0.0001044447456646574,0.0025181859020354767,0.0003570916848562426
109.647819519043,0.025640998115996523,-0.00011448220589623982,0.0015362017659942238,-0.00022671056336213982
100.0,0.025641917893711112,-0.0001254762285266433,0.0014875472430620137,0.0008094711117568568
91.2010803222656,0.02564302205064084,-0.00013751540741817559,0.0015430443636396396,0.0009252549667010245
83.1763763427734,0.02564434728913972,-0.00015069573098984898,0.0019628053843326193,0.000660526918655151
75.8577575683594,0.02564593748574627,-0.00016512094027909476,0.0013463159037149716,0.0003611712510735053
69.1830978393555,0.025647845034924305,-0.00018090281468407247,0.0015551633289726044,0.0004787349205411275
63.0957336425781,0.025650132418892864,-0.00019816134812566878,0.0014818813365917623,0.0003960934096176312
57.5439949035645,0.02565287403025609,-0.0002170247666888476,0.0016338115111825882,0.0005718987608908523
52.4807472229004,0.02565615827206251,-0.0002376293250247885,0.0011696314251768113,0.0005486793980114115
47.8630104064941,0.025660089954648725,-0.00026011880200273743,0.0013581344782455235,0.0006881824234321627
43.6515846252441,0.025664792998749505,-0.00028464359663237513,0.0010510996422355041,0.0005845204720851248
39.810718536377,0.02567041343814212,-0.00031135930358534565,0.0010358901209243203,0.00019726715371835434
36.307804107666,0.02567712268990154,-0.00034042462409758663,0.0012258240507232385,0.0007761030860123135
33.1131134033203,0.02568512102421616,-0.00037199844583370964,0.0011076561158547583,0.0007087618207980903
30.1995162963867,0.025694641115642933,-0.0004062359070194729,0.0008597865873350326,0.00032988331860172714
27.5422878265381,0.0257059514912193,-0.0004432832504982738,0.0008905187638823982,0.0006785265720089262
25.1188640594482,0.025719359607142143,-0.0004832712803764471,0.0008811690813719415,0.001171111980380253
22.9086761474609,0.02573521418694642,-0.0005263072674891406,0.00840252993826062,0.01134381710982116
20.8929615020752,0.025753906344795616,-0.0005724652203701411,0.000619942670488715,0.000547786499469659
19.0546073913574,0.025775868908341718,-0.0006217745566165808,0.0006344639666637196,0.0009096834375166192
17.3780078887939,0.02580157326783164,-0.0006742073878740289,0.0005576930406235407,0.0008972121445367711
15.8489322662354,0.02583152303386374,-0.0007296648690533824,0.00073975199747724,0.0006523494958820176
14.4543981552124,0.02586624382301465,-0.0007879633550084706,3.362803026335168e-05,0.0005573841416724294
13.1825675964355,0.025906268636489475,-0.0008488214274245533,0.0003554207633977742,0.0004285647834342467
12.0226440429688,0.025952118583517855,-0.0009118491603705751,0.00037944423456745535,0.00044014786307772485
10.9647817611694,0.026004279134997314,-0.0009765412226126373,0.0007939600480880125,-0.0002594308728159373
10.0,0.02606317265458085,-0.0010422754971950512,0.0004765191537854513,0.00044748602111934865
9.12010860443115,0.02612912858952444,-0.0011083187690457815,0.0003112314187423415,0.0004343603815430185
8.31763744354248,0.026202353323039183,-0.00117384064634955,0.00024326392465508218,0.0003188750271715499
7.58577585220337,0.02628290218252607,-0.0012379362424228568,1.2812511510369717e-05,0.0006735728411610433
6.91830968856812,0.026370656353160295,-0.0012996573024761278,0.00022563399068969633,0.0002626718231144723
6.30957365036011,0.026465307385631888,-0.0013580505171021644,0.00019585846454748743,0.00026511550944533554
5.75439929962158,0.026566351571151624,-0.0014122008540666219,0.00018706805355252556,0.00021365273660057821
5.24807453155518,0.026673095719962583,-0.001461277004205975,0.00016394858255908487,0.00010129962035882508
4.78630113601685,0.02678467490347988,-0.0015045755921908933,0.00013919890495897938,0.00010639592939520664
4.36515855789185,0.02690008163521893,-0.0015415607209001508,0.00020995058189042862,4.489256975604935e-05
3.98107171058655,0.027018204913499794,-0.0015718957106598027,0.0003146702656773928,3.4002314785797245e-05
3.63078045845032,0.027137876663094276,-0.0015954645182333937,0.000273713085537676,-6.261419685119366e-05
3.3113112449646,0.027257922491230095,-0.001612381187622803,0.00033375938812649567,0.00011077128128949708
3.01995182037354,0.027377213376454348,-0.0016229866795146944,0.00018744638829614607,2.7915646704005552e-05
2.75422859191895,0.027494714941474145,-0.001627833431188236,0.0002923117686235467,4.247381577986414e-05
2.51188635826111,0.02760953129579518,-0.0016276589033715674,0.0003542606656739798,-0.00011905696220326735
2.29086756706238,0.027720941002570356,-0.001623350094578294,0.00023918576081865747,8.498433367990616e-05
2.0892961025238,0.02782842344734651,-0.0016159014911193274,0.00021791844758970932,6.748199045767257e-05
1.90546071529388,0.027931674673637327,-0.0016063691548687824,0.00012815865822692757,0.0001782734213712177
1.73780083656311,0.02803061251758266,-0.0015958236395078448,0.00030023512660196094,-2.5607957940144716e-05
1.58489322662354,0.0281253715507061,-0.0015853042071830965,0.00013198307671849832,2.2595692280036068e-06
1.44543981552124,0.028216288874854497,-0.0015757764408566633,0.0001294757081168954,3.384477624936719e-06
1.3182567358017,0.028303882178960325,-0.0015680948825653712,0.00020667731493522606,3.606878741562879e-05
1.20226442813873,0.028388821659227705,-0.0015629718294174308,0.00015626209749830533,-1.8951341490530856e-05
1.09647822380066,0.02847189744113604,-0.0015609529555446668,6.477450131094076e-05,2.4504867694533257e-05
1.0,0.028553984057168653,-0.0015624000317792156,3.055598597253434e-06,7.512244867128432e-05
0.912010848522186,0.028636003374719637,-0.0015674807192592555,4.7779172325138064e-05,-0.0001201125388800555
0.831763744354248,0.02871888717992898,-0.0015761652174907728,0.0001897330431520801,-3.8742800759072795e-05
0.758577585220337,0.02880354044703443,-0.0015882294390920752,0.00012191576627693101,-1.932342989487525e-05
0.691830992698669,0.028890806187478062,-0.001603264338040018,6.776576170066176e-05,-8.981579419341788e-05
0.630957365036011,0.02898143269055231,-0.0016206909972666641,0.0001373201602016122,2.3469834080435932e-05
0.575439929962158,0.02907604393438848,-0.0016397810562967681,6.290939526108069e-05,-0.0001342094059556681
0.524807453155518,0.029175113944927757,-0.0016596820023035263,0.0001375098364749562,-0.00020701634270452619
