freq,mu_Z_re,mu_Z_im,Z_re_res,Z_im_res
10000.0,0.025857999118774334,-1.2827868852369452e-06,-0.024475776461155067,-0.03939961025671094
9120.1083984375,0.025857999190074716,-1.4065475447582517e-06,-0.01881373746754478,-0.035776628431795354
8317.6376953125,0.025857999275759862,-1.542248314632162e-06,-0.01464309607879714,-0.031541474141663334
7585.77587890625,0.025857999378734994,-1.6910411259777602e-06,-0.010955427384084303,-0.02952665066493958
6918.3095703125,0.025857999502490923,-1.8541890379745153e-06,-0.009218935341764475,-0.024719540886878676
6309.5732421875,0.02585799965122142,-2.033076956502833e-06,-0.005408834935637281,-0.0227022254837301
5754.3994140625,0.02585799982996374,-2.2292233871460518e-06,-0.004775378943963959,-0.021119612837569645
5248.07470703125,0.025858000044767127,-2.444293321295497e-06,-0.002432271714266073,-0.019766241814912495
4786.30078125,0.02585800030289482,-2.680112365489096e-06,-0.0018072999918620804,-0.01772122247958539
4365.158203125,0.02585800061306572,-2.9386822314411864e-06,-0.001772013731984181,-0.017253247449192544
3981.07177734375,0.025858000985744662,-3.222197721282793e-06,0.004441491461756861,-0.011761276804337783
3630.78051757813,0.025858001433489108,-3.533065350832349e-06,0.0008111555354569089,-0.012366556189986033
3311.31127929688,0.02585800197136665,-3.873923769281312e-06,-0.0009161138890955503,-0.013154257642081082
3019.95166015625,0.025858002617452743,-4.247666148108632e-06,0.0007115946109038443,-0.010091550552097707
2754.22875976563,0.025858003393432877,-4.657464729120489e-06,0.0003059019601557786,-0.01172379675756532
2511.88647460938,0.025858004325318176,-5.106797740856224e-06,0.001467997887420476,-0.009698124958501255
2290.86767578125,0.025858005444317683,-5.599478915013833e-06,0.0012818667393024834,-0.007359320199772314
2089.29614257813,0.02585800678786843,-6.139689847554897e-06,0.000755145562263429,-0.0076097882741835545
1905.46069335938,0.025858008400906025,-6.732015484177437e-06,0.0021970114720949244,-0.0067234253013367775
1737.80078125,0.025858010337345742,-7.381483024558503e-06,0.0033926620936323426,0.005170394380533442
1584.89318847656,0.025858012661941945,-8.093604577043995e-06,0.003246616274722544,-0.005680209902805543
1445.43981933594,0.025858015452416658,-8.874423924546373e-06,0.0016324265644867587,-0.004550117850426246
1318.25671386719,0.025858018802158062,-9.730567789924727e-06,0.0032391476199547624,-0.003426452276862425
1202.26440429688,0.02585802282336634,-1.0669302037675827e-05,0.0024711811834899414,-0.004012737493804376
1096.47814941406,0.025858027650850268,-1.1698593278156746e-05,0.002223675860898968,-0.0036468382635011566
1000.0,0.02585803344664737,-1.2827176390981927e-05,0.0024180822056309725,-0.0031653603778916822
912.010864257813,0.025858040405485238,-1.4064628535604768e-05,0.0029557044338913395,-0.002478717388489905
831.763793945313,0.02585804876146617,-1.5421450265636435e-05,0.002111247221210668,-0.0029733869304292364
758.577575683594,0.0258580587959871,-1.6909154411330954e-05,0.002447019532977098,-0.0026993682294151307
691.830993652344,0.025858070847317748,-1.854036348129258e-05,0.0026749578832836463,-4.816527073751308e-05
630.957336425781,0.025858085322096762,-2.0328916365109488e-05,0.0023697146204261603,-0.0019456138906421094
575.43994140625,0.02585810270914854,-2.228998523860733e-05,0.0020459502638322385,-0.0018081433972409072
524.807434082031,0.025858123596084668,-2.444020358452971e-05,0.0021486327008133667,-0.0007525388791931297
478.630096435547,0.025858148689256902,-2.6797806391062643e-05,0.001984188089953702,-0.0009990769792473627
436.515838623047,0.025858178837732036,-2.938278362533246e-05,0.001451900331810637,-0.0005969557898901325
398.107177734375,0.02585821506210037,-3.2217048197311546e-05,0.002076818613488171,-0.0012966528694101115
363.078063964844,0.025858258589088703,-3.532461968979203e-05,0.001901326461613003,-0.000959578805209892
331.131134033203,0.025858310893142108,-3.873182524859592e-05,0.002043226644360907,-0.00019570020615519593
301.995178222656,0.025858373746370737,-4.2467519090943344e-05,0.0018079591841454364,6.886247588835665e-05
275.422882080078,0.025858449278535593,-4.6563322241585176e-05,0.0013302569223067919,-3.792925893549522e-05
251.18864440918,0.02585854004907408,-5.105388408872557e-05,0.0019193663804510826,-0.0005798281083104255
229.086761474609,0.02585864913356003,-5.5977167479350303e-05,0.0013149130035608296,6.27701715224497e-05
208.929611206055,0.025858780227459216,-6.137475906783753e-05,0.000999117128408715,-3.5007672747304125e-05
190.54606628418,0.025858937770594503,-6.729220667283711e-05,0.0014262059782638031,0.0006349900325444629
173.780090332031,0.025859127096386422,-7.377938528793193e-05,0.0010907578240351226,0.0002678547643751681
158.489318847656,0.025859354610708412,-8.089089335137476e-05,0.0017828574284584134,0.0005471213391310253
144.543975830078,0.0258596280060925,-8.868648053967623e-05,0.0010088813893713022,-0.001221751569191676
131.825668334961,0.025859956518071228,-9.723150807645755e-05,0.0015577626230889284,3.4338411099942454e-05
120.226440429688,0.025860351231662023,-0.00010659744194043781,0.0003036360263502236,-0.0005798181290671378
109.647819519043,0.025860825447381792,-0.00011686237859759637,0.0012768263798368928,5.662996398530364e-05
100.0,0.025861395117776215,-0.00012811160181271878,0.0011931821377442163,0.0010110541153642812
91.2010803222656,0.025862079367168004,-0.00014043816739803944,0.001410646617539004,0.00016616806711886056
83.1763763427734,0.02586290110926877,-0.00015394351082359607,0.0012233356116319698,0.001025554527431004
75.8577575683594,0.025863887779332097,-0.0001687380698995616,0.0005773194505938987,0.00016353550208523837
69.1830978393555,0.02586507219955563,-0.00018494191097746197,0.0006843319176161287,0.0005708996417680381
63.0957336425781,0.02586649359834548,-0.00020268534240990875,0.00127262437415478,0.0009317953565554913
57.5439949035645,0.02586819880564901,-0.00022210949302532218,0.0008130734499285121,0.0006606955410271779
52.4807472229004,0.025870243647421798,-0.00024336682586081708,0.0002158736822260969,0.0009069533417923829
47.8630104064941,0.02587269456191308,-0.0002666215477510553,0.0008086024324441797,-0.0008884747112168554
43.6515846252441,0.025875630458239787,-0.0002920498642120732,0.0009535631587545869,0.0008219920295308269
39.810718536377,0.025879144832575814,-0.00031984001531380887,0.0005629474074488119,0.000976152740017291
36.307804107666,0.025883348148149743,-0.00035019201314340345,0.0007415278366034415,0.0005077837864468965
33.1131134033203,0.025888370470409535,-0.00038331698451426625,0.0003866647642900359,0.0005588209809525338
30.1995162963867,0.025894364326490317,-0.00041943600578856475,0.0002909768216742166,0.0003241400286492352
27.5422878265381,0.025901507726888838,-0.00045877830201100905,0.00041268407462133685,0.000657571641902491
25.1188640594482,0.025910007244807815,-0.0005015786729985017,0.0003047887598101144,0.0007125331328948982
22.9086761474609,0.025920100994167805,-0.000548074008857843,0.0012544435632806036,-0.001541224644480243
20.8929615020752,0.025932061281641255,-0.0005984987746285729,0.00020968800469235369,0.0001320275678937271
19.0546073913574,0.025946196634362147,-0.0006530793844746392,5.482742566864651e-05,-0.0007294839316188324
17.3780078887939,0.025962852829169894,-0.0007120274585348414,-0.0003787829046730043,0.0005282930451768586
15.8489322662354,0.025982412484640373,-0.0007755320681097848,0.0002986648801510741,0.00012726106924681514
14.4543981552124,0.026005292740715547,-0.0008437512300721121,-0.0022440287647118515,0.0003295277852751879
13.1825675964355,0.02603194056434024,-0.0009168031054778884,0.000580900668924942,-0.0002908071863695884
12.0226440429688,0.026062825309202058,-0.0009947575758095964,0.006968540685340759,0.009706729265034603
10.9647817611694,0.026098428341001432,-0.0010776290835393077,-0.00016794907823186947,0.0003411481922911922
10.0,0.026139229830800838,-0.0011653717912452808,0.00013606838554083844,0.0002806882301626193
9.12010860443115,0.026185693203853822,-0.0012578781832495783,-0.0003392100488669794,0.00013848530142362178
8.31763744354248,0.02623824817780286,-0.001354982155657044,4.642313066745979e-05,0.00036694527482365605
7.58577585220337,0.026297273769465526,-0.0014564673812126887,-0.0004462406938399756,3.952935803811387e-06
6.91830968856812,0.02636308301421591,-0.0015620812838684232,2.828691336100725e-05,0.00011227384025487672
6.30957365036011,0.026435911341281072,-0.0016715543515354063,-0.0003250151288794294,-3.8132381890618704e-07
5.75439929962158,0.026515910516743783,-0.0017846238173672862,2.0029138093083376e-05,0.0001737235739698137
5.24807453155518,0.02660314977045977,-0.0019010600549224745,-0.00019945338491473077,0.0001222638498004254
4.78630113601685,0.026697625174132666,-0.002020693461841498,0.0007369823296940643,0.0005024321531294021
4.36515855789185,0.02679927759721178,-0.002143439249327614,7.101529382678995e-06,0.0003279625724942857
3.98107171058655,0.026908018723446885,-0.0022693174681292496,-1.2242138069114283e-05,-0.0002487528393643498
3.63078045845032,0.02702376377586678,-0.002398465806609373,-0.0002583494335000186,7.57150817751271e-05
3.3113112449646,0.02714646887107677,-0.002531143163002179,-2.5196931521229843e-05,0.00011595499082732094
3.01995182037354,0.02727617038698771,-0.002667722666319439,8.581480296231125e-05,0.00013771708900106117
2.75422859191895,0.027413023427693306,-0.0028086736106371947,0.0005366651123447051,-0.00012787391963069465
2.51188635826111,0.027557336420564887,-0.0029545325945473243,-0.00014197204932661286,0.0003080766488455758
2.29086756706238,0.02770959906364988,-0.003105864939299786,0.00055368565107888,-4.314918538688567e-05
2.0892961025238,0.02787050122060817,-0.0032632181352357315,-2.3509546732532194e-05,0.00018593525268326833
1.90546071529388,0.028040940881260062,-0.0034270696008376045,0.0006123269056159605,0.0005209041161663955
1.73780083656311,0.028222019918825697,-0.0035977714055452294,0.00016683260407689832,0.0006178690760161704
1.58489322662354,0.02841502702795508,-0.003775494814169563,0.0006578014697933808,0.0005675319691477369
1.44543981552124,0.028621407881926658,-0.0039601775571613896,4.862873310955765e-05,0.0002828675568193103
1.3182567358017,0.02884272317220815,-0.004151476649127742,-0.0006148329115902504,0.0005421255626456576
1.20226442813873,0.029080595767034596,-0.004348729367764825,0.0008940323646202952,6.282878720557505e-05
1.09647822380066,0.029336648736146574,-0.004550924711931328,0.00031461075320587256,-0.00039785746585192794
1.0,0.029612436425808446,-0.004756687268544912,0.0004467531116042478,0.00032783014334268785
0.912010848522186,0.02990937112770736,-0.004964274974531103,6.212360165775907e-05,9.483968847797362e-06
0.831763744354248,0.030228648160517253,-0.0051715917526125605,-6.2467704594147e-05,-9.78991030097607e-05
0.758577585220337,0.030571172368063775,-0.005376215449653188,-3.562645958442648e-05,-0.00035439746745638805
0.691830992698669,0.030937489126930427,-0.00557544092568609,0.0002478659200765253,-0.0002606209452733904
0.630957365036011,0.03132772293990158,-0.005766337534460498,0.00021166388993758278,-6.0491526547198395e-05
0.575439929962158,0.031741526564019164,-0.005945819627935778,0.0005162401398591636,-0.00022835909619447776
0.524807453155518,0.032178043376827475,-0.006110728119071491,0.0003194352501871764,-0.00013156873783089044
