freq,mu_Z_re,mu_Z_im,Z_re_res,Z_im_res
10000.0,0.015646320494483452,-8.654955414812587e-07,-0.023202545282770645,-0.03229454655084888
9120.1083984375,0.015646320543213677,-9.489951624289891e-07,-0.015038374104575324,-0.02770993390660423
8317.6376953125,0.01564632060169415,-1.0405501109516294e-06,-0.010862694287903749,-0.026710325183509052
7585.77587890625,0.015646320671850726,-1.1409373798755656e-06,-0.0031578886349853744,-0.023844706893137977
6918.3095703125,0.015646320755981186,-1.2510088755677785e-06,-0.004958505753971314,-0.020996093061335267
6309.5732421875,0.015646320856823364,-1.3716986328027632e-06,-0.007202456616149537,-0.020834741043105703
5754.3994140625,0.01564632097763441,-1.5040307219246371e-06,-0.00307007206099609,-0.015435118172961025
5248.07470703125,0.015646321122282682,-1.6491279178673812e-06,-0.002654884587293918,-0.014844355860369767
4786.30078125,0.015646321295353982,-1.8082211995149177e-06,-0.0033044912232426185,-0.011990019644358115
4365.158203125,0.01564632150227381,-1.9826601647764395e-06,-0.003073761436397291,-0.016867845193614877
3981.07177734375,0.015646321749448255,-2.173924446636699e-06,-0.0005202199759488449,-0.010935514451563936
3630.78051757813,0.01564632204442572,-2.383636229698793e-06,-0.002624103454059879,-0.0111568797472054
3311.31127929688,0.01564632239608443,-2.6135739741702707e-06,-0.0011895496878179708,-0.00823631165892457
3019.95166015625,0.0156463228148487,-2.8656874671478647e-06,-0.00019865930256579914,-0.007402187221206648
2754.22875976563,0.015646323312944577,-3.1421143292753515e-06,-8.961583214362259e-05,-0.004830059427368576
2511.88647460938,0.015646323904699055,-3.4451981234331105e-06,-0.002916846081310546,-0.006949847334359833
2290.86767578125,0.015646324606905068,-3.7775082209560143e-06,0.0014007418624258673,-0.004381875571391856
2089.29614257813,0.015646325439254406,-4.1418615982831995e-06,-0.0012795924990971937,-0.0031341787334784833
1905.46069335938,0.015646326424883887,-4.5413467458228295e-06,0.0006175162963142876,-0.0032897237538716227
1737.80078125,0.01564632759102185,-4.979349896518476e-06,0.0008024464608033504,-0.005227288265004918
1584.89318847656,0.01564632896982412,-5.459583789861736e-06,-0.003470456407439877,-0.002548896412790562
1445.43981933594,0.015646330599343714,-5.986119210091455e-06,-0.0016166348414063877,-0.0009927432253577914
1318.25671386719,0.015646332524786248,-6.563419553655447e-06,0.0019664174169995476,-0.0032246777956217556
1202.26440429688,0.01564633479998463,-7.196378711133815e-06,0.002400817411998428,-0.0036164101239326337
1096.47814941406,0.015646337489184963,-7.890362571410965e-06,0.0009545096704336627,-0.002565342897828111
1000.0,0.015646340669220417,-8.65125450078546e-06,0.0017943273941931175,-0.004857927759911385
912.010864257813,0.015646344432064856,-9.485505157933343e-06,-0.0008119676174432461,0.00038790081524296666
831.763793945313,0.015646348887942526,-1.0400187075987124e-05,-0.019230124360062373,-0.008858936946690887
758.577575683594,0.01564635416897848,-1.1403054450883996e-05,0.0017914398241312812,-0.002323212042902784
691.830993652344,0.015646360433579084,-1.250260864692841e-05,0.003703355408192284,-0.005300202941348128
630.957336425781,0.015646367871647363,-1.3708169962035582e-05,0.0027001878036909625,-0.003473944529349636
575.43994140625,0.015646376710803853,-1.5029956246394215e-05,0.0015669502955392538,0.021873576294039705
524.807434082031,0.015646387223808744,-1.647916902958668e-05,0.009824205522148643,-0.0035454436419641864
478.630096435547,0.015646399737423232,-1.8068087861177146e-05,0.008894527138298332,-0.000526614160385177
436.515838623047,0.015646414642988906,-1.9810173634232716e-05,0.008159842153846505,-0.0005453993910660328
398.107177734375,0.01564643240906197,-2.17201817441414e-05,0.0072938975635906695,-0.0012870388967576416
363.078063964844,0.015646453596500853,-2.3814285999318113e-05,0.007712750345317853,-0.001310823387360318
331.131134033203,0.015646478876483034,-2.6110214261262716e-05,0.007412239693116733,-0.0013548352327997627
301.995178222656,0.015646509052019142,-2.862739693602997e-05,0.007852206629465841,-0.00029522427558192996
275.422882080078,0.015646545083641945,-3.1387129464869275e-05,0.007452483156144645,-0.0012086354416251694
251.18864440918,0.015646588120081614,-3.441275015311009e-05,0.005050078097203014,-0.00339775989681311
229.086761474609,0.015646639534896933,-3.772983468371051e-05,0.0073555738419953335,-0.0009615369271603105
208.929611206055,0.015646700970227755,-4.1366408883859195e-05,0.018794601307581055,0.003260745580003241
190.54606628418,0.015646774389066566,-4.535318138419384e-05,0.007683687910654467,0.0019638989048975063
173.780090332031,0.015646862137732087,-4.9723797962153464e-05,0.006693684767601087,-0.0024165183040500537
158.489318847656,0.01564696702057055,-5.451511947100918e-05,0.0041282939805977505,-0.02166195880977101
144.543975830078,0.01564709238933055,-5.9767525407693093e-05,0.006941027494535148,0.00016504191339730692
131.825668334961,0.01564724225016331,-6.552524529250429e-05,-0.07706436288146279,0.030851994458214894
120.226440429688,0.015647421391821667,-7.183672021031253e-05,0.012619172722242066,-0.0005370367118053125
109.647819519043,0.015647635539368338,-7.875499684097871e-05,0.006828416814402338,-0.0002600545729110787
100.0,0.015647891538604672,-8.633815636891178e-05,0.0066742418356384725,0.0011118871490466882
91.2010803222656,0.015648197577504172,-9.464978062921645e-05,0.002916028917936372,0.0004158503230716835
83.1763763427734,0.015648563452214864,-0.00010375945767607767,0.003478497326523963,0.0017089345545113223
75.8577575683594,0.015649000886700588,-0.00011374332861026644,-0.006753758754708312,0.0037289862808493335
69.1830978393555,0.01564952391686532,-0.00012468467702464356,0.003260388369883018,-0.0008543465193670435
63.0957336425781,0.01565014935204784,-0.00013667456158032503,0.0026334253243545415,0.001111090352716175
57.5439949035645,0.015650897329117255,-0.00014981249090633095,0.001584202093447654,-0.001087262527778431
52.4807472229004,0.015651791977092024,-0.0001642071386406373,0.0019492280356133238,0.0031959735112657628
47.8630104064941,0.01565286221317251,-0.00017997709377639442,0.0018272547271033102,0.0015524683446160056
43.6515846252441,0.015654142694463455,-0.00019725163899641496,0.0017624457645318541,0.002065569083538785
39.810718536377,0.01565567495323229,-0.00021617154499777784,0.0050735771471957895,0.00019665878124272215
36.307804107666,0.015657508747523467,-0.00023688986414012193,0.0018631890433484666,0.0009027356935581781
33.1131134033203,0.01565970366306904,-0.00025957269995158954,0.001765678426700841,0.0007295653323581104
30.1995162963867,0.015662331006514985,-0.0002843999202802996,0.001581698528516284,0.0005929524529285004
27.5422878265381,0.015665476033760818,-0.0003115657705405997,0.0019412821254866184,0.0013866638077830004
25.1188640594482,0.01566924056027291,-0.00034127932978099456,-0.01185698719706179,-0.0005850542069435945
22.9086761474609,0.015673746001690816,-0.00037376473440297665,0.0006736904576124161,0.0014189458893009233
20.8929615020752,0.01567913689168926,-0.0004092610722086645,0.001148652327086861,0.0008465288158826354
19.0546073913574,0.015685584918548146,-0.0004480218228104035,0.0015907302135124458,0.0010594584567320967
17.3780078887939,0.01569329350964955,-0.0004903136883480057,0.0019939640514724487,0.000985104763825394
15.8489322662354,0.015702502971633277,-0.0005364146220505652,0.001299429854496277,0.0009787028518497348
14.4543981552124,0.01571349615924241,-0.0005866108215447052,0.0015904251741636118,0.0009403886985931948
13.1825675964355,0.015726604593742987,-0.0006411924121530366,-0.008920716958295213,-0.025332111036554136
12.0226440429688,0.015742214878218506,-0.0007004475078835832,0.0007532178583911052,0.0010675290508836168
10.9647817611694,0.01576077515647672,-0.000764654310072664,7.933887110022145e-05,0.001563207885597936
10.0,0.015782801232018844,-0.0008340708968008781,0.0010269980716494445,0.0007584877954085219
9.12010860443115,0.015808881803930863,-0.0009089223861679526,0.000954593143941064,0.0007824887467562474
8.31763744354248,0.015839682093315956,-0.0009893852403609661,0.0008614846900638559,0.000798481807462934
7.58577585220337,0.015875944938686208,-0.001075568634481855,0.000949723717000809,0.0008026528848095451
6.91830968856812,0.01591848825891974,-0.001167493063954447,0.0007332531907177416,0.000788121361287453
6.30957365036011,0.015968197656046818,-0.0012650667215198539,0.0007076577071065179,0.000693876017773046
5.75439929962158,0.016026012905358978,-0.001368060630860938,0.0006330109466311778,0.000982482296299862
5.24807453155518,0.016092907220837126,-0.0014760840615986896,-0.0005620014362368725,0.0017321941510976104
4.78630113601685,0.016169858534992025,-0.0015885623025889415,0.000761947033167126,0.0007655450288955583
4.36515855789185,0.016257812639638332,-0.0017047193595500522,-0.0007409384493385698,-0.0008020729637066523
3.98107171058655,0.016357638882911994,-0.0018235684448483524,0.0005054334276087952,0.00048738349400424775
3.63078045845032,0.01647008015627698,-0.0019439131288167366,0.000425921667764978,0.00023889627434936327
3.3113112449646,0.016595700009411282,-0.002064361619110548,0.00034388266379208055,0.0003861704279674522
3.01995182037354,0.016734830732744538,-0.0021833557875131256,0.00032076209346613635,0.00016196987058467432
2.75422859191895,0.01688752695157084,-0.0022992153032707465,0.00030301324262173995,0.0005453700353366536
2.51188635826111,0.017053529512754833,-0.0024101956858581697,0.0007475687979378344,0.00042021608731683015
2.29086756706238,0.017232244103413615,-0.002514557451636149,-0.00023976227714438483,0.00023496546347375087
2.0892961025238,0.017422738095300268,-0.0026106420380941605,-0.00010404495380633358,0.00010826737266563967
1.90546071529388,0.01762375765135786,-0.0026969490749876924,-0.0003340936393449387,2.5205994944607537e-05
1.73780083656311,0.01783376532414588,-0.0027722090120956603,-0.00010035214206541992,0.0002773054771527399
1.58489322662354,0.018050996458522085,-0.002835445201571691,-0.002689877653130314,-0.00013392917121549108
1.44543981552124,0.018273530917770942,-0.0028860202618205587,-3.13684171365583e-05,0.0005587247106915412
1.3182567358017,0.0184993752042476,-0.0029236628304751024,-0.0002326826800879006,6.748334471569752e-05
1.20226442813873,0.018726549095354646,-0.0029484724758215407,-0.00021605288342415457,-0.00023347252439934055
1.09647822380066,0.018953170554375117,-0.0029609023888039895,0.000837320388888816,0.00011664956655311033
1.0,0.019177532901291122,-0.002961721309003181,-0.0003214411835629795,0.0008562681819230186
0.912010848522186,0.019398168991579392,-0.0029519577698198154,0.0004108095125096925,-0.0001072376222697154
0.831763744354248,0.01961389832937381,-0.002932831038404472,0.00022982337319511076,-0.00016751545356617206
0.758577585220337,0.01982385450485697,-0.0029056739754502185,0.0003336180883978697,0.0001639128435875813
0.691830992698669,0.020027491933651123,-0.0028718534202920557,0.0003034544354154241,-5.731976569175578e-05
0.630957365036011,0.020224572447740626,-0.0028326936146941773,0.000702119720780426,-0.00019228235695037746
0.575439929962158,0.020415133712830578,-0.0027894076717849005,0.0003930338751697779,8.23373614046996e-05
0.524807453155518,0.020599442628587906,-0.002743041246368734,0.000320474711622408,-0.00035435600316453385
