freq,mu_Z_re,mu_Z_im,Z_re_res,Z_im_res
10000.0,0.020998388845484786,-4.654747186707067e-06,-0.02615568755193421,-0.04864335246080021
9120.1083984375,0.020998389839951045,-5.103826602472794e-06,-0.02066556978243205,-0.043766565799792774
8317.6376953125,0.020998391035503806,-5.596231704255434e-06,-0.015806225415759594,-0.037800324063783156
7585.77587890625,0.020998392472794336,-6.1361422656483265e-06,-0.010619930704304864,-0.03411790787483435
6918.3095703125,0.020998394200689004,-6.7281412491947185e-06,-0.010058654388302196,-0.030835978953779694
6309.5732421875,0.020998396277927673,-7.377253682629317e-06,-0.006622276901698827,-0.02826402640512703
5754.3994140625,0.020998398775116556,-8.088989290856091e-06,-0.004130774175866443,-0.026038366822633458
5248.07470703125,0.02099840177712226,-8.869389220503376e-06,-0.0034640690076611427,-0.024081572363301506
4786.30078125,0.020998405385948427,-9.72507727716652e-06,0.0017859657296908256,-0.020002916662221867
4365.158203125,0.020998409724191258,-1.066331607623963e-05,-0.0029166296512331408,-0.01915919375461864
3981.07177734375,0.02099841493919165,-1.169206860723047e-05,0.00131584550991325,-0.01532180724951683
3630.78051757813,0.020998421208022724,-1.2820065717636386e-05,-0.001932446761967077,-0.016610579044322938
3311.31127929688,0.02099842874348387,-1.4056880078960736e-05,0.0012075073832295696,-0.013612609785102061
3019.95166015625,0.020998437801300875,-1.541300726818445e-05,0.00022143768697917635,-0.013501164122053886
2754.22875976563,0.020998448688782347,-1.6899954625861357e-05,0.005531456876791647,-0.011932701978930762
2511.88647460938,0.0209984617752178,-1.8530338632186406e-05,0.002837503932152499,-0.009138750657068786
2290.86767578125,0.02099847750438692,-2.0317991630937993e-05,0.0026396359659576207,-0.009660836567537637
2089.29614257813,0.020998496409582738,-2.2278078755349084e-05,0.003832962211298637,-0.007935214699169548
1905.46069335938,0.02099851913169906,-2.4427225998024753e-05,0.002094021284738061,-0.007567813651820925
1737.80078125,0.020998546440939382,-2.678366049742237e-05,0.008029595536033583,-0.0068440742199084225
1584.89318847656,0.020998579262979527,-2.9367364118785936e-05,0.002930690347440725,-0.005875433298866186
1445.43981933594,0.020998618710334784,-3.220024161053596e-05,0.00041896957486438346,-0.004079698814228236
1318.25671386719,0.02099866612017516,-3.5306304547347766e-05,0.002363262755278362,-0.004802622698101548
1202.26440429688,0.020998723099699208,-3.8711872558129946e-05,0.004122198785414907,-0.00271930131749343
1096.47814941406,0.02099879158067226,-4.244579331250576e-05,0.0032188135884952604,-0.0038751757922884057
1000.0,0.020998873885002014,-4.6539682871697376e-05,0.0020505088821314126,-0.0030869693532352975
912.010864257813,0.020998972803442373,-5.102818805899047e-05,0.0031919100881503716,-0.0010853628392534906
831.763793945313,0.02099909169022183,-5.5949272620741976e-05,0.0024707010144386296,-0.002250548753920242
758.577575683594,0.02099923457658918,-6.134452897213418e-05,0.0019153900787892801,-0.0011910824677263342
691.830993652344,0.020999406307190674,-6.725951752429302e-05,-0.0038342598535120245,-0.004738793575230793
630.957336425781,0.020999612703749306,-7.374413525363277e-05,0.002301186740228306,-0.0013367141711493327
575.43994140625,0.02099986076146798,-8.085301533266063e-05,0.0023256696739835797,-0.0008672734388700607
524.807434082031,0.02100015888460623,-8.864595936583965e-05,0.0016383686149929293,-0.0008604406603608397
478.630096435547,0.021000517168920034,-9.718840355372511e-05,0.0012894734832453354,-0.0007852479500727251
436.515838623047,0.021000947740088625,-0.00010655191951631748,0.0017181652897703265,-0.00038887790512491744
398.107177734375,0.021001465158971198,-0.000116814750088025,0.0010906155281384979,-0.000451576001084925
363.078063964844,0.021002086906477917,-0.00012806237907636312,0.0014288603353948166,0.0007258616434454369
331.131134033203,0.021002833963126095,-0.0001403881327654026,0.0013757005787790946,0.0002740482883587974
301.995178222656,0.021003731500956534,-0.00015389380913303152,0.0014451900242300336,3.9267920706568496e-05
275.422882080078,0.021004809708386342,-0.000168690327899971,-0.00523322942754656,-0.006561271250592971
251.18864440918,0.021006104771883992,-0.00018489839165695726,0.0014526967451886919,0.00048181669664344273
229.086761474609,0.02100766004171141,-0.00020264914264652903,0.01081396193351511,0.002579694045654171
208.929611206055,0.021009527412755694,-0.00022208479470460144,0.0013592823273970954,0.0004580124676703986
190.54606628418,0.02101176895508907,-0.00024335921187178356,0.000798261839248169,0.0006157019277639164
173.780090332031,0.02101445883206366,-0.00026663839465246195,0.0005931084572458611,0.000702887031973738
158.489318847656,0.02101768554608322,-0.00029210082190377757,0.0006083380566070211,0.0005008337373818224
144.543975830078,0.021021554553097684,-0.0003199375806131335,0.00022041642028708397,0.0007436421128234666
131.825668334961,0.0210261912849049,-0.00035035219559589946,0.002356520837197701,0.0006449429266699004
120.226440429688,0.02103174461212625,-0.00038356004629051745,0.0005450712719248518,0.0010800906794913826
109.647819519043,0.021038390768497225,-0.00041978722963232013,9.572699460292516e-05,-0.0005068058418806775
100.0,0.021046337735594393,-0.0004592686941942732,-0.00015919183498510833,0.0007264000546091267
91.2010803222656,0.02105583005362306,-0.0005022454353387369,0.00035970599168095793,0.0018429742848162628
83.1763763427734,0.021067153973376912,-0.0005489605034687628,0.00030925901035091033,0.0007139388683265371
75.8577575683594,0.021080642793098712,-0.0005996535440106975,0.0003205070679581125,0.0012761450231875025
69.1830978393555,0.021096682128032906,-0.0006545535667814678,0.0004548914250939069,0.0002977358147486322
63.0957336425781,0.021115714734691822,-0.000713869639896012,7.83410428945204e-05,0.000329661356061488
57.5439949035645,0.021138244357003583,-0.0007777792374687568,-0.00042774989079061645,0.00013800910943274317
52.4807472229004,0.021164837883902186,-0.0008464140601846747,-8.222122292461317e-05,0.0004004266328718252
47.8630104064941,0.021196124920942475,-0.0009198433138406979,-0.0003074073844173235,0.0004976469906070022
43.6515846252441,0.021232793704371,-0.000998054689875141,-0.00018886975874470024,0.00010062468875355907
39.810718536377,0.021275582172039408,-0.0010809336651760666,-0.00015719196939149166,0.0006365653264623333
36.307804107666,0.02132526300259742,-0.0011682422202395756,-0.0003335747926601802,0.00033553628489942436
33.1131134033203,0.021382621610013884,-0.0012595986381295303,-0.0004117068560439176,-0.00017549876516053027
30.1995162963867,0.021448426503211958,-0.001354460633294536,-0.00037175361487204114,-4.614182368843601e-05
27.5422878265381,0.021523392124244513,-0.0014521145551984363,-0.00019073270433248718,-0.0004321245999594362
25.1188640594482,0.021608135278125162,-0.0015516736915520092,0.0008317293476060618,-0.0006239113303087092
22.9086761474609,0.021703127473823147,-0.0016520885919766924,0.014031752180538547,0.03595381172545381
20.8929615020752,0.021808646769840997,-0.0017521717273021261,-0.000881915761511004,-0.00026662572420632614
19.0546073913574,0.02192473382394446,-0.0018506376242236598,-0.00022618129212724145,-0.00022401057015825976
17.3780078887939,0.02205115752354547,-0.001946157925494621,-4.674484893393144e-05,-0.000355016589828521
15.8489322662354,0.022187395572199804,-0.002037428803299942,-5.3964004383098146e-05,-0.00036993170578544224
14.4543981552124,0.022332634587504105,-0.0021232460967209677,1.1160780407606236e-05,-0.0005406676900517678
13.1825675964355,0.022485792615322693,-0.0022025818159230725,0.000820463501720093,0.0029950675400546274
12.0226440429688,0.022645564645416942,-0.0022746546041249403,0.0005213561354949423,-0.0006632982134848404
10.9647817611694,0.02281048904692282,-0.0023389866258945406,0.00021450604831331835,-8.556900173394043e-05
10.0,0.022979030215326827,-0.002395440254465514,0.0004333982403913264,-0.0006775328778782141
9.12010860443115,0.023149670559676247,-0.0024442297756356764,0.0004199570899325461,-0.00015787872259147642
8.31763744354248,0.023321003583975212,-0.0024859058670348,0.0004550972262100106,-0.0004424544516599999
7.58577585220337,0.023491819436233106,-0.0025213134946580115,0.0004706187644411067,-0.0003853782551642114
6.91830968856812,0.023661174954807688,-0.002551526694858604,0.0005307804364322877,-0.000314925496766504
6.30957365036011,0.023828441823316355,-0.0025777661109385327,0.0005928208925254537,-0.0003700361454902325
5.75439929962158,0.023993328712394988,-0.002601306846453013,0.0003623352716476888,0.0001836403197662869
5.24807453155518,0.02415587593838646,-0.0026233850103431814,0.0005858505986638604,-0.0001680384912157813
4.78630113601685,0.024316423863683215,-0.002645111231427056,0.0006564458017688166,-0.00016118218965405565
4.36515855789185,0.024475558714948102,-0.002667398473286779,0.0006668987292866024,8.26241258362068e-06
3.98107171058655,0.024634041447700608,-0.0026909098635177742,0.0005995133859530086,5.265497534325762e-06
3.63078045845032,0.02479272659285957,-0.002716030172189835,0.0005076150165408723,-0.00011900713772163484
3.3113112449646,0.02495247860142623,-0.002742862277869004,0.0006083435256186293,2.5798617657396203e-05
3.01995182037354,0.02511409307004544,-0.0027712476761466457,0.0006417558539066372,6.878139959505406e-05
2.75422859191895,0.025278229445159173,-0.002800808018076789,0.000458656057655573,-0.00012427029200238896
2.51188635826111,0.02544536049187654,-0.002831002975425676,0.00046035627544394053,-0.00020761466453137617
2.29086756706238,0.02561574211556991,-0.0028611985353311827,-0.00014665940563598698,0.0008208495246687171
2.0892961025238,0.025789405211023887,-0.00289073919000835,-0.0008725961752609132,0.0011518606258668499
1.90546071529388,0.025966169250131038,-0.0029190174339073453,-0.0009464603542085614,0.003762443918947555
1.73780083656311,0.02614567547019762,-0.002945534477688641,0.0003457174348478198,-0.00019891123541474105
1.58489322662354,0.02632743593381666,-0.0029699470720399045,0.00042095881031775986,8.592159830439526e-05
1.44543981552124,0.026510893516265253,-0.002992096696967591,0.000135551355801955,-2.049898261799075e-05
1.3182567358017,0.02669548711716761,-0.0030120189931822357,0.000348215019103211,1.275662647364298e-06
1.20226442813873,0.02688071613118384,-0.0030299330348904437,0.0006055004607174418,0.00048081686396045636
1.09647822380066,0.027066198444835946,-0.0030462117426932034,9.587713228924669e-05,0.00013241176224349643
1.0,0.02725171691132583,-0.0030613362546184296,0.00026071651233233045,-1.0435724548429545e-05
0.912010848522186,0.027437250316311366,-0.0030758383220774303,0.00014349184947156507,-9.802519369553038e-05
0.831763744354248,0.027622986183198098,-0.0030902356763771632,0.000388236314685899,-7.229896023063127e-06
0.758577585220337,0.027809314260348904,-0.003104965777476645,0.0003202313725802035,-0.00022439180627964505
0.691830992698669,0.02799680106434888,-0.0031203233977216372,0.0004174841949707783,-0.0002613379494655374
0.630957365036011,0.02818614730619327,-0.0031364071205531273,0.0005133759417427705,-0.0003355299145256273
0.575439929962158,0.028378131300736464,-0.0031530791020868967,0.0006068409090528651,-0.00033458336842349685
0.524807453155518,0.028573542470911727,-0.003169941416370235,0.0006033718687093251,-0.00036584369687973515
