freq,mu_Z_re,mu_Z_im,Z_re_res,Z_im_res
10000.0,0.024247871134087398,-9.4206745511391e-06,-0.0157450722720176,-0.02956916519652664
9120.1083984375,0.02424787969380061,-1.0329513588165942e-05,-0.01321377365798319,-0.027888945518770466
8317.6376953125,0.024247889984653555,-1.1326019649921455e-05,-0.008474862556650045,-0.025332716499453022
7585.77587890625,0.024247902356718226,-1.2418645559896027e-05,-0.005867765373851575,-0.0204324465423218
6918.3095703125,0.02424791723084248,-1.3616658059891187e-05,-0.005664966184975719,-0.020744385919777692
6309.5732421875,0.024247935112949707,-1.4930215755091091e-05,-0.004174254763487494,-0.01769171580401959
5754.3994140625,0.024247956611227365,-1.6370454534038433e-05,-0.002558505944896334,-0.015522502029045539
5248.07470703125,0.024247982456780455,-1.7949580906353243e-05,-0.0021347767566671436,-0.013508613422273155
4786.30078125,0.024248013528451347,-1.9680974123299753e-05,-0.0016079691476970533,-0.0129439432966087
4365.158203125,0.02424805088264088,-2.1579297753351005e-05,-0.00029355251866242105,-0.01239290236917355
3981.07177734375,0.02424809578913789,-2.36606215888056e-05,0.00355552751678569,-0.010478918812220704
3630.78051757813,0.024248149774155795,-2.594255459035569e-05,0.0010708389497615968,-0.010409618360814655
3311.31127929688,0.02424821467202605,-2.8444389875954987e-05,0.000494156266269051,-0.009137094887968055
3019.95166015625,0.024248292687264267,-3.118726243055344e-05,0.001559536921706968,-0.007389869604304153
2754.22875976563,0.024248386469095516,-3.419432070354276e-05,0.0015482220019992152,-0.006684285003955143
2511.88647460938,0.024248499200893628,-3.749091276703809e-05,0.0030389500420820274,-0.007554702051969138
2290.86767578125,0.024248634707503533,-4.110478785109272e-05,0.0012068350430061332,-0.005911137377733693
2089.29614257813,0.02424879758394253,-4.506631394595927e-05,0.001452656600241728,-0.005204871377104159
1905.46069335938,0.024248993349712762,-4.94087119708779e-05,0.000494640646022261,-0.005163663719327278
1737.80078125,0.024249228633636603,-5.416830669318542e-05,0.0013825641792957026,-0.0038057030424770853
1584.89318847656,0.024249511395207108,-5.938479414279955e-05,0.0030069133235127096,-0.0039650687828479995
1445.43981933594,0.024249851189291828,-6.510152497706956e-05,0.002167786888516328,-0.00374653025546487
1318.25671386719,0.02425025948251493,-7.136580160677706e-05,0.0025846062686563295,-0.003305299622927277
1202.26440429688,0.02425075003079858,-7.822918714165216e-05,0.00197427586786238,-0.003013305552388952
1096.47814941406,0.024251339329186494,-8.57478209233796e-05,0.002451620368066794,-0.0021735297251885798
1000.0,0.02425204714698335,-9.3982735523175e-05,0.0023539451317264523,-0.002373668545731475
912.010864257813,0.024252897162695308,-0.0001030001653430584,0.0021580942317442064,-0.0018203176654946584
831.763793945313,0.024253917715549005,-0.00011287183469237274,0.0017068030750747067,-0.0018721944276809729
758.577575683594,0.024255142691884668,-0.0001236752086035194,0.0007861434997660684,-0.002093751443614719
691.830993652344,0.02425661256654298,-0.00013549368358794603,0.0014086062286618808,-0.001047689686488546
630.957336425781,0.02425837562011226,-0.00014841668788316157,0.0022847005032156573,-0.0008803047986325615
575.43994140625,0.02426048935298248,-0.00016253965165852967,0.0023675394142083812,-0.0010417054263354296
524.807434082031,0.024263022115670656,-0.0001779637968952796,0.002210072821222757,-0.0016078195039967796
478.630096435547,0.024266054970311025,-0.00019479568121220502,0.002265324932621826,-0.00043336983483940503
436.515838623047,0.024269683790585108,-0.00021314641520435185,0.002349002790829207,-0.0007850628189188518
398.107177734375,0.024274021593705338,-0.00023313045262923605,0.0020067414472257385,-0.000535274604275836
363.078063964844,0.024279201077460504,-0.0002548638335772609,0.0023183763494484047,-0.00041564704271666094
331.131134033203,0.0242853773048728,-0.0002784617401327789,0.0017818355223743997,-0.0004084474650577789
301.995178222656,0.024292730435073333,-0.00030403520474985414,0.001179198443233935,-0.0005109825168580542
275.422882080078,0.024301468341676315,-0.00033168680279284574,0.001424894615141517,4.182937077475428e-05
251.18864440918,0.024311828884201275,-0.00036150516181012013,0.0021012327549030756,-0.0012415223981508202
229.086761474609,0.02432408150521743,-0.0003935581448303564,0.0015054155537270325,0.0007289606469867437
208.929611206055,0.024338527718703287,-0.0004278846225957074,0.0017892263328237873,9.427089125392562e-06
190.54606628418,0.024355499945128416,-0.00046448485776318273,-0.0005736156036014843,-0.0005652589952991827
173.780090332031,0.024375358047291292,-0.0005033096883930164,0.0017899585984196935,0.0001731536115034836
158.489318847656,0.02439848285576192,-0.0005442489322216361,0.001283801611865417,0.00015724162459956382
144.543975830078,0.024425265987778888,-0.0005871197410043006,-0.0009516182789552109,0.0010334281049552995
131.825668334961,0.024456095382720873,-0.0006316559826562345,0.0017704316081112725,0.0001111989170705655
120.226440429688,0.024491336274306167,-0.000677500101086497,0.001971636045138267,-0.0001266825774692969
109.647819519043,0.02453130778402025,-0.0007241991974247946,0.0015760894539945496,-0.003191907393915795
100.0,0.024576255992383972,-0.0007712072296202686,0.000581744999022471,0.0017578136572479312
91.2010803222656,0.024626325136952645,-0.0008178951063777649,0.0014969643866350434,0.000990300734189535
83.1763763427734,0.02468152941232885,-0.0008635699871972442,0.0013224952018853486,-9.279048601624422e-05
75.8577575683594,0.02474172852901463,-0.0009075042437066047,-0.02266732908817287,0.009798011498595294
69.1830978393555,0.02480661053960337,-0.0009489733406253039,0.0018014397919656686,-7.579317613550386e-05
63.0957336425781,0.02487568528383407,-0.0009873005047190398,0.0006038189771714678,-0.00034613077973313976
57.5439949035645,0.02494829104294592,-0.0010219047067316208,0.0015579997842532188,-0.00019086007844682082
52.4807472229004,0.025023615671501433,-0.0010523474627337594,0.0014343994988062318,-0.0005732223360031595
47.8630104064941,0.025100731722403475,-0.0010783735280712125,-0.0019546398303023245,-0.0006415238978663125
43.6515846252441,0.025178643232775293,-0.0010999408717479707,0.001691127485228091,0.0011372063142034295
39.810718536377,0.025256340186499266,-0.0011172363912968265,0.000884449835322966,0.0001612161839098735
36.307804107666,0.025332855583548707,-0.0011306755057410751,0.0014082831902506067,0.0010687999148978247
33.1131134033203,0.0254073197082441,-0.0011408857575385027,0.0014474408761422988,-3.979215796580285e-05
30.1995162963867,0.025479006689540267,-0.001148676499620141,0.0031007967111981657,0.000458720489509259
27.5422878265381,0.025547369653808882,-0.0011549983059284182,0.001417027125584884,5.219004794528178e-05
25.1188640594482,0.025612062462258778,-0.0011608966447329409,-0.02716869240195712,0.002724599530183659
22.9086761474609,0.025672947841178205,-0.0011674645132160556,0.0016095450543273035,0.0005096786414497444
20.8929615020752,0.025730093360303827,-0.001175798160544903,0.0013092433813800264,0.000240387244560397
19.0546073913574,0.025783757899094602,-0.0011869589458106894,0.0011536322870741023,0.00022419149662561053
17.3780078887939,0.025834371856074855,-0.001201943006406182,0.001216241678815455,0.0001229875711327179
15.8489322662354,0.025882514377145883,-0.0012216590522911757,-0.008535230348796715,0.0005106011693242244
14.4543981552124,0.02592889041202586,-0.0012469134495243206,0.0030014906873039593,0.0012145055256202793
13.1825675964355,0.025974309618193355,-0.0012784009646079311,0.0009259866425578543,0.000524984827692169
12.0226440429688,0.026019668202926522,-0.001316699145323928,0.007809201251794722,0.007226571494751272
10.9647817611694,0.02606593387922518,-0.0013622642973636,0.0010043116172241823,0.0004088793402338999
10.0,0.02611413332429699,-0.0014154272966244333,0.0006015479078607909,0.0007795225947937667
9.12010860443115,0.026165340937319783,-0.001476387981898386,0.0010275607031021844,0.00046609083692051396
8.31763744354248,0.026220667319102824,-0.0015452075157178816,0.0017903662786918247,0.0006436436098204185
7.58577585220337,0.026281245766952965,-0.0016217988116314379,0.0009233865577730656,0.0004480849353948621
6.91830968856812,0.026348215180746898,-0.0017059158530145562,0.0009108340622108989,0.0003925590313911438
6.30957365036011,0.026422698128020054,-0.0017971433948323354,-0.0022685862304813453,0.0010808619887038647
5.75439929962158,0.026505773395936173,-0.0018948890919855592,0.000688757256309673,0.00042800868870104076
5.24807453155518,0.0265984431446185,-0.001998380440509105,0.0007607963473191016,0.000417861473524695
4.78630113601685,0.02670159570319813,-0.0021066689809017504,0.0002875626776949296,0.0010409284437841496
4.36515855789185,0.026815966018050003,-0.002218643928648615,0.0006228296687296013,0.000380767249731585
3.98107171058655,0.02694209663805435,-0.002333056745136105,0.002259965973467351,0.001032505785098295
3.63078045845032,0.027080302759496556,-0.0024485571729895464,0.0005624645198267567,0.00030876975963435365
3.3113112449646,0.027230645125826125,-0.002563740032154356,0.0004918431547482234,0.0004574249979227437
3.01995182037354,0.027392914394661946,-0.0026772007526238628,0.00028344790153224733,0.0016479832871476368
2.75422859191895,0.027566629929108112,-0.002787596381644046,0.00012074550764031369,-0.0004749666651732462
2.51188635826111,0.027751054890495654,-0.0028937078270529094,-7.886784519544471e-05,-0.0005225032757436095
2.29086756706238,0.027945228124069504,-0.0029944985192116346,0.0012699684296124045,0.0005638864338550656
2.0892961025238,0.028148011795873253,-0.003089164582688533,1.955174624405226e-05,0.00035099874841776693
1.90546071529388,0.02835815223689182,-0.003177172022597213,0.0006986447685490213,0.00035456406631938697
1.73780083656311,0.028574350143041924,-0.003258277307238831,0.0005706873184112247,0.000168768345403969
1.58489322662354,0.028795335307716403,-0.0033325289725797446,0.00035772831737900315,-7.221929310544713e-06
1.44543981552124,0.029019940513731315,-0.003400249350991185,0.0002908630851520162,0.0002277258874959151
1.3182567358017,0.029247169130457343,-0.00346199709892232,0.00023203411043974317,0.00021734174370797998
1.20226442813873,0.02947625133737656,-0.0035185127054743717,0.0006621497456702589,7.225037539072832e-05
1.09647822380066,0.029706684683554162,-0.0035706504996560655,-0.0012428911429715368,-0.00025714983266526565
1.0,0.02993825580920321,-0.003619301709377323,-0.00016233567152879047,-0.00046809261574702306
0.912010848522186,0.030171041501168266,-0.0036653138135253247,0.00039789931238076726,-7.059331021002464e-05
0.831763744354248,0.030405388714936858,-0.003709411713288548,0.0003331336548601585,-0.00016438239160314816
0.758577585220337,0.030641874659734537,-0.003752126134558207,0.00023395045466973602,-0.00012237835638100698
0.691830992698669,0.03088124940585666,-0.003793734186298159,0.0005226052035050589,-6.636284754335921e-05
0.630957365036011,0.03112436464367294,-0.003834216181353356,0.00043203128812693836,-0.000142406696618256
0.575439929962158,0.03137209313185648,-0.0038732317519554415,0.0004202877190871805,-0.00012898857343884157
0.524807453155518,0.03162524396830005,-0.0039101170380204785,0.0004098202502052471,-0.00021072495771347864
