freq,mu_Z_re,mu_Z_im,Z_re_res,Z_im_res
10000.0,0.01819485210634426,-4.5075925318452216e-05,-0.0014373812004213407,-0.007231356488792152
9120.1083984375,0.018194941872386634,-4.94236185609513e-05,-0.0010086781590893656,-0.006014826899713151
8317.6376953125,0.018195049787071555,-5.4190403450404454e-05,-0.0013608281070915454,-0.005687230269093104
7585.77587890625,0.01819517951774695,-5.941659685948511e-05,-0.0010572548551549509,-0.006248842072754885
6918.3095703125,0.018195335472002024,-6.514636856901168e-05,-0.0007281688060617741,-0.005010987520789912
6309.5732421875,0.018195522946691894,-7.142810074034064e-05,-0.0007446836704250066,-0.0029948308031761406
5754.3994140625,0.018195748306863605,-7.831477962375719e-05,0.00046198812877450493,-0.0034428365568810572
5248.07470703125,0.01819601920039537,-8.586441901315252e-05,-0.0005505337884914273,-0.0028005058112440524
4786.30078125,0.01819634481546469,-9.414051879645201e-05,-0.00014154941561630996,-0.0033369565963416517
4365.158203125,0.01819673618920526,-0.0001032125589620693,-0.0003124729668311406,-0.0021477769048135692
3981.07177734375,0.018197206577561277,-0.00011315653057235211,0.0019089130519846786,-0.0029767450406534522
3630.78051757813,0.018197771898138402,-0.00012405550309175776,-0.0004833743063331966,-0.0029523080048774577
3311.31127929688,0.01819845126009387,-0.00013600022777390884,0.001253955299023772,-0.002942862345496509
3019.95166015625,0.018199267597588737,-0.00014908977468023092,0.00017627029279153675,-0.0015395965209276307
2754.22875976563,0.018200248425980416,-0.00016343219697929085,0.0007028392908772149,-0.0005028188324391909
2511.88647460938,0.018201426743764095,-0.00017914521920562836,0.0002186513983193951,-0.0006038050010620284
2290.86767578125,0.018202842105892382,-0.00019635693281119313,0.0011034467115670805,-0.0010257792553786931
2089.29614257813,0.01820454189942825,-0.00021520649032760308,0.0006837398038958484,-0.0007330064167836031
1905.46069335938,0.018206582854824804,-0.00023584476734696375,0.0004833112315710021,-0.0012856706890016637
1737.80078125,0.01820903283185313,-0.00025843496748188864,0.0006677751672918321,-0.0011427312818069887
1584.89318847656,0.018211972922409964,-0.0002831531263937962,0.0008079605403794633,-0.0007965107605841963
1445.43981933594,0.018215499914957377,-0.0003101884586849233,0.00024105059332977727,0.00019575637168047665
1318.25671386719,0.018219729167079587,-0.0003397434725023913,0.00045283066914048736,-0.00048766686311619136
1202.26440429688,0.01822479793118754,-0.00037203375815534674,0.0005985198287896398,-0.0002461273570743467
1096.47814941406,0.018230869173008146,-0.0004072873291793291,0.0001434336592733461,-5.2277088142129054e-05
1000.0,0.018238135908591975,-0.0004457433577232712,-0.00040728103662702325,1.6005647175228806e-05
912.010864257813,0.01824682606590242,-0.00048765011822080387,0.0007192029638335186,-0.00012916953644000385
831.763793945313,0.018257207839941756,-0.0005332619033992373,0.0010984573952910574,0.00032435516237686274
758.577575683594,0.018269595459156282,-0.0005828346421360764,0.0005755450130035811,0.0004162947351694237
691.830993652344,0.018284355204743846,-0.0006366199051025182,-0.0005607875918917544,0.0005268216663044818
630.957336425781,0.018301911418542136,-0.000694856951708629,-0.00010019936670376331,-0.00018602379900102897
575.43994140625,0.01832275210601522,-0.0007577624772867951,9.910135251711694e-05,0.00019174981674110493
524.807434082031,0.018347433566005003,-0.0008255177343026636,-0.0002753485153605961,0.0002110867828367365
478.630096435547,0.018376583282544535,-0.0008982527938689855,3.269319672813409e-05,4.360792850881452e-05
436.515838623047,0.018410900101998712,-0.0009760278815932648,0.0002733631590399119,0.00012300761150493519
398.107177734375,0.01845115052606375,-0.001058812005103492,-0.0002580750540324486,0.00026459131982830794
363.078063964844,0.018498159794656494,-0.0011464594694913406,-1.7780960949207586e-05,0.00022328215938645932
331.131134033203,0.018552796410436945,-0.0012386854079720218,-0.00028424201715435485,0.00023638298332867807
301.995178222656,0.018615948937848056,-0.00133504208516922,-0.000235945947453544,0.00010163916866627988
275.422882080078,0.018688494305730056,-0.0014348983466711224,-0.00021860379385924347,-0.00010296003241952239
251.18864440918,0.018771257652079612,-0.0015374251991301493,-5.309243675518868e-05,-0.00034064239596724917
229.086761474609,0.0188649647378455,-0.0016415907600664595,-0.0006385039097536981,0.0005482776025539406
208.929611206055,0.01897018933962584,-0.00174616777937607,-0.00052089271773096,0.00044140114780762997
190.54606628418,0.019087299310897327,-0.0018497562231859067,-0.00012471007433087142,-0.00016712722930970684
173.780090332031,0.019216406188477,-0.0019508221810988784,-0.0004698456902614001,0.0002626039860464215
158.489318847656,0.019357323821394216,-0.002047752542784842,-0.0001675615201308829,7.059350573415798e-05
144.543975830078,0.019509541393028528,-0.002138922835518065,-0.00011327810515277328,0.0001200855180579349
131.825668334961,0.019672215186991634,-0.0022227736172608092,-0.0002900173729277651,-0.00010827020568470944
120.226440429688,0.01984418167087488,-0.002297889324206666,-2.0062336022197425e-06,-0.0001835386495327657
109.647819519043,0.020023992196963786,-0.0023630727589880164,-0.000168282626821014,-0.00013882089823531642
100.0,0.02020996714070188,-0.0024174086803296076,6.061324909078028e-05,2.9479101513892568e-05
91.2010803222656,0.020400265260201462,-0.002460311112913092,0.0010306518809614605,7.478898206090797e-05
83.1763763427734,0.02059296252094335,-0.0024915508628487646,-7.849266864234927e-05,-0.0002389723603278644
75.8577575683594,0.020786134076094483,-0.0025112618743759695,-0.00026267439427391653,-8.198004731366964e-05
69.1830978393555,0.02097793324954396,-0.00251992719694621,0.00016286253101716053,-0.00032653051875180996
63.0957336425781,0.021166662312176968,-0.0025183470838381077,-7.452573713943172e-05,8.227155426009233e-05
57.5439949035645,0.021350831138725965,-0.0025075929951274725,-0.0003905311498682354,-4.2245468532472585e-05
52.4807472229004,0.02152920142450984,-0.0024889518548442094,-0.0002638250525886614,0.0007641956168518904
47.8630104064941,0.021700815548649093,-0.002463865036045651,0.0004958019307758944,-3.5199278866450846e-05
43.6515846252441,0.02186501050996705,-0.00243386609941928,-0.00013045941782075313,-0.0004620219813308798
39.810718536377,0.022021418226807463,-0.0024005207374816887,1.730190023696218e-05,-3.791695014898882e-05
36.307804107666,0.022169954180757685,-0.002365371486756909,-2.047322686461392e-05,-0.0001272894857712089
33.1131134033203,0.02231079661984655,-0.002329889024374942,0.00011622668941235065,0.0001682070635724577
30.1995162963867,0.022444358625065365,-0.002295431065354808,5.050160538266207e-06,1.6688471842921451e-06
27.5422878265381,0.022571255167605976,-0.002263209294065845,-3.264034759752413e-05,-0.00012533830060074483
25.1188640594482,0.02269226704484644,-0.0022342642619509953,-0.00010551865452105777,3.8617538357804855e-05
22.9086761474609,0.022808303242893055,-0.0022094478978847824,0.00012419663962825317,-0.0003529264274125825
20.8929615020752,0.022920362963979948,-0.00218941306888775,4.011796385594915e-05,0.00014092015840395022
19.0546073913574,0.023029498248599838,-0.0021746096005459954,-1.4512375689661183e-05,-8.286003934395488e-06
17.3780078887939,0.023136777901878503,-0.0021652861757772927,9.980248831760463e-05,0.0001697267146212075
15.8489322662354,0.023243253278960995,-0.002161497621675201,-0.00013536850787180393,-0.00015823626785470106
14.4543981552124,0.023349926423524757,-0.0021631171990380447,-2.8609681631142775e-05,-5.060122983614485e-05
13.1825675964355,0.023457721077018517,-0.0021698535618532994,-3.080236155438357e-05,-0.00013818919781339927
12.0226440429688,0.023567457150935046,-0.002181272096719959,-0.0001607272510539548,-8.073992074695896e-05
10.9647817611694,0.023679829366821743,-0.0021968202590864983,0.0001850176382250414,-2.172686345109807e-05
10.0,0.023795390855348843,-0.002215856390444709,-2.7481112801257257e-05,5.3887318448890813e-05
9.12010860443115,0.02391454254220659,-0.0022376812438359454,-1.755493749441145e-05,-0.00016987993408654548
8.31763744354248,0.024037529081396065,-0.0022615711652877878,-0.00013685755402663424,1.3377938306012062e-05
7.58577585220337,0.024164441911751093,-0.00228681156473725,2.9265819364892448e-05,6.495046367374982e-05
6.91830968856812,0.024295229694390692,-0.002312729054699491,8.945562555829137e-05,-3.993663574490807e-06
6.30957365036011,0.024429715958277233,-0.002338720452915644,0.0001085063189664344,-0.00015035640908384398
5.75439929962158,0.024567623265334494,-0.0023642768171849102,1.2476571151092547e-05,-2.1515090135010295e-05
5.24807453155518,0.02470860266122515,-0.0023890008079612063,-9.61775985032498e-05,2.8411778548893644e-05
4.78630113601685,0.024852266659058847,-0.0024126159972812067,0.00010487449637824539,-0.00017940690883650693
4.36515855789185,0.024998223578776138,-0.0024349672239631507,4.708936656737384e-06,3.6585624902493903e-06
3.98107171058655,0.025146110790416364,-0.00245601172934231,-9.878457839813601e-05,-3.645710091051014e-05
3.63078045845032,0.025295624333976127,-0.0024758015207999857,2.0429316519125773e-05,4.284651199514249e-06
3.3113112449646,0.0254465425375141,-0.0024944581499644555,-0.00010733213394510319,-3.828158959235566e-05
3.01995182037354,0.02559874163385704,-0.0025121417740641893,-8.666186216995872e-05,-8.461243128689462e-06
2.75422859191895,0.02575220196139343,-0.0025290169299737653,-6.2791345600971e-05,-0.00011396315071446556
2.51188635826111,0.025907004081706785,-0.002545217806695697,-0.00019921938230531636,8.785067103920293e-05
2.29086756706238,0.026063314987537063,-0.0025608159362207326,-3.5903068068835614e-05,6.008551056876747e-05
2.0892961025238,0.02622136543084688,-0.002575793072904263,-0.0003015075386613199,2.763583106283685e-05
1.90546071529388,0.026381420185738365,-0.0025900216434515833,6.369150238586321e-05,-0.00011326541531758326
1.73780083656311,0.026543743695911927,-0.002603254518208938,8.638926952792697e-05,-0.000214388598425238
1.58489322662354,0.02670856397405761,-0.0026151250658226176,-4.861112877228846e-05,4.8624437149082274e-05
1.44543981552124,0.026876037777298703,-0.0026251575612611967,0.00032152405464050404,0.00023885353643820313
1.3182567358017,0.02704621996223958,-0.002632787132817898,0.000112821864486079,-0.00014400310646339775
1.20226442813873,0.02721903953668837,-0.0026373876144717293,-5.007240953682976e-05,-6.0468341929729476e-05
1.09647822380066,0.027394284316289763,-0.0026383050324768247,-2.651772559843571e-05,2.7055192887675238e-05
1.0,0.02757159532414231,-0.0026348940191336565,-1.4982136027488074e-05,3.122313865334351e-05
0.912010848522186,0.027750471222953703,-0.0026265542858049705,-0.00020279028658399742,0.00014170660667562956
0.831763744354248,0.02793028222550157,-0.0026127643791887508,-7.133761751629969e-06,2.0472900762749224e-05
0.758577585220337,0.028110292172131547,-0.002593110283756339,-6.719642311575277e-05,5.176061213596093e-05
0.691830992698669,0.028289686862619796,-0.0025673069726744433,-6.098861595780353e-05,-4.311825298464319e-05
0.630957365036011,0.028467606330280046,-0.0025352116827338724,-0.00012534340285805246,4.566757339532785e-05
0.575439929962158,0.028643178573297547,-0.00249682842313493,0.000160774967121146,3.415429473667018e-05
0.524807453155518,0.02881555230987971,-0.002452303953156555,7.883989883370954e-05,-8.167519202905479e-05
