freq,mu_Z_re,mu_Z_im,Z_re_res,Z_im_res
10000.0,0.02146030874294077,-1.074729747370778e-05,-0.02653932659584253,-0.03962576372809011
9120.1083984375,0.021460314357821475,-1.1784155810116224e-05,-0.021493445074017528,-0.036232394297564315
8317.6376953125,0.021460321108310643,-1.292104151448861e-05,-0.015841725905925856,-0.03095853129651749
7585.77587890625,0.021460329224064822,-1.416760286517675e-05,-0.01355632297258088,-0.029045615669099776
6918.3095703125,0.021460338981175515,-1.5534418291261146e-05,-0.010231782196736285,-0.02694382886833586
6309.5732421875,0.02146035071155492,-1.7033085910531724e-05,-0.008546069155722182,-0.022014801517812432
5754.3994140625,0.02146036481421665,-1.8676321606560754e-05,-0.006282827575390747,-0.02101208786259166
5248.07470703125,0.02146038176883501,-2.047806650468064e-05,-0.0055223596615667885,-0.01920550331145588
4786.30078125,0.02146040215204098,-2.245360466602711e-05,-0.00560172335197592,-0.019100270582763028
4365.158203125,0.021460426657007786,-2.4619692012812602e-05,-0.0025139044388069152,-0.014541548856541613
3981.07177734375,0.021460456116988,-2.6994697461496502e-05,-0.0030104878405792027,-0.013113157204995497
3630.78051757813,0.02146049153359789,-2.9598757409075227e-05,0.01182995301040079,-0.0051184174826075755
3311.31127929688,0.021460534110805476,-3.245394476851224e-05,-0.0030069024859457234,-0.010186616478349812
3019.95166015625,0.021460585295769437,-3.5584453871330076e-05,-0.0010026302192480616,-0.01022178914063223
2754.22875976563,0.021460646827905685,-3.90168025735364e-05,-0.0031531843643493145,-0.009741255988145136
2511.88647460938,0.021460720797833475,-4.2780053076694834e-05,-0.0004918654506835228,-0.008900321770665595
2290.86767578125,0.021460809718181803,-4.6906052934287746e-05,0.0010698837892315037,-0.0075244689274897875
2089.29614257813,0.021460916608629574,-5.142969795849553e-05,-0.0007117933183333272,-0.007353325111506195
1905.46069335938,0.021461045098029735,-5.638921865185002e-05,3.270405205403615e-05,-0.0064957649097676495
1737.80078125,0.021461199547003387,-6.182649183647693e-05,0.0036596782010303863,-0.007017421713206877
1584.89318847656,0.0214613851950892,-6.778737913748433e-05,0.0010963649348744026,-0.005600331485382484
1445.43981933594,0.021461608337265577,-7.432209391818064e-05,0.002615547256571378,-0.0022843337996742803
1318.25671386719,0.021461876535664736,-8.14855980641033e-05,0.000496862882624835,-0.004602253897762904
1202.26440429688,0.0214621988733094,-8.933802973290023e-05,0.0009036982108633976,-0.0069863963676597
1096.47814941406,0.021462586258052904,-9.794516289007317e-05,-2.5457549103942434e-06,-0.002259139267591273
1000.0,0.02146305178636017,-0.00010737889847321301,0.0007628150039285693,-0.003622397048683513
912.010864257813,0.021463611178311717,-0.00011771778657899162,-0.00031256767341198213,-0.003994195732174892
831.763793945313,0.021464283297207763,-0.00012904757726295575,-0.00011058459207733892,-0.0018224796801740556
758.577575683594,0.021465090769397982,-0.0001414617963550324,0.12251359011517698,-0.011951442293119233
691.830993652344,0.02146606072249218,-0.00015506233984125795,-0.0017187062704344218,-0.005232455134033058
630.957336425781,0.021467225662821762,-0.0001699600772318691,0.00042732994949246095,-0.002283697475990369
575.43994140625,0.021468624516009196,-0.00018627545039479404,0.0002119206325996957,-0.001389313481630094
524.807434082031,0.02147030385746569,-0.00020413904871626837,0.0009111866594752882,-0.00032659152361396836
478.630096435547,0.021472319362410876,-0.00022369213410767662,0.0006549929806082752,-0.0007620467572390766
436.515838623047,0.021474737507333155,-0.0002450870802864151,0.00043023547254975383,-0.000803582951077715
398.107177734375,0.02147763755626179,-0.0002684876796167276,0.003204051148957991,-0.005247267382995328
363.078063964844,0.021481113864743755,-0.00029406925596565166,0.0013964421885848538,0.00042163153711434833
331.131134033203,0.021485278531426174,-0.00032201850486343473,-0.0022064594929278245,-0.003237833023791935
301.995178222656,0.0214902644199111,-0.0003525329612362664,-0.000113919641377698,-0.0003664856222290662
275.422882080078,0.021496228560371776,-0.00038581997083369623,-0.00030621545060122504,-0.00016499288190959622
251.18864440918,0.02150335591908583,-0.0004220950149889957,0.00012151580926073047,-0.0004349204018641883
229.086761474609,0.021511863491063012,-0.0004615792095995821,9.836400163641332e-05,-0.001700813209112582
208.929611206055,0.021522004624301094,-0.0005044957735359109,-0.0008162143626870046,-0.00013555160800631086
190.54606628418,0.021534073419913667,-0.0005510652414840321,-0.00030964867021143413,8.82975430841679e-05
173.780090332031,0.021548408967843446,-0.0006014991885010675,-0.0001530889892669557,-1.4217068250967557e-05
158.489318847656,0.02156539907261347,-0.0006559922483111384,-0.0009251116444208285,-0.0001601346309590383
144.543975830078,0.021585483001627923,-0.0007147122582391497,-0.0005732161085223765,1.018266771275029e-05
131.825668334961,0.02160915265639249,-0.0007777884620688953,0.00013493466039129,-0.00030596697069519525
120.226440429688,0.021636951439995212,-0.0008452978620878835,-0.0005800130730681877,-0.0005685183098647834
109.647819519043,0.021669470002226444,-0.0009172500474123726,-0.00023405044776955708,0.00033158972955062746
100.0,0.021707338013692793,-0.000993571130821692,-0.001021866953925206,0.000719428641458708
91.2010803222656,0.02175121120429857,-0.0010740877947263256,-0.0009493276544727293,-0.00014074267851712564
83.1763763427734,0.02180175312839628,-0.001158512832352081,2.13945009577797e-05,0.000487339746451819
75.8577575683594,0.021859611528764582,-0.0012464339193212506,-0.0006866332564250191,-0.0001103813806804506
69.1830978393555,0.021925389759487754,-0.0013373075757197182,-0.0007228218091062458,-0.00015973807368651824
63.0957336425781,0.021999614458917766,-0.0014304602910710869,-0.0006455107066639341,-0.0002662719153745869
57.5439949035645,0.022082701452552134,-0.001525098505251816,-0.00036555888456216504,-0.00023406166658621595
52.4807472229004,0.02217492258567575,-0.0016203285280513428,-0.0009247829912209481,-0.0002035044684904428
47.8630104064941,0.022276376687110775,-0.0017151865598657972,-0.0006315844728337246,-0.00024692695149279727
43.6515846252441,0.022386968010009726,-0.0018086778396897668,-0.001020509875474973,-0.00036981042252566673
39.810718536377,0.022506395201136717,-0.0018998227474662432,-0.00046932712669168347,3.5220857578156795e-05
36.307804107666,0.022634153090072124,-0.001987706617646033,-0.0007830720174784762,-0.00026680154652163296
33.1131134033203,0.02276954844792065,-0.0020715292617422233,-0.0005463077853185526,-0.0005015203337860232
30.1995162963867,0.022911729478059535,-0.002150649891877513,-0.00021243262964656603,-0.000462241692179813
27.5422878265381,0.02305972737036807,-0.0022246233471411034,-0.00046738262511632905,-0.00041335158094050334
25.1188640594482,0.023212506970972515,-0.0022932242309824874,-0.0005438667027048844,-0.0008314143806846875
22.9086761474609,0.02336902266675613,-0.0023564566705508265,-1.9910723622871412e-05,-0.0016208155044487266
20.8929615020752,0.023528275065573208,-0.0024145487609977807,-0.0003149872790255935,0.0005239031829212194
19.0546073913574,0.023689364022951576,-0.0024679321748835945,-0.00015537912454082273,-0.0002132160542232947
17.3780078887939,0.023851533989879624,-0.002517208738603435,-0.0004369024080304769,-0.0005800258856051349
15.8489322662354,0.024014208465263278,-0.002563106851337267,-0.0003759171819239203,-0.00042720467379486716
14.4543981552124,0.024177011403645112,-0.0026064313627148163,-0.0002207957921375875,-0.0003251157380009164
13.1825675964355,0.02433977462913587,-0.002648010875440602,8.748099770147094e-05,-0.00018993884079850218
12.0226440429688,0.024502531502955463,-0.002688646406219861,9.183852803046344e-05,-0.0006511379930242609
10.9647817611694,0.024665498172512908,-0.002729064959934394,-0.00016604271007449392,-0.0003546871597826938
10.0,0.024829044604210256,-0.0027698809202568756,-0.00010661441692884355,-0.00033858603944947547
9.12010860443115,0.024993658213982275,-0.0028115673201726584,-0.00020884335123572476,-0.0002682503989534582
8.31763744354248,0.025159903231653357,-0.002854438124834791,-0.0001966428126963446,-0.00016232239888539076
7.58577585220337,0.025328378972658477,-0.0028986417234613195,-0.0002088958052308236,-0.00028415126844491935
6.91830968856812,0.025499679970102333,-0.0029441649676127477,-0.00012872658435816864,-0.00010808097429704754
6.30957365036011,0.025674360488318265,-0.002990846372513285,-0.00025736106488813415,-7.663908351798494e-05
5.75439929962158,0.025852905353985343,-0.0030383965569996682,-0.00030040577939935767,-4.329216804568187e-06
5.24807453155518,0.02603570836497205,-0.003086423664019377,-0.00012709480809314916,-9.015381768437674e-05
4.78630113601685,0.026223058834121002,-0.0031344613759226123,-0.0002584932153965984,-0.00014328819237721235
4.36515855789185,0.02641513615168853,-0.003181997210274556,-0.00024121769450387298,-0.00012548220206345592
3.98107171058655,0.026612011655452628,-0.003228499022239012,-0.0001290273524494727,-0.00015840486522871204
3.63078045845032,0.026813656618416348,-0.0032734380160265916,-0.0002326308138966525,-0.00011602119177519165
3.3113112449646,0.02701995482548832,-0.003316307036096704,-0.00017050134137508097,-0.00023070775520290382
3.01995182037354,0.02723071802414245,-0.003356633426143991,-0.00010447125875165039,-0.0001258188369564913
2.75422859191895,0.027445702499413045,-0.0033939862649134565,-0.00018443478021665585,-0.00015747873365805657
2.51188635826111,0.02766462512914765,-0.0034279782754172736,-0.00020133047695524917,-2.9590116887273643e-05
2.29086756706238,0.027887177500918882,-0.0034582631224271522,-0.0002125568352189175,-0.00020125136053835216
2.0892961025238,0.028113036990100464,-0.0034845291381524835,0.00011175276332526379,7.870986817311645e-05
1.90546071529388,0.028341874077943467,-0.0035064907302379306,-0.0002939928620780338,-9.020744126743072e-05
1.73780083656311,0.02857335559553317,-0.0035238788224401284,-0.00020407423847502992,-6.259169835772828e-05
1.58489322662354,0.02880714398157088,-0.0035364316580691816,-0.00013432528543981873,-0.00013791101890298172
1.44543981552124,0.02904289300862215,-0.003543887168388598,-0.00010908123728375213,-0.0002246998457571983
1.3182567358017,0.02928024073842636,-0.003545977891487315,-0.00013187239166623926,3.5899979347851774e-06
1.20226442813873,0.029518800692055015,-0.0035424291406832716,-0.00010799533000248329,-0.0004900326737277715
1.09647822380066,0.029758152353066163,-0.0035329607952364647,-0.00019732975731493602,-4.570715499764653e-06
1.0,0.029997832155727294,-0.0035172927437291963,-3.9412626124505495e-05,-4.8002299101796396e-05
0.912010848522186,0.03023732604901693,-0.003495153682270373,5.911686228730895e-06,-5.6437393614373194e-05
0.831763744354248,0.030476064579664994,-0.003466292678652902,5.160194832019502e-05,-4.6229617013301624e-05
0.758577585220337,0.030713421219829548,-0.003430492680790935,-0.00014736044978715113,2.4507084590264915e-05
0.691830992698669,0.030948714397562707,-0.003387584989810957,-8.227578579069264e-05,0.00010484369852144281
0.630957365036011,0.03118121339392662,-0.0033374636418349677,-0.00010543973731998169,0.0002077458907686321
0.575439929962158,0.03141014797394347,-0.003280098651433676,-0.0002139233260863363,0.00018838293953762388
0.524807453155518,0.031634721342484955,-0.0032155471579715733,-0.00035610478742834767,0.0002579919802412267
